Command: /fetools/work_area/frontend/Batch_11/Kittu_Patel/UVM/Project/AXI/./simv -cm line+cond+fsm+tgl+branch -l sim.log
Chronologic VCS simulator copyright 1991-2020
Contains Synopsys proprietary information.
Compiler version Q-2020.03-SP2-8_Full64; Runtime version Q-2020.03-SP2-8_Full64;  Sep 18 00:14 2026
----------------------------------------------------------------
UVM-1.1d.Synopsys
(C) 2007-2013 Mentor Graphics Corporation
(C) 2007-2013 Cadence Design Systems, Inc.
(C) 2006-2013 Synopsys, Inc.
(C) 2011-2013 Cypress Semiconductor Corp.
----------------------------------------------------------------

  ***********       IMPORTANT RELEASE NOTES         ************

  You are using a version of the UVM library that has been compiled
  with `UVM_NO_DEPRECATED undefined.
  See http://www.eda.org/svdb/view.php?id=3313 for more details.

  You are using a version of the UVM library that has been compiled
  with `UVM_OBJECT_MUST_HAVE_CONSTRUCTOR undefined.
  See http://www.eda.org/svdb/view.php?id=3770 for more details.

      (Specify +UVM_NO_RELNOTES to turn off this notice)

UVM_INFO @ 0: reporter [RNTST] Running test axi_regression_test...
UVM_INFO @ 0: reporter [UVMTOP] UVM testbench topology:
------------------------------------------------------------------
Name                       Type                        Size  Value
------------------------------------------------------------------
uvm_test_top               axi_regression_test         -     @461 
  env                      axi_env                     -     @469 
    agt                    axi_act_agent               -     @477 
      drv                  axi_driver                  -     @751 
        rd_item_port       uvm_seq_item_pull_port      -     @777 
        rsp_port           uvm_analysis_port           -     @768 
        seq_item_port      uvm_seq_item_pull_port      -     @759 
      mon                  axi_monitor                 -     @786 
        read_ap            uvm_analysis_port           -     @804 
        write_ap           uvm_analysis_port           -     @795 
      rd_sqr               axi_sequencer               -     @628 
        rsp_export         uvm_analysis_export         -     @636 
        seq_item_export    uvm_seq_item_pull_imp       -     @742 
        arbitration_queue  array                       0     -    
        lock_queue         array                       0     -    
        num_last_reqs      integral                    32    'd1  
        num_last_rsps      integral                    32    'd1  
      wr_sqr               axi_sequencer               -     @505 
        rsp_export         uvm_analysis_export         -     @513 
        seq_item_export    uvm_seq_item_pull_imp       -     @619 
        arbitration_queue  array                       0     -    
        lock_queue         array                       0     -    
        num_last_reqs      integral                    32    'd1  
        num_last_rsps      integral                    32    'd1  
    cov                    axi_sub                     -     @493 
      read_export          uvm_analysis_imp_cov_read   -     @833 
      write_export         uvm_analysis_imp_cov_write  -     @824 
    scb                    axi_scb                     -     @485 
      read_export          uvm_analysis_imp_read_txn   -     @851 
      write_export         uvm_analysis_imp_write_txn  -     @842 
------------------------------------------------------------------

UVM_INFO axi_sanity_test.sv(14) @ 0: uvm_test_top.env.agt.wr_sqr@@sanity_wr_seq [AXI_SANITY_WR] Starting Sanity Write Sequence
UVM_INFO axi_sanity_test.sv(43) @ 0: uvm_test_top.env.agt.rd_sqr@@sanity_rd_seq [AXI_SANITY_RD] Starting Sanity Read Sequence
UVM_INFO axi_b2b_write.sv(13) @ 0: uvm_test_top.env.agt.wr_sqr@@b2b_seq [AXI_B2B_WRITE] Starting Back-to-Back Write Sequence
UVM_INFO axi_dec_err.sv(13) @ 0: uvm_test_top.env.agt.wr_sqr@@dec_wr_seq [AXI_DEC_ERR] Starting Decode Error Sequence
UVM_INFO axi_dec_err.sv(13) @ 0: uvm_test_top.env.agt.rd_sqr@@dec_rd_seq [AXI_DEC_ERR] Starting Decode Error Sequence
UVM_INFO axi_slv_err.sv(14) @ 0: uvm_test_top.env.agt.wr_sqr@@slv_wr_seq [AXI_SLV_ERR] Starting Slave Error Sequence
UVM_INFO axi_slv_err.sv(14) @ 0: uvm_test_top.env.agt.rd_sqr@@slv_rd_seq [AXI_SLV_ERR] Starting Slave Error Sequence
UVM_INFO axi_wstrb_seq.sv(14) @ 0: uvm_test_top.env.agt.wr_sqr@@strb_seq [AXI_WSTRB] Starting WSTRB Test Sequence
UVM_INFO axi_negative_test.sv(14) @ 0: uvm_test_top.env.agt.wr_sqr@@neg_w_seq [AXI_NEGATIVE] Starting Negative Test Sequence
UVM_INFO axi_negative_test.sv(14) @ 0: uvm_test_top.env.agt.rd_sqr@@neg_r_seq [AXI_NEGATIVE] Starting Negative Test Sequence
UVM_INFO axi_top.sv(25) @ 15: reporter [TESTBENCH] Reset released
UVM_INFO axi_input_monitor.sv(117) @ 45: uvm_test_top.env.agt.mon [AXI_MONITOR] [READ COMPLETE] addr=0x00000020 data=0x00000000 resp=0
UVM_INFO axi_scoreboard.sv(125) @ 45: uvm_test_top.env.scb [AXI_SCOREBOARD] [READ DATA PASS] addr=0x00000020 data=0x00000000
UVM_INFO axi_sanity_test.sv(52) @ 55: uvm_test_top.env.agt.rd_sqr@@sanity_rd_seq [AXI_SANITY_RD] READ addr=0x00000020 data=0x00000000 resp=0
UVM_INFO axi_input_monitor.sv(78) @ 65: uvm_test_top.env.agt.mon [AXI_MONITOR] [WRITE COMPLETE] addr=0x00000020 data=0x86fc2156 strb=0xf resp=0
UVM_INFO axi_scoreboard.sv(85) @ 65: uvm_test_top.env.scb [AXI_SCOREBOARD] [WRITE RESP PASS] addr=0x00000020 resp=2'b00
UVM_INFO axi_input_monitor.sv(117) @ 75: uvm_test_top.env.agt.mon [AXI_MONITOR] [READ COMPLETE] addr=0x000000bc data=0x00000000 resp=3
UVM_INFO axi_scoreboard.sv(136) @ 75: uvm_test_top.env.scb [AXI_SCOREBOARD] [READ ERR PASS] addr=0x000000bc resp=2'b11 data=0x00000000
UVM_INFO axi_sanity_test.sv(23) @ 75: uvm_test_top.env.agt.wr_sqr@@sanity_wr_seq [AXI_SANITY_WR] WRITE addr=0x00000020 data=0x86fc2156 resp=0
UVM_INFO axi_dec_err.sv(28) @ 85: uvm_test_top.env.agt.rd_sqr@@dec_rd_seq [AXI_DEC_ERR] WRITE out-of-range addr=0x00000064 resp=0 (expected DECERR=3)
UVM_INFO axi_input_monitor.sv(117) @ 105: uvm_test_top.env.agt.mon [AXI_MONITOR] [READ COMPLETE] addr=0x00000038 data=0x00000000 resp=2
UVM_INFO axi_scoreboard.sv(136) @ 105: uvm_test_top.env.scb [AXI_SCOREBOARD] [READ ERR PASS] addr=0x00000038 resp=2'b10 data=0x00000000
UVM_INFO axi_slv_err.sv(28) @ 115: uvm_test_top.env.agt.rd_sqr@@slv_rd_seq [AXI_SLV_ERR] WRITE to RO addr=0x0000002c resp=0 (expected SLVERR=2)
UVM_INFO axi_b2b_write.sv(22) @ 125: uvm_test_top.env.agt.wr_sqr@@b2b_seq [AXI_B2B_WRITE] B2B WRITE addr=0x00000018 data=0x0d2f5a3e resp=0
UVM_INFO axi_top.sv(25) @ 135: reporter [TESTBENCH] Reset released
UVM_INFO axi_input_monitor.sv(117) @ 155: uvm_test_top.env.agt.mon [AXI_MONITOR] [READ COMPLETE] addr=0x00000014 data=0x00000000 resp=0
UVM_INFO axi_scoreboard.sv(125) @ 155: uvm_test_top.env.scb [AXI_SCOREBOARD] [READ DATA PASS] addr=0x00000014 data=0x00000000
UVM_INFO axi_negative_test.sv(23) @ 165: uvm_test_top.env.agt.rd_sqr@@neg_r_seq [AXI_Negative_WR] WRITE addr=0x00000000 data=0x231b732c resp=0
UVM_INFO axi_input_monitor.sv(78) @ 175: uvm_test_top.env.agt.mon [AXI_MONITOR] [WRITE COMPLETE] addr=0x00000040 data=0x574faf56 strb=0xf resp=3
UVM_INFO axi_scoreboard.sv(85) @ 175: uvm_test_top.env.scb [AXI_SCOREBOARD] [WRITE RESP PASS] addr=0x00000040 resp=2'b11
UVM_INFO axi_input_monitor.sv(117) @ 185: uvm_test_top.env.agt.mon [AXI_MONITOR] [READ COMPLETE] addr=0x00000004 data=0x00000000 resp=0
UVM_INFO axi_scoreboard.sv(125) @ 185: uvm_test_top.env.scb [AXI_SCOREBOARD] [READ DATA PASS] addr=0x00000004 data=0x00000000
UVM_INFO axi_dec_err.sv(28) @ 185: uvm_test_top.env.agt.wr_sqr@@dec_wr_seq [AXI_DEC_ERR] WRITE out-of-range addr=0x00000040 resp=3 (expected DECERR=3)
UVM_INFO axi_sanity_test.sv(52) @ 195: uvm_test_top.env.agt.rd_sqr@@sanity_rd_seq [AXI_SANITY_RD] READ addr=0x00000004 data=0x00000000 resp=0
UVM_INFO axi_input_monitor.sv(117) @ 215: uvm_test_top.env.agt.mon [AXI_MONITOR] [READ COMPLETE] addr=0x00000080 data=0x00000000 resp=3
UVM_INFO axi_scoreboard.sv(136) @ 215: uvm_test_top.env.scb [AXI_SCOREBOARD] [READ ERR PASS] addr=0x00000080 resp=2'b11 data=0x00000000
UVM_INFO axi_input_monitor.sv(78) @ 225: uvm_test_top.env.agt.mon [AXI_MONITOR] [WRITE COMPLETE] addr=0x00000030 data=0x56f0064e strb=0xf resp=2
UVM_INFO axi_scoreboard.sv(85) @ 225: uvm_test_top.env.scb [AXI_SCOREBOARD] [WRITE RESP PASS] addr=0x00000030 resp=2'b10
UVM_INFO axi_dec_err.sv(28) @ 225: uvm_test_top.env.agt.rd_sqr@@dec_rd_seq [AXI_DEC_ERR] WRITE out-of-range addr=0x00000044 resp=0 (expected DECERR=3)
UVM_INFO axi_slv_err.sv(28) @ 235: uvm_test_top.env.agt.wr_sqr@@slv_wr_seq [AXI_SLV_ERR] WRITE to RO addr=0x00000030 resp=2 (expected SLVERR=2)
UVM_INFO axi_input_monitor.sv(117) @ 245: uvm_test_top.env.agt.mon [AXI_MONITOR] [READ COMPLETE] addr=0x00000034 data=0x00000000 resp=2
UVM_INFO axi_scoreboard.sv(136) @ 245: uvm_test_top.env.scb [AXI_SCOREBOARD] [READ ERR PASS] addr=0x00000034 resp=2'b10 data=0x00000000
UVM_INFO axi_slv_err.sv(28) @ 255: uvm_test_top.env.agt.rd_sqr@@slv_rd_seq [AXI_SLV_ERR] WRITE to RO addr=0x00000030 resp=0 (expected SLVERR=2)
UVM_INFO axi_input_monitor.sv(117) @ 275: uvm_test_top.env.agt.mon [AXI_MONITOR] [READ COMPLETE] addr=0x00000010 data=0x00000000 resp=0
UVM_INFO axi_scoreboard.sv(125) @ 275: uvm_test_top.env.scb [AXI_SCOREBOARD] [READ DATA PASS] addr=0x00000010 data=0x00000000
UVM_INFO axi_input_monitor.sv(78) @ 275: uvm_test_top.env.agt.mon [AXI_MONITOR] [WRITE COMPLETE] addr=0x00000000 data=0x00000000 strb=0xf resp=0
UVM_INFO axi_scoreboard.sv(85) @ 275: uvm_test_top.env.scb [AXI_SCOREBOARD] [WRITE RESP PASS] addr=0x00000000 resp=2'b00
UVM_INFO axi_negative_test.sv(23) @ 285: uvm_test_top.env.agt.rd_sqr@@neg_r_seq [AXI_Negative_WR] WRITE addr=0x00000000 data=0x2c983cb7 resp=0
UVM_INFO axi_input_monitor.sv(117) @ 305: uvm_test_top.env.agt.mon [AXI_MONITOR] [READ COMPLETE] addr=0x00000020 data=0x00000000 resp=0
UVM_ERROR axi_scoreboard.sv(120) @ 305: uvm_test_top.env.scb [AXI_SCOREBOARD] [READ DATA MISMATCH] addr=0x00000020 (reg[8]) exp=0x86fc2156 act=0x00000000 time=305
UVM_INFO axi_sanity_test.sv(52) @ 315: uvm_test_top.env.agt.rd_sqr@@sanity_rd_seq [AXI_SANITY_RD] READ addr=0x00000020 data=0x00000000 resp=0
UVM_INFO axi_input_monitor.sv(78) @ 325: uvm_test_top.env.agt.mon [AXI_MONITOR] [WRITE COMPLETE] addr=0x00000000 data=0x51187fff strb=0xf resp=0
UVM_INFO axi_scoreboard.sv(85) @ 325: uvm_test_top.env.scb [AXI_SCOREBOARD] [WRITE RESP PASS] addr=0x00000000 resp=2'b00
UVM_INFO axi_input_monitor.sv(117) @ 335: uvm_test_top.env.agt.mon [AXI_MONITOR] [READ COMPLETE] addr=0x000000a4 data=0x00000000 resp=3
UVM_INFO axi_scoreboard.sv(136) @ 335: uvm_test_top.env.scb [AXI_SCOREBOARD] [READ ERR PASS] addr=0x000000a4 resp=2'b11 data=0x00000000
UVM_INFO axi_negative_test.sv(23) @ 335: uvm_test_top.env.agt.wr_sqr@@neg_w_seq [AXI_Negative_WR] WRITE addr=0x00000000 data=0x51187fff resp=0
UVM_INFO axi_dec_err.sv(28) @ 345: uvm_test_top.env.agt.rd_sqr@@dec_rd_seq [AXI_DEC_ERR] WRITE out-of-range addr=0x0000007c resp=0 (expected DECERR=3)
UVM_INFO axi_input_monitor.sv(117) @ 365: uvm_test_top.env.agt.mon [AXI_MONITOR] [READ COMPLETE] addr=0x00000038 data=0x00000000 resp=2
UVM_INFO axi_scoreboard.sv(136) @ 365: uvm_test_top.env.scb [AXI_SCOREBOARD] [READ ERR PASS] addr=0x00000038 resp=2'b10 data=0x00000000
UVM_INFO axi_input_monitor.sv(78) @ 375: uvm_test_top.env.agt.mon [AXI_MONITOR] [WRITE COMPLETE] addr=0x00000010 data=0x7a366416 strb=0xf resp=0
UVM_INFO axi_scoreboard.sv(85) @ 375: uvm_test_top.env.scb [AXI_SCOREBOARD] [WRITE RESP PASS] addr=0x00000010 resp=2'b00
UVM_INFO axi_slv_err.sv(28) @ 375: uvm_test_top.env.agt.rd_sqr@@slv_rd_seq [AXI_SLV_ERR] WRITE to RO addr=0x00000030 resp=0 (expected SLVERR=2)
UVM_INFO axi_sanity_test.sv(23) @ 385: uvm_test_top.env.agt.wr_sqr@@sanity_wr_seq [AXI_SANITY_WR] WRITE addr=0x00000010 data=0x7a366416 resp=0
UVM_INFO axi_input_monitor.sv(117) @ 395: uvm_test_top.env.agt.mon [AXI_MONITOR] [READ COMPLETE] addr=0x00000000 data=0x51187fff resp=0
UVM_INFO axi_scoreboard.sv(125) @ 395: uvm_test_top.env.scb [AXI_SCOREBOARD] [READ DATA PASS] addr=0x00000000 data=0x51187fff
UVM_INFO axi_input_monitor.sv(117) @ 425: uvm_test_top.env.agt.mon [AXI_MONITOR] [READ COMPLETE] addr=0x0000000c data=0x00000000 resp=0
UVM_INFO axi_scoreboard.sv(125) @ 425: uvm_test_top.env.scb [AXI_SCOREBOARD] [READ DATA PASS] addr=0x0000000c data=0x00000000
UVM_INFO axi_input_monitor.sv(78) @ 425: uvm_test_top.env.agt.mon [AXI_MONITOR] [WRITE COMPLETE] addr=0x0000003c data=0xcf252d97 strb=0xf resp=0
UVM_INFO axi_scoreboard.sv(85) @ 425: uvm_test_top.env.scb [AXI_SCOREBOARD] [WRITE RESP PASS] addr=0x0000003c resp=2'b00
UVM_INFO axi_b2b_write.sv(22) @ 435: uvm_test_top.env.agt.wr_sqr@@b2b_seq [AXI_B2B_WRITE] B2B WRITE addr=0x0000003c data=0xcf252d97 resp=0
UVM_INFO axi_sanity_test.sv(52) @ 435: uvm_test_top.env.agt.rd_sqr@@sanity_rd_seq [AXI_SANITY_RD] READ addr=0x0000000c data=0x00000000 resp=0
UVM_INFO axi_input_monitor.sv(117) @ 455: uvm_test_top.env.agt.mon [AXI_MONITOR] [READ COMPLETE] addr=0x00000050 data=0x00000000 resp=3
UVM_INFO axi_scoreboard.sv(136) @ 455: uvm_test_top.env.scb [AXI_SCOREBOARD] [READ ERR PASS] addr=0x00000050 resp=2'b11 data=0x00000000
UVM_INFO axi_dec_err.sv(28) @ 465: uvm_test_top.env.agt.rd_sqr@@dec_rd_seq [AXI_DEC_ERR] WRITE out-of-range addr=0x00000040 resp=0 (expected DECERR=3)
UVM_INFO axi_input_monitor.sv(78) @ 475: uvm_test_top.env.agt.mon [AXI_MONITOR] [WRITE COMPLETE] addr=0x00000060 data=0xe0a034e1 strb=0xf resp=3
UVM_INFO axi_scoreboard.sv(85) @ 475: uvm_test_top.env.scb [AXI_SCOREBOARD] [WRITE RESP PASS] addr=0x00000060 resp=2'b11
UVM_INFO axi_input_monitor.sv(117) @ 485: uvm_test_top.env.agt.mon [AXI_MONITOR] [READ COMPLETE] addr=0x00000038 data=0x00000000 resp=2
UVM_INFO axi_scoreboard.sv(136) @ 485: uvm_test_top.env.scb [AXI_SCOREBOARD] [READ ERR PASS] addr=0x00000038 resp=2'b10 data=0x00000000
UVM_INFO axi_dec_err.sv(28) @ 485: uvm_test_top.env.agt.wr_sqr@@dec_wr_seq [AXI_DEC_ERR] WRITE out-of-range addr=0x00000060 resp=3 (expected DECERR=3)
UVM_INFO axi_slv_err.sv(28) @ 495: uvm_test_top.env.agt.rd_sqr@@slv_rd_seq [AXI_SLV_ERR] WRITE to RO addr=0x0000002c resp=0 (expected SLVERR=2)
UVM_INFO axi_input_monitor.sv(117) @ 515: uvm_test_top.env.agt.mon [AXI_MONITOR] [READ COMPLETE] addr=0x00000000 data=0x51187fff resp=0
UVM_INFO axi_scoreboard.sv(125) @ 515: uvm_test_top.env.scb [AXI_SCOREBOARD] [READ DATA PASS] addr=0x00000000 data=0x51187fff
UVM_INFO axi_input_monitor.sv(78) @ 525: uvm_test_top.env.agt.mon [AXI_MONITOR] [WRITE COMPLETE] addr=0x0000002c data=0x8729372a strb=0xf resp=2
UVM_INFO axi_scoreboard.sv(85) @ 525: uvm_test_top.env.scb [AXI_SCOREBOARD] [WRITE RESP PASS] addr=0x0000002c resp=2'b10
UVM_INFO axi_slv_err.sv(28) @ 535: uvm_test_top.env.agt.wr_sqr@@slv_wr_seq [AXI_SLV_ERR] WRITE to RO addr=0x0000002c resp=2 (expected SLVERR=2)
UVM_INFO axi_input_monitor.sv(117) @ 545: uvm_test_top.env.agt.mon [AXI_MONITOR] [READ COMPLETE] addr=0x00000014 data=0x00000000 resp=0
UVM_INFO axi_scoreboard.sv(125) @ 545: uvm_test_top.env.scb [AXI_SCOREBOARD] [READ DATA PASS] addr=0x00000014 data=0x00000000
UVM_INFO axi_sanity_test.sv(52) @ 555: uvm_test_top.env.agt.rd_sqr@@sanity_rd_seq [AXI_SANITY_RD] READ addr=0x00000014 data=0x00000000 resp=0
UVM_INFO axi_input_monitor.sv(117) @ 575: uvm_test_top.env.agt.mon [AXI_MONITOR] [READ COMPLETE] addr=0x000000cc data=0x00000000 resp=3
UVM_INFO axi_scoreboard.sv(136) @ 575: uvm_test_top.env.scb [AXI_SCOREBOARD] [READ ERR PASS] addr=0x000000cc resp=2'b11 data=0x00000000
UVM_INFO axi_input_monitor.sv(78) @ 575: uvm_test_top.env.agt.mon [AXI_MONITOR] [WRITE COMPLETE] addr=0x00000000 data=0xdeadbeef strb=0x0 resp=0
UVM_INFO axi_scoreboard.sv(85) @ 575: uvm_test_top.env.scb [AXI_SCOREBOARD] [WRITE RESP PASS] addr=0x00000000 resp=2'b00
UVM_INFO axi_wstrb_seq.sv(44) @ 585: uvm_test_top.env.agt.wr_sqr@@strb_seq [AXI_WSTRB] WRITE strb=4'b0000 data=0xDEADBEEF resp=0
UVM_INFO axi_dec_err.sv(28) @ 585: uvm_test_top.env.agt.rd_sqr@@dec_rd_seq [AXI_DEC_ERR] WRITE out-of-range addr=0x00000074 resp=0 (expected DECERR=3)
UVM_INFO axi_input_monitor.sv(117) @ 605: uvm_test_top.env.agt.mon [AXI_MONITOR] [READ COMPLETE] addr=0x00000038 data=0x00000000 resp=2
UVM_INFO axi_scoreboard.sv(136) @ 605: uvm_test_top.env.scb [AXI_SCOREBOARD] [READ ERR PASS] addr=0x00000038 resp=2'b10 data=0x00000000
UVM_INFO axi_slv_err.sv(28) @ 615: uvm_test_top.env.agt.rd_sqr@@slv_rd_seq [AXI_SLV_ERR] WRITE to RO addr=0x0000002c resp=0 (expected SLVERR=2)

=======================================================

Solver failed when solving following set of constraints 


rand bit[31:0] AWADDR; // rand_mode = ON 

constraint valid_address_range    // (from this) (constraint_mode = ON) (axi_trans.sv:57)
{
   ((AWADDR[31:6]) == 26'h0);
}
constraint WITH_CONSTRAINT    // (from this) (constraint_mode = ON) (axi_negative_test.sv:44)
{
   (AWADDR == 32'hffffffff);
}

=======================================================

Info-[CNST-SATE]  A standalone test-case for this failure has automatically been extracted 
  from randomize serial 32 partition 1.
  To reproduce the error using the extracted testcase, please use the 
  following command:
  cd 
  /fetools/work_area/frontend/Batch_11/Kittu_Patel/UVM/Project/AXI/./simv.cst/testcases;
  vcs -sverilog extracted_r_32_p_1_inconsistent_constraints.sv -R
  To reproduce the error using the original design and verbose logging, re-run
  simulation using:
  simv +ntb_solver_debug=trace +ntb_solver_debug_filter=32
  To reproduce the error using the original design and debug the error with 
  Verdi/DVE:
  1. re-compile the original design with -debug_access+all, if not already 
  done so
  	% vcs -debug_access+all <other options>
  2. re-run the simulation interactively with -gui/-verdi
  	% simv -gui/-verdi <other options>
  3. enter the following commands to begin interactive constraint 
  inconsistency debug within Verdi/DVE
  	I. set the breakpoint:	verdi/dve> stop -solver -serial 32
  	II. run the simulation till it stops:	verdi/dve> run
  	III. step in the constraint solver:	verdi/dve> step -solver

Error-[CNST-CIF] Constraints inconsistency failure
axi_negative_test.sv, 44
  Constraints are inconsistent and cannot be solved.
  Please check the inconsistent constraints being printed above and rewrite 
  them.

"axi_negative_test.sv", 44: axi_pkg::\axi_negative_seq::body .unnamed$$_2: started at 615s failed at 615s
	Offending 'wr_pkt.randomize() with {
(this.operation == single_w);
(this.AWADDR == 32'hffffffff);
}
'
UVM_INFO axi_input_monitor.sv(78) @ 625: uvm_test_top.env.agt.mon [AXI_MONITOR] [WRITE COMPLETE] addr=0x00000000 data=0x550bc052 strb=0xf resp=0
UVM_INFO axi_scoreboard.sv(85) @ 625: uvm_test_top.env.scb [AXI_SCOREBOARD] [WRITE RESP PASS] addr=0x00000000 resp=2'b00
UVM_INFO axi_input_monitor.sv(117) @ 635: uvm_test_top.env.agt.mon [AXI_MONITOR] [READ COMPLETE] addr=0x00000000 data=0x550bc052 resp=0
UVM_INFO axi_scoreboard.sv(125) @ 635: uvm_test_top.env.scb [AXI_SCOREBOARD] [READ DATA PASS] addr=0x00000000 data=0x550bc052
UVM_INFO axi_negative_test.sv(23) @ 635: uvm_test_top.env.agt.wr_sqr@@neg_w_seq [AXI_Negative_WR] WRITE addr=0x00000000 data=0x550bc052 resp=0
UVM_INFO axi_negative_test.sv(46) @ 645: uvm_test_top.env.agt.rd_sqr@@neg_r_seq [AXI_Negative_WR] WRITE addr=0x00000000 data=0x00000000 resp=0
UVM_INFO axi_input_monitor.sv(117) @ 665: uvm_test_top.env.agt.mon [AXI_MONITOR] [READ COMPLETE] addr=0x00000000 data=0x550bc052 resp=0
UVM_INFO axi_scoreboard.sv(125) @ 665: uvm_test_top.env.scb [AXI_SCOREBOARD] [READ DATA PASS] addr=0x00000000 data=0x550bc052
UVM_INFO axi_input_monitor.sv(78) @ 675: uvm_test_top.env.agt.mon [AXI_MONITOR] [WRITE COMPLETE] addr=0x00000020 data=0xc4bae522 strb=0xf resp=0
UVM_INFO axi_scoreboard.sv(85) @ 675: uvm_test_top.env.scb [AXI_SCOREBOARD] [WRITE RESP PASS] addr=0x00000020 resp=2'b00
UVM_INFO axi_sanity_test.sv(52) @ 675: uvm_test_top.env.agt.rd_sqr@@sanity_rd_seq [AXI_SANITY_RD] READ addr=0x00000000 data=0x550bc052 resp=0
UVM_INFO axi_sanity_test.sv(23) @ 685: uvm_test_top.env.agt.wr_sqr@@sanity_wr_seq [AXI_SANITY_WR] WRITE addr=0x00000020 data=0xc4bae522 resp=0
UVM_INFO axi_input_monitor.sv(117) @ 695: uvm_test_top.env.agt.mon [AXI_MONITOR] [READ COMPLETE] addr=0x0000004c data=0x00000000 resp=3
UVM_INFO axi_scoreboard.sv(136) @ 695: uvm_test_top.env.scb [AXI_SCOREBOARD] [READ ERR PASS] addr=0x0000004c resp=2'b11 data=0x00000000
UVM_INFO axi_dec_err.sv(45) @ 705: uvm_test_top.env.agt.rd_sqr@@dec_rd_seq [AXI_DEC_ERR] READ out-of-range addr=0x0000004c resp=3 (expected DECERR=3)
UVM_INFO axi_input_monitor.sv(117) @ 725: uvm_test_top.env.agt.mon [AXI_MONITOR] [READ COMPLETE] addr=0x00000038 data=0x00000000 resp=2
UVM_INFO axi_scoreboard.sv(136) @ 725: uvm_test_top.env.scb [AXI_SCOREBOARD] [READ ERR PASS] addr=0x00000038 resp=2'b10 data=0x00000000
UVM_INFO axi_input_monitor.sv(78) @ 725: uvm_test_top.env.agt.mon [AXI_MONITOR] [WRITE COMPLETE] addr=0x00000024 data=0x49aa0eef strb=0xf resp=0
UVM_INFO axi_scoreboard.sv(85) @ 725: uvm_test_top.env.scb [AXI_SCOREBOARD] [WRITE RESP PASS] addr=0x00000024 resp=2'b00
UVM_INFO axi_b2b_write.sv(22) @ 735: uvm_test_top.env.agt.wr_sqr@@b2b_seq [AXI_B2B_WRITE] B2B WRITE addr=0x00000024 data=0x49aa0eef resp=0
UVM_INFO axi_slv_err.sv(44) @ 735: uvm_test_top.env.agt.rd_sqr@@slv_rd_seq [AXI_SLV_ERR] READ from WO addr=0x00000038 resp=2 (expected SLVERR=2)

=======================================================

Solver failed when solving following set of constraints 


rand bit[31:0] AWADDR; // rand_mode = ON 

constraint valid_address_range    // (from this) (constraint_mode = ON) (axi_trans.sv:57)
{
   ((AWADDR[31:6]) == 26'h0);
}
constraint WITH_CONSTRAINT    // (from this) (constraint_mode = ON) (axi_negative_test.sv:44)
{
   (AWADDR == 32'hffffffff);
}

=======================================================

Info-[CNST-SATE]  A standalone test-case for this failure has automatically been extracted 
  from randomize serial 38 partition 1.
  To reproduce the error using the extracted testcase, please use the 
  following command:
  cd 
  /fetools/work_area/frontend/Batch_11/Kittu_Patel/UVM/Project/AXI/./simv.cst/testcases;
  vcs -sverilog extracted_r_38_p_1_inconsistent_constraints.sv -R
  To reproduce the error using the original design and verbose logging, re-run
  simulation using:
  simv +ntb_solver_debug=trace +ntb_solver_debug_filter=38
  To reproduce the error using the original design and debug the error with 
  Verdi/DVE:
  1. re-compile the original design with -debug_access+all, if not already 
  done so
  	% vcs -debug_access+all <other options>
  2. re-run the simulation interactively with -gui/-verdi
  	% simv -gui/-verdi <other options>
  3. enter the following commands to begin interactive constraint 
  inconsistency debug within Verdi/DVE
  	I. set the breakpoint:	verdi/dve> stop -solver -serial 38
  	II. run the simulation till it stops:	verdi/dve> run
  	III. step in the constraint solver:	verdi/dve> step -solver

Error-[CNST-CIF] Constraints inconsistency failure
axi_negative_test.sv, 44
  Constraints are inconsistent and cannot be solved.
  Please check the inconsistent constraints being printed above and rewrite 
  them.

"axi_negative_test.sv", 44: axi_pkg::\axi_negative_seq::body .unnamed$$_2: started at 735s failed at 735s
	Offending 'wr_pkt.randomize() with {
(this.operation == single_w);
(this.AWADDR == 32'hffffffff);
}
'
UVM_INFO axi_input_monitor.sv(117) @ 755: uvm_test_top.env.agt.mon [AXI_MONITOR] [READ COMPLETE] addr=0x00000000 data=0x550bc052 resp=0
UVM_INFO axi_scoreboard.sv(125) @ 755: uvm_test_top.env.scb [AXI_SCOREBOARD] [READ DATA PASS] addr=0x00000000 data=0x550bc052
UVM_INFO axi_negative_test.sv(46) @ 765: uvm_test_top.env.agt.rd_sqr@@neg_r_seq [AXI_Negative_WR] WRITE addr=0x00000000 data=0x00000000 resp=0
UVM_INFO axi_input_monitor.sv(78) @ 775: uvm_test_top.env.agt.mon [AXI_MONITOR] [WRITE COMPLETE] addr=0x00000070 data=0x0029f80f strb=0xf resp=3
UVM_INFO axi_scoreboard.sv(85) @ 775: uvm_test_top.env.scb [AXI_SCOREBOARD] [WRITE RESP PASS] addr=0x00000070 resp=2'b11
UVM_INFO axi_input_monitor.sv(117) @ 785: uvm_test_top.env.agt.mon [AXI_MONITOR] [READ COMPLETE] addr=0x00000008 data=0x00000000 resp=0
UVM_INFO axi_scoreboard.sv(125) @ 785: uvm_test_top.env.scb [AXI_SCOREBOARD] [READ DATA PASS] addr=0x00000008 data=0x00000000
UVM_INFO axi_dec_err.sv(28) @ 785: uvm_test_top.env.agt.wr_sqr@@dec_wr_seq [AXI_DEC_ERR] WRITE out-of-range addr=0x00000070 resp=3 (expected DECERR=3)
UVM_INFO axi_sanity_test.sv(52) @ 795: uvm_test_top.env.agt.rd_sqr@@sanity_rd_seq [AXI_SANITY_RD] READ addr=0x00000008 data=0x00000000 resp=0
UVM_INFO axi_input_monitor.sv(117) @ 815: uvm_test_top.env.agt.mon [AXI_MONITOR] [READ COMPLETE] addr=0x0000007c data=0x00000000 resp=3
UVM_INFO axi_scoreboard.sv(136) @ 815: uvm_test_top.env.scb [AXI_SCOREBOARD] [READ ERR PASS] addr=0x0000007c resp=2'b11 data=0x00000000
UVM_INFO axi_input_monitor.sv(78) @ 825: uvm_test_top.env.agt.mon [AXI_MONITOR] [WRITE COMPLETE] addr=0x00000028 data=0x4cbaa550 strb=0xf resp=2
UVM_INFO axi_scoreboard.sv(85) @ 825: uvm_test_top.env.scb [AXI_SCOREBOARD] [WRITE RESP PASS] addr=0x00000028 resp=2'b10
UVM_INFO axi_dec_err.sv(45) @ 825: uvm_test_top.env.agt.rd_sqr@@dec_rd_seq [AXI_DEC_ERR] READ out-of-range addr=0x0000007c resp=3 (expected DECERR=3)
UVM_INFO axi_slv_err.sv(28) @ 835: uvm_test_top.env.agt.wr_sqr@@slv_wr_seq [AXI_SLV_ERR] WRITE to RO addr=0x00000028 resp=2 (expected SLVERR=2)
UVM_INFO axi_input_monitor.sv(117) @ 845: uvm_test_top.env.agt.mon [AXI_MONITOR] [READ COMPLETE] addr=0x00000038 data=0x00000000 resp=2
UVM_INFO axi_scoreboard.sv(136) @ 845: uvm_test_top.env.scb [AXI_SCOREBOARD] [READ ERR PASS] addr=0x00000038 resp=2'b10 data=0x00000000
UVM_INFO axi_slv_err.sv(44) @ 855: uvm_test_top.env.agt.rd_sqr@@slv_rd_seq [AXI_SLV_ERR] READ from WO addr=0x00000038 resp=2 (expected SLVERR=2)

=======================================================

Solver failed when solving following set of constraints 


rand bit[31:0] ARADDR; // rand_mode = ON 

constraint valid_address_range    // (from this) (constraint_mode = ON) (axi_trans.sv:57)
{
   ((ARADDR[31:6]) == 26'h0);
}
constraint WITH_CONSTRAINT    // (from this) (constraint_mode = ON) (axi_negative_test.sv:56)
{
   (ARADDR == 32'hffffffff);
}

=======================================================

Info-[CNST-SATE]  A standalone test-case for this failure has automatically been extracted 
  from randomize serial 45 partition 2.
  To reproduce the error using the extracted testcase, please use the 
  following command:
  cd 
  /fetools/work_area/frontend/Batch_11/Kittu_Patel/UVM/Project/AXI/./simv.cst/testcases;
  vcs -sverilog extracted_r_45_p_2_inconsistent_constraints.sv -R
  To reproduce the error using the original design and verbose logging, re-run
  simulation using:
  simv +ntb_solver_debug=trace +ntb_solver_debug_filter=45
  To reproduce the error using the original design and debug the error with 
  Verdi/DVE:
  1. re-compile the original design with -debug_access+all, if not already 
  done so
  	% vcs -debug_access+all <other options>
  2. re-run the simulation interactively with -gui/-verdi
  	% simv -gui/-verdi <other options>
  3. enter the following commands to begin interactive constraint 
  inconsistency debug within Verdi/DVE
  	I. set the breakpoint:	verdi/dve> stop -solver -serial 45
  	II. run the simulation till it stops:	verdi/dve> run
  	III. step in the constraint solver:	verdi/dve> step -solver

Error-[CNST-CIF] Constraints inconsistency failure
axi_negative_test.sv, 56
  Constraints are inconsistent and cannot be solved.
  Please check the inconsistent constraints being printed above and rewrite 
  them.

"axi_negative_test.sv", 56: axi_pkg::\axi_negative_seq::body .unnamed$$_3: started at 855s failed at 855s
	Offending 'rd_pkt.randomize() with {
(this.operation == single_r);
(this.ARADDR == 32'hffffffff);
}
'
UVM_INFO axi_input_monitor.sv(117) @ 875: uvm_test_top.env.agt.mon [AXI_MONITOR] [READ COMPLETE] addr=0x00000000 data=0x550bc052 resp=0
UVM_INFO axi_scoreboard.sv(125) @ 875: uvm_test_top.env.scb [AXI_SCOREBOARD] [READ DATA PASS] addr=0x00000000 data=0x550bc052
UVM_INFO axi_input_monitor.sv(78) @ 875: uvm_test_top.env.agt.mon [AXI_MONITOR] [WRITE COMPLETE] addr=0x0000001c data=0x36e37868 strb=0xf resp=0
UVM_INFO axi_scoreboard.sv(85) @ 875: uvm_test_top.env.scb [AXI_SCOREBOARD] [WRITE RESP PASS] addr=0x0000001c resp=2'b00
UVM_INFO axi_wstrb_seq.sv(55) @ 885: uvm_test_top.env.agt.wr_sqr@@strb_seq [AXI_WSTRB] READ  strb=4'b0000 data=0x00000000
UVM_INFO axi_input_monitor.sv(117) @ 905: uvm_test_top.env.agt.mon [AXI_MONITOR] [READ COMPLETE] addr=0x00000020 data=0xc4bae522 resp=0
UVM_INFO axi_scoreboard.sv(125) @ 905: uvm_test_top.env.scb [AXI_SCOREBOARD] [READ DATA PASS] addr=0x00000020 data=0xc4bae522
UVM_INFO axi_sanity_test.sv(52) @ 915: uvm_test_top.env.agt.rd_sqr@@sanity_rd_seq [AXI_SANITY_RD] READ addr=0x00000020 data=0xc4bae522 resp=0
UVM_INFO axi_input_monitor.sv(78) @ 925: uvm_test_top.env.agt.mon [AXI_MONITOR] [WRITE COMPLETE] addr=0x0000000c data=0xf78f8623 strb=0xf resp=0
UVM_INFO axi_scoreboard.sv(85) @ 925: uvm_test_top.env.scb [AXI_SCOREBOARD] [WRITE RESP PASS] addr=0x0000000c resp=2'b00
UVM_INFO axi_input_monitor.sv(117) @ 935: uvm_test_top.env.agt.mon [AXI_MONITOR] [READ COMPLETE] addr=0x000000c8 data=0x00000000 resp=3
UVM_INFO axi_scoreboard.sv(136) @ 935: uvm_test_top.env.scb [AXI_SCOREBOARD] [READ ERR PASS] addr=0x000000c8 resp=2'b11 data=0x00000000
UVM_INFO axi_dec_err.sv(45) @ 945: uvm_test_top.env.agt.rd_sqr@@dec_rd_seq [AXI_DEC_ERR] READ out-of-range addr=0x000000c8 resp=3 (expected DECERR=3)
UVM_INFO axi_input_monitor.sv(117) @ 965: uvm_test_top.env.agt.mon [AXI_MONITOR] [READ COMPLETE] addr=0x00000034 data=0x00000000 resp=2
UVM_INFO axi_scoreboard.sv(136) @ 965: uvm_test_top.env.scb [AXI_SCOREBOARD] [READ ERR PASS] addr=0x00000034 resp=2'b10 data=0x00000000
UVM_INFO axi_input_monitor.sv(78) @ 975: uvm_test_top.env.agt.mon [AXI_MONITOR] [WRITE COMPLETE] addr=0x00000008 data=0xe7645030 strb=0xf resp=0
UVM_INFO axi_scoreboard.sv(85) @ 975: uvm_test_top.env.scb [AXI_SCOREBOARD] [WRITE RESP PASS] addr=0x00000008 resp=2'b00
UVM_INFO axi_slv_err.sv(44) @ 975: uvm_test_top.env.agt.rd_sqr@@slv_rd_seq [AXI_SLV_ERR] READ from WO addr=0x00000034 resp=2 (expected SLVERR=2)

=======================================================

Solver failed when solving following set of constraints 


rand bit[31:0] ARADDR; // rand_mode = ON 

constraint valid_address_range    // (from this) (constraint_mode = ON) (axi_trans.sv:57)
{
   ((ARADDR[31:6]) == 26'h0);
}
constraint WITH_CONSTRAINT    // (from this) (constraint_mode = ON) (axi_negative_test.sv:56)
{
   (ARADDR == 32'hffffffff);
}

=======================================================

Info-[CNST-SATE]  A standalone test-case for this failure has automatically been extracted 
  from randomize serial 51 partition 2.
  To reproduce the error using the extracted testcase, please use the 
  following command:
  cd 
  /fetools/work_area/frontend/Batch_11/Kittu_Patel/UVM/Project/AXI/./simv.cst/testcases;
  vcs -sverilog extracted_r_51_p_2_inconsistent_constraints.sv -R
  To reproduce the error using the original design and verbose logging, re-run
  simulation using:
  simv +ntb_solver_debug=trace +ntb_solver_debug_filter=51
  To reproduce the error using the original design and debug the error with 
  Verdi/DVE:
  1. re-compile the original design with -debug_access+all, if not already 
  done so
  	% vcs -debug_access+all <other options>
  2. re-run the simulation interactively with -gui/-verdi
  	% simv -gui/-verdi <other options>
  3. enter the following commands to begin interactive constraint 
  inconsistency debug within Verdi/DVE
  	I. set the breakpoint:	verdi/dve> stop -solver -serial 51
  	II. run the simulation till it stops:	verdi/dve> run
  	III. step in the constraint solver:	verdi/dve> step -solver

Error-[CNST-CIF] Constraints inconsistency failure
axi_negative_test.sv, 56
  Constraints are inconsistent and cannot be solved.
  Please check the inconsistent constraints being printed above and rewrite 
  them.

"axi_negative_test.sv", 56: axi_pkg::\axi_negative_seq::body .unnamed$$_3: started at 975s failed at 975s
	Offending 'rd_pkt.randomize() with {
(this.operation == single_r);
(this.ARADDR == 32'hffffffff);
}
'
UVM_INFO axi_sanity_test.sv(23) @ 985: uvm_test_top.env.agt.wr_sqr@@sanity_wr_seq [AXI_SANITY_WR] WRITE addr=0x00000008 data=0xe7645030 resp=0
UVM_INFO axi_input_monitor.sv(117) @ 995: uvm_test_top.env.agt.mon [AXI_MONITOR] [READ COMPLETE] addr=0x00000000 data=0x550bc052 resp=0
UVM_INFO axi_scoreboard.sv(125) @ 995: uvm_test_top.env.scb [AXI_SCOREBOARD] [READ DATA PASS] addr=0x00000000 data=0x550bc052
UVM_INFO axi_input_monitor.sv(117) @ 1025: uvm_test_top.env.agt.mon [AXI_MONITOR] [READ COMPLETE] addr=0x00000020 data=0xc4bae522 resp=0
UVM_INFO axi_scoreboard.sv(125) @ 1025: uvm_test_top.env.scb [AXI_SCOREBOARD] [READ DATA PASS] addr=0x00000020 data=0xc4bae522
UVM_INFO axi_input_monitor.sv(78) @ 1025: uvm_test_top.env.agt.mon [AXI_MONITOR] [WRITE COMPLETE] addr=0x00000020 data=0x027379fc strb=0xf resp=0
UVM_INFO axi_scoreboard.sv(85) @ 1025: uvm_test_top.env.scb [AXI_SCOREBOARD] [WRITE RESP PASS] addr=0x00000020 resp=2'b00
UVM_INFO axi_b2b_write.sv(22) @ 1035: uvm_test_top.env.agt.wr_sqr@@b2b_seq [AXI_B2B_WRITE] B2B WRITE addr=0x00000020 data=0x027379fc resp=0
UVM_INFO axi_sanity_test.sv(52) @ 1035: uvm_test_top.env.agt.rd_sqr@@sanity_rd_seq [AXI_SANITY_RD] READ addr=0x00000020 data=0xc4bae522 resp=0
UVM_INFO axi_input_monitor.sv(117) @ 1055: uvm_test_top.env.agt.mon [AXI_MONITOR] [READ COMPLETE] addr=0x000000c4 data=0x00000000 resp=3
UVM_INFO axi_scoreboard.sv(136) @ 1055: uvm_test_top.env.scb [AXI_SCOREBOARD] [READ ERR PASS] addr=0x000000c4 resp=2'b11 data=0x00000000
UVM_INFO axi_dec_err.sv(45) @ 1065: uvm_test_top.env.agt.rd_sqr@@dec_rd_seq [AXI_DEC_ERR] READ out-of-range addr=0x000000c4 resp=3 (expected DECERR=3)
UVM_INFO axi_input_monitor.sv(78) @ 1075: uvm_test_top.env.agt.mon [AXI_MONITOR] [WRITE COMPLETE] addr=0x000000d8 data=0xa886ae49 strb=0xf resp=3
UVM_INFO axi_scoreboard.sv(85) @ 1075: uvm_test_top.env.scb [AXI_SCOREBOARD] [WRITE RESP PASS] addr=0x000000d8 resp=2'b11
UVM_INFO axi_input_monitor.sv(117) @ 1085: uvm_test_top.env.agt.mon [AXI_MONITOR] [READ COMPLETE] addr=0x00000034 data=0x00000000 resp=2
UVM_INFO axi_scoreboard.sv(136) @ 1085: uvm_test_top.env.scb [AXI_SCOREBOARD] [READ ERR PASS] addr=0x00000034 resp=2'b10 data=0x00000000
UVM_INFO axi_dec_err.sv(28) @ 1085: uvm_test_top.env.agt.wr_sqr@@dec_wr_seq [AXI_DEC_ERR] WRITE out-of-range addr=0x000000d8 resp=3 (expected DECERR=3)
UVM_INFO axi_slv_err.sv(44) @ 1095: uvm_test_top.env.agt.rd_sqr@@slv_rd_seq [AXI_SLV_ERR] READ from WO addr=0x00000034 resp=2 (expected SLVERR=2)
UVM_INFO axi_input_monitor.sv(117) @ 1115: uvm_test_top.env.agt.mon [AXI_MONITOR] [READ COMPLETE] addr=0x00000000 data=0x550bc052 resp=0
UVM_INFO axi_scoreboard.sv(125) @ 1115: uvm_test_top.env.scb [AXI_SCOREBOARD] [READ DATA PASS] addr=0x00000000 data=0x550bc052
UVM_INFO axi_input_monitor.sv(78) @ 1125: uvm_test_top.env.agt.mon [AXI_MONITOR] [WRITE COMPLETE] addr=0x0000002c data=0xd69d066f strb=0xf resp=2
UVM_INFO axi_scoreboard.sv(85) @ 1125: uvm_test_top.env.scb [AXI_SCOREBOARD] [WRITE RESP PASS] addr=0x0000002c resp=2'b10
UVM_INFO axi_sanity_test.sv(52) @ 1125: uvm_test_top.env.agt.rd_sqr@@sanity_rd_seq [AXI_SANITY_RD] READ addr=0x00000000 data=0x550bc052 resp=0
UVM_INFO axi_slv_err.sv(28) @ 1135: uvm_test_top.env.agt.wr_sqr@@slv_wr_seq [AXI_SLV_ERR] WRITE to RO addr=0x0000002c resp=2 (expected SLVERR=2)
UVM_INFO axi_input_monitor.sv(117) @ 1145: uvm_test_top.env.agt.mon [AXI_MONITOR] [READ COMPLETE] addr=0x000000ac data=0x00000000 resp=3
UVM_INFO axi_scoreboard.sv(136) @ 1145: uvm_test_top.env.scb [AXI_SCOREBOARD] [READ ERR PASS] addr=0x000000ac resp=2'b11 data=0x00000000
UVM_INFO axi_dec_err.sv(45) @ 1155: uvm_test_top.env.agt.rd_sqr@@dec_rd_seq [AXI_DEC_ERR] READ out-of-range addr=0x000000ac resp=3 (expected DECERR=3)
UVM_INFO axi_dec_err.sv(49) @ 1155: uvm_test_top.env.agt.rd_sqr@@dec_rd_seq [AXI_DEC_ERR] Decode Error Sequence Complete
UVM_INFO axi_input_monitor.sv(117) @ 1175: uvm_test_top.env.agt.mon [AXI_MONITOR] [READ COMPLETE] addr=0x00000034 data=0x00000000 resp=2
UVM_INFO axi_scoreboard.sv(136) @ 1175: uvm_test_top.env.scb [AXI_SCOREBOARD] [READ ERR PASS] addr=0x00000034 resp=2'b10 data=0x00000000
UVM_INFO axi_input_monitor.sv(78) @ 1175: uvm_test_top.env.agt.mon [AXI_MONITOR] [WRITE COMPLETE] addr=0x00000000 data=0x00000000 strb=0xf resp=0
UVM_INFO axi_scoreboard.sv(85) @ 1175: uvm_test_top.env.scb [AXI_SCOREBOARD] [WRITE RESP PASS] addr=0x00000000 resp=2'b00
UVM_INFO axi_slv_err.sv(44) @ 1185: uvm_test_top.env.agt.rd_sqr@@slv_rd_seq [AXI_SLV_ERR] READ from WO addr=0x00000034 resp=2 (expected SLVERR=2)
UVM_INFO axi_slv_err.sv(48) @ 1185: uvm_test_top.env.agt.rd_sqr@@slv_rd_seq [AXI_SLV_ERR] Slave Error Sequence Complete
UVM_INFO axi_input_monitor.sv(117) @ 1205: uvm_test_top.env.agt.mon [AXI_MONITOR] [READ COMPLETE] addr=0x00000020 data=0x027379fc resp=0
UVM_INFO axi_scoreboard.sv(125) @ 1205: uvm_test_top.env.scb [AXI_SCOREBOARD] [READ DATA PASS] addr=0x00000020 data=0x027379fc
UVM_INFO axi_sanity_test.sv(52) @ 1215: uvm_test_top.env.agt.rd_sqr@@sanity_rd_seq [AXI_SANITY_RD] READ addr=0x00000020 data=0x027379fc resp=0
UVM_INFO axi_input_monitor.sv(78) @ 1225: uvm_test_top.env.agt.mon [AXI_MONITOR] [WRITE COMPLETE] addr=0x0000001c data=0xd139ecde strb=0xf resp=0
UVM_INFO axi_scoreboard.sv(85) @ 1225: uvm_test_top.env.scb [AXI_SCOREBOARD] [WRITE RESP PASS] addr=0x0000001c resp=2'b00
UVM_INFO axi_input_monitor.sv(117) @ 1235: uvm_test_top.env.agt.mon [AXI_MONITOR] [READ COMPLETE] addr=0x00000014 data=0x00000000 resp=0
UVM_INFO axi_scoreboard.sv(125) @ 1235: uvm_test_top.env.scb [AXI_SCOREBOARD] [READ DATA PASS] addr=0x00000014 data=0x00000000
UVM_INFO axi_sanity_test.sv(52) @ 1245: uvm_test_top.env.agt.rd_sqr@@sanity_rd_seq [AXI_SANITY_RD] READ addr=0x00000014 data=0x00000000 resp=0
UVM_INFO axi_input_monitor.sv(117) @ 1265: uvm_test_top.env.agt.mon [AXI_MONITOR] [READ COMPLETE] addr=0x00000004 data=0x00000000 resp=0
UVM_INFO axi_scoreboard.sv(125) @ 1265: uvm_test_top.env.scb [AXI_SCOREBOARD] [READ DATA PASS] addr=0x00000004 data=0x00000000
UVM_INFO axi_input_monitor.sv(78) @ 1275: uvm_test_top.env.agt.mon [AXI_MONITOR] [WRITE COMPLETE] addr=0x0000003c data=0x2cf3d61f strb=0xf resp=0
UVM_INFO axi_scoreboard.sv(85) @ 1275: uvm_test_top.env.scb [AXI_SCOREBOARD] [WRITE RESP PASS] addr=0x0000003c resp=2'b00
UVM_INFO axi_sanity_test.sv(52) @ 1275: uvm_test_top.env.agt.rd_sqr@@sanity_rd_seq [AXI_SANITY_RD] READ addr=0x00000004 data=0x00000000 resp=0
UVM_INFO axi_sanity_test.sv(23) @ 1285: uvm_test_top.env.agt.wr_sqr@@sanity_wr_seq [AXI_SANITY_WR] WRITE addr=0x0000003c data=0x2cf3d61f resp=0
UVM_INFO axi_input_monitor.sv(117) @ 1295: uvm_test_top.env.agt.mon [AXI_MONITOR] [READ COMPLETE] addr=0x0000003c data=0x2cf3d61f resp=0
UVM_INFO axi_scoreboard.sv(125) @ 1295: uvm_test_top.env.scb [AXI_SCOREBOARD] [READ DATA PASS] addr=0x0000003c data=0x2cf3d61f
UVM_INFO axi_sanity_test.sv(52) @ 1305: uvm_test_top.env.agt.rd_sqr@@sanity_rd_seq [AXI_SANITY_RD] READ addr=0x0000003c data=0x2cf3d61f resp=0
UVM_INFO axi_input_monitor.sv(117) @ 1325: uvm_test_top.env.agt.mon [AXI_MONITOR] [READ COMPLETE] addr=0x0000001c data=0xd139ecde resp=0
UVM_INFO axi_scoreboard.sv(125) @ 1325: uvm_test_top.env.scb [AXI_SCOREBOARD] [READ DATA PASS] addr=0x0000001c data=0xd139ecde
UVM_INFO axi_input_monitor.sv(78) @ 1325: uvm_test_top.env.agt.mon [AXI_MONITOR] [WRITE COMPLETE] addr=0x0000003c data=0xcf5159d4 strb=0xf resp=0
UVM_INFO axi_scoreboard.sv(85) @ 1325: uvm_test_top.env.scb [AXI_SCOREBOARD] [WRITE RESP PASS] addr=0x0000003c resp=2'b00
UVM_INFO axi_b2b_write.sv(22) @ 1335: uvm_test_top.env.agt.wr_sqr@@b2b_seq [AXI_B2B_WRITE] B2B WRITE addr=0x0000003c data=0xcf5159d4 resp=0
UVM_INFO axi_sanity_test.sv(52) @ 1335: uvm_test_top.env.agt.rd_sqr@@sanity_rd_seq [AXI_SANITY_RD] READ addr=0x0000001c data=0xd139ecde resp=0
UVM_INFO axi_input_monitor.sv(117) @ 1355: uvm_test_top.env.agt.mon [AXI_MONITOR] [READ COMPLETE] addr=0x00000008 data=0xe7645030 resp=0
UVM_INFO axi_scoreboard.sv(125) @ 1355: uvm_test_top.env.scb [AXI_SCOREBOARD] [READ DATA PASS] addr=0x00000008 data=0xe7645030
UVM_INFO axi_sanity_test.sv(52) @ 1365: uvm_test_top.env.agt.rd_sqr@@sanity_rd_seq [AXI_SANITY_RD] READ addr=0x00000008 data=0xe7645030 resp=0
UVM_INFO axi_input_monitor.sv(78) @ 1375: uvm_test_top.env.agt.mon [AXI_MONITOR] [WRITE COMPLETE] addr=0x000000e8 data=0x2baf9fb5 strb=0xf resp=3
UVM_INFO axi_scoreboard.sv(85) @ 1375: uvm_test_top.env.scb [AXI_SCOREBOARD] [WRITE RESP PASS] addr=0x000000e8 resp=2'b11
UVM_INFO axi_input_monitor.sv(117) @ 1385: uvm_test_top.env.agt.mon [AXI_MONITOR] [READ COMPLETE] addr=0x00000028 data=0x00000000 resp=0
UVM_INFO axi_scoreboard.sv(125) @ 1385: uvm_test_top.env.scb [AXI_SCOREBOARD] [READ DATA PASS] addr=0x00000028 data=0x00000000
UVM_INFO axi_dec_err.sv(28) @ 1385: uvm_test_top.env.agt.wr_sqr@@dec_wr_seq [AXI_DEC_ERR] WRITE out-of-range addr=0x000000e8 resp=3 (expected DECERR=3)
UVM_INFO axi_sanity_test.sv(52) @ 1395: uvm_test_top.env.agt.rd_sqr@@sanity_rd_seq [AXI_SANITY_RD] READ addr=0x00000028 data=0x00000000 resp=0
UVM_INFO axi_input_monitor.sv(117) @ 1415: uvm_test_top.env.agt.mon [AXI_MONITOR] [READ COMPLETE] addr=0x00000000 data=0x00000000 resp=0
UVM_INFO axi_scoreboard.sv(125) @ 1415: uvm_test_top.env.scb [AXI_SCOREBOARD] [READ DATA PASS] addr=0x00000000 data=0x00000000
UVM_INFO axi_input_monitor.sv(78) @ 1425: uvm_test_top.env.agt.mon [AXI_MONITOR] [WRITE COMPLETE] addr=0x0000002c data=0xb6567120 strb=0xf resp=2
UVM_INFO axi_scoreboard.sv(85) @ 1425: uvm_test_top.env.scb [AXI_SCOREBOARD] [WRITE RESP PASS] addr=0x0000002c resp=2'b10
UVM_INFO axi_sanity_test.sv(52) @ 1425: uvm_test_top.env.agt.rd_sqr@@sanity_rd_seq [AXI_SANITY_RD] READ addr=0x00000000 data=0x00000000 resp=0
UVM_INFO axi_slv_err.sv(28) @ 1435: uvm_test_top.env.agt.wr_sqr@@slv_wr_seq [AXI_SLV_ERR] WRITE to RO addr=0x0000002c resp=2 (expected SLVERR=2)
UVM_INFO axi_input_monitor.sv(117) @ 1445: uvm_test_top.env.agt.mon [AXI_MONITOR] [READ COMPLETE] addr=0x00000008 data=0xe7645030 resp=0
UVM_INFO axi_scoreboard.sv(125) @ 1445: uvm_test_top.env.scb [AXI_SCOREBOARD] [READ DATA PASS] addr=0x00000008 data=0xe7645030
UVM_INFO axi_sanity_test.sv(52) @ 1455: uvm_test_top.env.agt.rd_sqr@@sanity_rd_seq [AXI_SANITY_RD] READ addr=0x00000008 data=0xe7645030 resp=0
UVM_INFO axi_input_monitor.sv(117) @ 1475: uvm_test_top.env.agt.mon [AXI_MONITOR] [READ COMPLETE] addr=0x0000001c data=0xd139ecde resp=0
UVM_INFO axi_scoreboard.sv(125) @ 1475: uvm_test_top.env.scb [AXI_SCOREBOARD] [READ DATA PASS] addr=0x0000001c data=0xd139ecde
UVM_INFO axi_input_monitor.sv(78) @ 1475: uvm_test_top.env.agt.mon [AXI_MONITOR] [WRITE COMPLETE] addr=0x00000000 data=0xdeadbeef strb=0x1 resp=0
UVM_INFO axi_scoreboard.sv(85) @ 1475: uvm_test_top.env.scb [AXI_SCOREBOARD] [WRITE RESP PASS] addr=0x00000000 resp=2'b00
UVM_INFO axi_wstrb_seq.sv(44) @ 1485: uvm_test_top.env.agt.wr_sqr@@strb_seq [AXI_WSTRB] WRITE strb=4'b0001 data=0xDEADBEEF resp=0
UVM_INFO axi_sanity_test.sv(52) @ 1485: uvm_test_top.env.agt.rd_sqr@@sanity_rd_seq [AXI_SANITY_RD] READ addr=0x0000001c data=0xd139ecde resp=0

=======================================================

Solver failed when solving following set of constraints 


rand bit[31:0] AWADDR; // rand_mode = ON 

constraint valid_address_range    // (from this) (constraint_mode = ON) (axi_trans.sv:57)
{
   ((AWADDR[31:6]) == 26'h0);
}
constraint WITH_CONSTRAINT    // (from this) (constraint_mode = ON) (axi_negative_test.sv:44)
{
   (AWADDR == 32'hffffffff);
}

=======================================================

Info-[CNST-SATE]  A standalone test-case for this failure has automatically been extracted 
  from randomize serial 79 partition 1.
  To reproduce the error using the extracted testcase, please use the 
  following command:
  cd 
  /fetools/work_area/frontend/Batch_11/Kittu_Patel/UVM/Project/AXI/./simv.cst/testcases;
  vcs -sverilog extracted_r_79_p_1_inconsistent_constraints.sv -R
  To reproduce the error using the original design and verbose logging, re-run
  simulation using:
  simv +ntb_solver_debug=trace +ntb_solver_debug_filter=79
  To reproduce the error using the original design and debug the error with 
  Verdi/DVE:
  1. re-compile the original design with -debug_access+all, if not already 
  done so
  	% vcs -debug_access+all <other options>
  2. re-run the simulation interactively with -gui/-verdi
  	% simv -gui/-verdi <other options>
  3. enter the following commands to begin interactive constraint 
  inconsistency debug within Verdi/DVE
  	I. set the breakpoint:	verdi/dve> stop -solver -serial 79
  	II. run the simulation till it stops:	verdi/dve> run
  	III. step in the constraint solver:	verdi/dve> step -solver

Error-[CNST-CIF] Constraints inconsistency failure
axi_negative_test.sv, 44
  Constraints are inconsistent and cannot be solved.
  Please check the inconsistent constraints being printed above and rewrite 
  them.

"axi_negative_test.sv", 44: axi_pkg::\axi_negative_seq::body .unnamed$$_2: started at 1485s failed at 1485s
	Offending 'wr_pkt.randomize() with {
(this.operation == single_w);
(this.AWADDR == 32'hffffffff);
}
'
UVM_INFO axi_input_monitor.sv(117) @ 1505: uvm_test_top.env.agt.mon [AXI_MONITOR] [READ COMPLETE] addr=0x00000004 data=0x00000000 resp=0
UVM_INFO axi_scoreboard.sv(125) @ 1505: uvm_test_top.env.scb [AXI_SCOREBOARD] [READ DATA PASS] addr=0x00000004 data=0x00000000
UVM_INFO axi_sanity_test.sv(52) @ 1515: uvm_test_top.env.agt.rd_sqr@@sanity_rd_seq [AXI_SANITY_RD] READ addr=0x00000004 data=0x00000000 resp=0
UVM_INFO axi_input_monitor.sv(78) @ 1525: uvm_test_top.env.agt.mon [AXI_MONITOR] [WRITE COMPLETE] addr=0x00000000 data=0x00000000 strb=0x0 resp=0
UVM_INFO axi_scoreboard.sv(85) @ 1525: uvm_test_top.env.scb [AXI_SCOREBOARD] [WRITE RESP PASS] addr=0x00000000 resp=2'b00
UVM_INFO axi_input_monitor.sv(117) @ 1535: uvm_test_top.env.agt.mon [AXI_MONITOR] [READ COMPLETE] addr=0x00000004 data=0x00000000 resp=0
UVM_INFO axi_scoreboard.sv(125) @ 1535: uvm_test_top.env.scb [AXI_SCOREBOARD] [READ DATA PASS] addr=0x00000004 data=0x00000000
UVM_INFO axi_negative_test.sv(46) @ 1535: uvm_test_top.env.agt.wr_sqr@@neg_w_seq [AXI_Negative_WR] WRITE addr=0x00000000 data=0x00000000 resp=0
UVM_INFO axi_sanity_test.sv(52) @ 1545: uvm_test_top.env.agt.rd_sqr@@sanity_rd_seq [AXI_SANITY_RD] READ addr=0x00000004 data=0x00000000 resp=0
UVM_INFO axi_input_monitor.sv(117) @ 1565: uvm_test_top.env.agt.mon [AXI_MONITOR] [READ COMPLETE] addr=0x00000024 data=0x49aa0eef resp=0
UVM_INFO axi_scoreboard.sv(125) @ 1565: uvm_test_top.env.scb [AXI_SCOREBOARD] [READ DATA PASS] addr=0x00000024 data=0x49aa0eef
UVM_INFO axi_input_monitor.sv(78) @ 1575: uvm_test_top.env.agt.mon [AXI_MONITOR] [WRITE COMPLETE] addr=0x0000001c data=0xd4515398 strb=0xf resp=0
UVM_INFO axi_scoreboard.sv(85) @ 1575: uvm_test_top.env.scb [AXI_SCOREBOARD] [WRITE RESP PASS] addr=0x0000001c resp=2'b00
UVM_INFO axi_sanity_test.sv(52) @ 1575: uvm_test_top.env.agt.rd_sqr@@sanity_rd_seq [AXI_SANITY_RD] READ addr=0x00000024 data=0x49aa0eef resp=0
UVM_INFO axi_sanity_test.sv(23) @ 1585: uvm_test_top.env.agt.wr_sqr@@sanity_wr_seq [AXI_SANITY_WR] WRITE addr=0x0000001c data=0xd4515398 resp=0
UVM_INFO axi_input_monitor.sv(117) @ 1595: uvm_test_top.env.agt.mon [AXI_MONITOR] [READ COMPLETE] addr=0x0000003c data=0xcf5159d4 resp=0
UVM_INFO axi_scoreboard.sv(125) @ 1595: uvm_test_top.env.scb [AXI_SCOREBOARD] [READ DATA PASS] addr=0x0000003c data=0xcf5159d4
UVM_INFO axi_sanity_test.sv(52) @ 1605: uvm_test_top.env.agt.rd_sqr@@sanity_rd_seq [AXI_SANITY_RD] READ addr=0x0000003c data=0xcf5159d4 resp=0
UVM_INFO axi_input_monitor.sv(117) @ 1625: uvm_test_top.env.agt.mon [AXI_MONITOR] [READ COMPLETE] addr=0x00000000 data=0x000000ef resp=0
UVM_INFO axi_scoreboard.sv(125) @ 1625: uvm_test_top.env.scb [AXI_SCOREBOARD] [READ DATA PASS] addr=0x00000000 data=0x000000ef
UVM_INFO axi_input_monitor.sv(78) @ 1625: uvm_test_top.env.agt.mon [AXI_MONITOR] [WRITE COMPLETE] addr=0x00000018 data=0x73adabf5 strb=0xf resp=0
UVM_INFO axi_scoreboard.sv(85) @ 1625: uvm_test_top.env.scb [AXI_SCOREBOARD] [WRITE RESP PASS] addr=0x00000018 resp=2'b00
UVM_INFO axi_b2b_write.sv(22) @ 1635: uvm_test_top.env.agt.wr_sqr@@b2b_seq [AXI_B2B_WRITE] B2B WRITE addr=0x00000018 data=0x73adabf5 resp=0
UVM_INFO axi_sanity_test.sv(52) @ 1635: uvm_test_top.env.agt.rd_sqr@@sanity_rd_seq [AXI_SANITY_RD] READ addr=0x00000000 data=0x000000ef resp=0
UVM_INFO axi_input_monitor.sv(117) @ 1655: uvm_test_top.env.agt.mon [AXI_MONITOR] [READ COMPLETE] addr=0x00000000 data=0x000000ef resp=0
UVM_INFO axi_scoreboard.sv(125) @ 1655: uvm_test_top.env.scb [AXI_SCOREBOARD] [READ DATA PASS] addr=0x00000000 data=0x000000ef
UVM_INFO axi_sanity_test.sv(52) @ 1665: uvm_test_top.env.agt.rd_sqr@@sanity_rd_seq [AXI_SANITY_RD] READ addr=0x00000000 data=0x000000ef resp=0
UVM_INFO axi_input_monitor.sv(78) @ 1675: uvm_test_top.env.agt.mon [AXI_MONITOR] [WRITE COMPLETE] addr=0x00000080 data=0xfdbae603 strb=0xf resp=3
UVM_INFO axi_scoreboard.sv(85) @ 1675: uvm_test_top.env.scb [AXI_SCOREBOARD] [WRITE RESP PASS] addr=0x00000080 resp=2'b11
UVM_INFO axi_input_monitor.sv(117) @ 1685: uvm_test_top.env.agt.mon [AXI_MONITOR] [READ COMPLETE] addr=0x0000001c data=0xd4515398 resp=0
UVM_INFO axi_scoreboard.sv(125) @ 1685: uvm_test_top.env.scb [AXI_SCOREBOARD] [READ DATA PASS] addr=0x0000001c data=0xd4515398
UVM_INFO axi_dec_err.sv(45) @ 1685: uvm_test_top.env.agt.wr_sqr@@dec_wr_seq [AXI_DEC_ERR] READ out-of-range addr=0x00000090 resp=0 (expected DECERR=3)
UVM_INFO axi_sanity_test.sv(52) @ 1695: uvm_test_top.env.agt.rd_sqr@@sanity_rd_seq [AXI_SANITY_RD] READ addr=0x0000001c data=0xd4515398 resp=0
UVM_INFO axi_input_monitor.sv(117) @ 1715: uvm_test_top.env.agt.mon [AXI_MONITOR] [READ COMPLETE] addr=0x00000030 data=0x00000000 resp=0
UVM_INFO axi_scoreboard.sv(125) @ 1715: uvm_test_top.env.scb [AXI_SCOREBOARD] [READ DATA PASS] addr=0x00000030 data=0x00000000
UVM_INFO axi_input_monitor.sv(78) @ 1725: uvm_test_top.env.agt.mon [AXI_MONITOR] [WRITE COMPLETE] addr=0x0000002c data=0x1775970c strb=0xf resp=2
UVM_INFO axi_scoreboard.sv(85) @ 1725: uvm_test_top.env.scb [AXI_SCOREBOARD] [WRITE RESP PASS] addr=0x0000002c resp=2'b10
UVM_INFO axi_sanity_test.sv(52) @ 1725: uvm_test_top.env.agt.rd_sqr@@sanity_rd_seq [AXI_SANITY_RD] READ addr=0x00000030 data=0x00000000 resp=0
UVM_INFO axi_slv_err.sv(44) @ 1735: uvm_test_top.env.agt.wr_sqr@@slv_wr_seq [AXI_SLV_ERR] READ from WO addr=0x00000034 resp=0 (expected SLVERR=2)
UVM_INFO axi_input_monitor.sv(117) @ 1745: uvm_test_top.env.agt.mon [AXI_MONITOR] [READ COMPLETE] addr=0x00000014 data=0x00000000 resp=0
UVM_INFO axi_scoreboard.sv(125) @ 1745: uvm_test_top.env.scb [AXI_SCOREBOARD] [READ DATA PASS] addr=0x00000014 data=0x00000000
UVM_INFO axi_sanity_test.sv(52) @ 1755: uvm_test_top.env.agt.rd_sqr@@sanity_rd_seq [AXI_SANITY_RD] READ addr=0x00000014 data=0x00000000 resp=0
UVM_INFO axi_input_monitor.sv(117) @ 1775: uvm_test_top.env.agt.mon [AXI_MONITOR] [READ COMPLETE] addr=0x00000014 data=0x00000000 resp=0
UVM_INFO axi_scoreboard.sv(125) @ 1775: uvm_test_top.env.scb [AXI_SCOREBOARD] [READ DATA PASS] addr=0x00000014 data=0x00000000
UVM_INFO axi_input_monitor.sv(78) @ 1775: uvm_test_top.env.agt.mon [AXI_MONITOR] [WRITE COMPLETE] addr=0x0000001c data=0x0a8104f7 strb=0xf resp=0
UVM_INFO axi_scoreboard.sv(85) @ 1775: uvm_test_top.env.scb [AXI_SCOREBOARD] [WRITE RESP PASS] addr=0x0000001c resp=2'b00
UVM_INFO axi_wstrb_seq.sv(55) @ 1785: uvm_test_top.env.agt.wr_sqr@@strb_seq [AXI_WSTRB] READ  strb=4'b0001 data=0x00000000
UVM_INFO axi_sanity_test.sv(52) @ 1785: uvm_test_top.env.agt.rd_sqr@@sanity_rd_seq [AXI_SANITY_RD] READ addr=0x00000014 data=0x00000000 resp=0
UVM_INFO axi_sanity_test.sv(56) @ 1785: uvm_test_top.env.agt.rd_sqr@@sanity_rd_seq [AXI_SANITY_RD] Sanity Read Sequence Complete

=======================================================

Solver failed when solving following set of constraints 


rand bit[31:0] AWADDR; // rand_mode = ON 

constraint valid_address_range    // (from this) (constraint_mode = ON) (axi_trans.sv:57)
{
   ((AWADDR[31:6]) == 26'h0);
}
constraint WITH_CONSTRAINT    // (from this) (constraint_mode = ON) (axi_negative_test.sv:44)
{
   (AWADDR == 32'hffffffff);
}

=======================================================

Info-[CNST-SATE]  A standalone test-case for this failure has automatically been extracted 
  from randomize serial 94 partition 1.
  To reproduce the error using the extracted testcase, please use the 
  following command:
  cd 
  /fetools/work_area/frontend/Batch_11/Kittu_Patel/UVM/Project/AXI/./simv.cst/testcases;
  vcs -sverilog extracted_r_94_p_1_inconsistent_constraints.sv -R
  To reproduce the error using the original design and verbose logging, re-run
  simulation using:
  simv +ntb_solver_debug=trace +ntb_solver_debug_filter=94
  To reproduce the error using the original design and debug the error with 
  Verdi/DVE:
  1. re-compile the original design with -debug_access+all, if not already 
  done so
  	% vcs -debug_access+all <other options>
  2. re-run the simulation interactively with -gui/-verdi
  	% simv -gui/-verdi <other options>
  3. enter the following commands to begin interactive constraint 
  inconsistency debug within Verdi/DVE
  	I. set the breakpoint:	verdi/dve> stop -solver -serial 94
  	II. run the simulation till it stops:	verdi/dve> run
  	III. step in the constraint solver:	verdi/dve> step -solver

Error-[CNST-CIF] Constraints inconsistency failure
axi_negative_test.sv, 44
  Constraints are inconsistent and cannot be solved.
  Please check the inconsistent constraints being printed above and rewrite 
  them.

"axi_negative_test.sv", 44: axi_pkg::\axi_negative_seq::body .unnamed$$_2: started at 1785s failed at 1785s
	Offending 'wr_pkt.randomize() with {
(this.operation == single_w);
(this.AWADDR == 32'hffffffff);
}
'
UVM_INFO axi_input_monitor.sv(78) @ 1825: uvm_test_top.env.agt.mon [AXI_MONITOR] [WRITE COMPLETE] addr=0x00000000 data=0x00000000 strb=0x0 resp=0
UVM_INFO axi_scoreboard.sv(85) @ 1825: uvm_test_top.env.scb [AXI_SCOREBOARD] [WRITE RESP PASS] addr=0x00000000 resp=2'b00
UVM_INFO axi_negative_test.sv(46) @ 1835: uvm_test_top.env.agt.wr_sqr@@neg_w_seq [AXI_Negative_WR] WRITE addr=0x00000000 data=0x00000000 resp=0
UVM_INFO axi_input_monitor.sv(78) @ 1875: uvm_test_top.env.agt.mon [AXI_MONITOR] [WRITE COMPLETE] addr=0x0000003c data=0xc3a7820d strb=0xf resp=0
UVM_INFO axi_scoreboard.sv(85) @ 1875: uvm_test_top.env.scb [AXI_SCOREBOARD] [WRITE RESP PASS] addr=0x0000003c resp=2'b00
UVM_INFO axi_sanity_test.sv(23) @ 1885: uvm_test_top.env.agt.wr_sqr@@sanity_wr_seq [AXI_SANITY_WR] WRITE addr=0x0000003c data=0xc3a7820d resp=0
UVM_INFO axi_input_monitor.sv(78) @ 1925: uvm_test_top.env.agt.mon [AXI_MONITOR] [WRITE COMPLETE] addr=0x0000000c data=0x22ce395d strb=0xf resp=0
UVM_INFO axi_scoreboard.sv(85) @ 1925: uvm_test_top.env.scb [AXI_SCOREBOARD] [WRITE RESP PASS] addr=0x0000000c resp=2'b00
UVM_INFO axi_b2b_write.sv(22) @ 1935: uvm_test_top.env.agt.wr_sqr@@b2b_seq [AXI_B2B_WRITE] B2B WRITE addr=0x0000000c data=0x22ce395d resp=0
UVM_INFO axi_input_monitor.sv(78) @ 1975: uvm_test_top.env.agt.mon [AXI_MONITOR] [WRITE COMPLETE] addr=0x00000054 data=0x49294e26 strb=0xf resp=3
UVM_INFO axi_scoreboard.sv(85) @ 1975: uvm_test_top.env.scb [AXI_SCOREBOARD] [WRITE RESP PASS] addr=0x00000054 resp=2'b11
UVM_INFO axi_dec_err.sv(45) @ 1985: uvm_test_top.env.agt.wr_sqr@@dec_wr_seq [AXI_DEC_ERR] READ out-of-range addr=0x0000008c resp=0 (expected DECERR=3)
UVM_INFO axi_input_monitor.sv(78) @ 2025: uvm_test_top.env.agt.mon [AXI_MONITOR] [WRITE COMPLETE] addr=0x0000002c data=0xfe499818 strb=0xf resp=2
UVM_INFO axi_scoreboard.sv(85) @ 2025: uvm_test_top.env.scb [AXI_SCOREBOARD] [WRITE RESP PASS] addr=0x0000002c resp=2'b10
UVM_INFO axi_slv_err.sv(44) @ 2035: uvm_test_top.env.agt.wr_sqr@@slv_wr_seq [AXI_SLV_ERR] READ from WO addr=0x00000038 resp=0 (expected SLVERR=2)
UVM_INFO axi_input_monitor.sv(78) @ 2075: uvm_test_top.env.agt.mon [AXI_MONITOR] [WRITE COMPLETE] addr=0x00000000 data=0x00000000 strb=0xf resp=0
UVM_INFO axi_scoreboard.sv(85) @ 2075: uvm_test_top.env.scb [AXI_SCOREBOARD] [WRITE RESP PASS] addr=0x00000000 resp=2'b00

=======================================================

Solver failed when solving following set of constraints 


rand bit[31:0] ARADDR; // rand_mode = ON 

constraint valid_address_range    // (from this) (constraint_mode = ON) (axi_trans.sv:57)
{
   ((ARADDR[31:6]) == 26'h0);
}
constraint WITH_CONSTRAINT    // (from this) (constraint_mode = ON) (axi_negative_test.sv:56)
{
   (ARADDR == 32'hffffffff);
}

=======================================================

Info-[CNST-SATE]  A standalone test-case for this failure has automatically been extracted 
  from randomize serial 100 partition 2.
  To reproduce the error using the extracted testcase, please use the 
  following command:
  cd 
  /fetools/work_area/frontend/Batch_11/Kittu_Patel/UVM/Project/AXI/./simv.cst/testcases;
  vcs -sverilog extracted_r_100_p_2_inconsistent_constraints.sv -R
  To reproduce the error using the original design and verbose logging, re-run
  simulation using:
  simv +ntb_solver_debug=trace +ntb_solver_debug_filter=100
  To reproduce the error using the original design and debug the error with 
  Verdi/DVE:
  1. re-compile the original design with -debug_access+all, if not already 
  done so
  	% vcs -debug_access+all <other options>
  2. re-run the simulation interactively with -gui/-verdi
  	% simv -gui/-verdi <other options>
  3. enter the following commands to begin interactive constraint 
  inconsistency debug within Verdi/DVE
  	I. set the breakpoint:	verdi/dve> stop -solver -serial 100
  	II. run the simulation till it stops:	verdi/dve> run
  	III. step in the constraint solver:	verdi/dve> step -solver

Error-[CNST-CIF] Constraints inconsistency failure
axi_negative_test.sv, 56
  Constraints are inconsistent and cannot be solved.
  Please check the inconsistent constraints being printed above and rewrite 
  them.

"axi_negative_test.sv", 56: axi_pkg::\axi_negative_seq::body .unnamed$$_3: started at 2085s failed at 2085s
	Offending 'rd_pkt.randomize() with {
(this.operation == single_r);
(this.ARADDR == 32'hffffffff);
}
'
UVM_INFO axi_input_monitor.sv(78) @ 2125: uvm_test_top.env.agt.mon [AXI_MONITOR] [WRITE COMPLETE] addr=0x00000000 data=0x00000000 strb=0x0 resp=0
UVM_INFO axi_scoreboard.sv(85) @ 2125: uvm_test_top.env.scb [AXI_SCOREBOARD] [WRITE RESP PASS] addr=0x00000000 resp=2'b00
UVM_INFO axi_input_monitor.sv(78) @ 2175: uvm_test_top.env.agt.mon [AXI_MONITOR] [WRITE COMPLETE] addr=0x0000001c data=0x835f2329 strb=0xf resp=0
UVM_INFO axi_scoreboard.sv(85) @ 2175: uvm_test_top.env.scb [AXI_SCOREBOARD] [WRITE RESP PASS] addr=0x0000001c resp=2'b00
UVM_INFO axi_sanity_test.sv(23) @ 2185: uvm_test_top.env.agt.wr_sqr@@sanity_wr_seq [AXI_SANITY_WR] WRITE addr=0x0000001c data=0x835f2329 resp=0
UVM_INFO axi_input_monitor.sv(78) @ 2225: uvm_test_top.env.agt.mon [AXI_MONITOR] [WRITE COMPLETE] addr=0x0000003c data=0x42c602a8 strb=0xf resp=0
UVM_INFO axi_scoreboard.sv(85) @ 2225: uvm_test_top.env.scb [AXI_SCOREBOARD] [WRITE RESP PASS] addr=0x0000003c resp=2'b00
UVM_INFO axi_b2b_write.sv(22) @ 2235: uvm_test_top.env.agt.wr_sqr@@b2b_seq [AXI_B2B_WRITE] B2B WRITE addr=0x0000003c data=0x42c602a8 resp=0
UVM_INFO axi_input_monitor.sv(78) @ 2275: uvm_test_top.env.agt.mon [AXI_MONITOR] [WRITE COMPLETE] addr=0x00000048 data=0x90e494c7 strb=0xf resp=3
UVM_INFO axi_scoreboard.sv(85) @ 2275: uvm_test_top.env.scb [AXI_SCOREBOARD] [WRITE RESP PASS] addr=0x00000048 resp=2'b11
UVM_INFO axi_dec_err.sv(45) @ 2285: uvm_test_top.env.agt.wr_sqr@@dec_wr_seq [AXI_DEC_ERR] READ out-of-range addr=0x000000f4 resp=0 (expected DECERR=3)
UVM_INFO axi_input_monitor.sv(78) @ 2325: uvm_test_top.env.agt.mon [AXI_MONITOR] [WRITE COMPLETE] addr=0x0000002c data=0x3c8b0209 strb=0xf resp=2
UVM_INFO axi_scoreboard.sv(85) @ 2325: uvm_test_top.env.scb [AXI_SCOREBOARD] [WRITE RESP PASS] addr=0x0000002c resp=2'b10
UVM_INFO axi_slv_err.sv(44) @ 2335: uvm_test_top.env.agt.wr_sqr@@slv_wr_seq [AXI_SLV_ERR] READ from WO addr=0x00000034 resp=0 (expected SLVERR=2)
UVM_INFO axi_input_monitor.sv(78) @ 2375: uvm_test_top.env.agt.mon [AXI_MONITOR] [WRITE COMPLETE] addr=0x00000000 data=0xdeadbeef strb=0x2 resp=0
UVM_INFO axi_scoreboard.sv(85) @ 2375: uvm_test_top.env.scb [AXI_SCOREBOARD] [WRITE RESP PASS] addr=0x00000000 resp=2'b00
UVM_INFO axi_wstrb_seq.sv(44) @ 2385: uvm_test_top.env.agt.wr_sqr@@strb_seq [AXI_WSTRB] WRITE strb=4'b0010 data=0xDEADBEEF resp=0

=======================================================

Solver failed when solving following set of constraints 


rand bit[31:0] ARADDR; // rand_mode = ON 

constraint valid_address_range    // (from this) (constraint_mode = ON) (axi_trans.sv:57)
{
   ((ARADDR[31:6]) == 26'h0);
}
constraint WITH_CONSTRAINT    // (from this) (constraint_mode = ON) (axi_negative_test.sv:56)
{
   (ARADDR == 32'hffffffff);
}

=======================================================

Info-[CNST-SATE]  A standalone test-case for this failure has automatically been extracted 
  from randomize serial 106 partition 2.
  To reproduce the error using the extracted testcase, please use the 
  following command:
  cd 
  /fetools/work_area/frontend/Batch_11/Kittu_Patel/UVM/Project/AXI/./simv.cst/testcases;
  vcs -sverilog extracted_r_106_p_2_inconsistent_constraints.sv -R
  To reproduce the error using the original design and verbose logging, re-run
  simulation using:
  simv +ntb_solver_debug=trace +ntb_solver_debug_filter=106
  To reproduce the error using the original design and debug the error with 
  Verdi/DVE:
  1. re-compile the original design with -debug_access+all, if not already 
  done so
  	% vcs -debug_access+all <other options>
  2. re-run the simulation interactively with -gui/-verdi
  	% simv -gui/-verdi <other options>
  3. enter the following commands to begin interactive constraint 
  inconsistency debug within Verdi/DVE
  	I. set the breakpoint:	verdi/dve> stop -solver -serial 106
  	II. run the simulation till it stops:	verdi/dve> run
  	III. step in the constraint solver:	verdi/dve> step -solver

Error-[CNST-CIF] Constraints inconsistency failure
axi_negative_test.sv, 56
  Constraints are inconsistent and cannot be solved.
  Please check the inconsistent constraints being printed above and rewrite 
  them.

"axi_negative_test.sv", 56: axi_pkg::\axi_negative_seq::body .unnamed$$_3: started at 2385s failed at 2385s
	Offending 'rd_pkt.randomize() with {
(this.operation == single_r);
(this.ARADDR == 32'hffffffff);
}
'
UVM_INFO axi_input_monitor.sv(78) @ 2425: uvm_test_top.env.agt.mon [AXI_MONITOR] [WRITE COMPLETE] addr=0x00000000 data=0x00000000 strb=0x0 resp=0
UVM_INFO axi_scoreboard.sv(85) @ 2425: uvm_test_top.env.scb [AXI_SCOREBOARD] [WRITE RESP PASS] addr=0x00000000 resp=2'b00
UVM_INFO axi_input_monitor.sv(78) @ 2475: uvm_test_top.env.agt.mon [AXI_MONITOR] [WRITE COMPLETE] addr=0x00000008 data=0xe6bb57b4 strb=0xf resp=0
UVM_INFO axi_scoreboard.sv(85) @ 2475: uvm_test_top.env.scb [AXI_SCOREBOARD] [WRITE RESP PASS] addr=0x00000008 resp=2'b00
UVM_INFO axi_sanity_test.sv(23) @ 2485: uvm_test_top.env.agt.wr_sqr@@sanity_wr_seq [AXI_SANITY_WR] WRITE addr=0x00000008 data=0xe6bb57b4 resp=0
UVM_INFO axi_input_monitor.sv(78) @ 2525: uvm_test_top.env.agt.mon [AXI_MONITOR] [WRITE COMPLETE] addr=0x00000024 data=0xfb49230f strb=0xf resp=0
UVM_INFO axi_scoreboard.sv(85) @ 2525: uvm_test_top.env.scb [AXI_SCOREBOARD] [WRITE RESP PASS] addr=0x00000024 resp=2'b00
UVM_INFO axi_b2b_write.sv(22) @ 2535: uvm_test_top.env.agt.wr_sqr@@b2b_seq [AXI_B2B_WRITE] B2B WRITE addr=0x00000024 data=0xfb49230f resp=0
UVM_INFO axi_input_monitor.sv(78) @ 2575: uvm_test_top.env.agt.mon [AXI_MONITOR] [WRITE COMPLETE] addr=0x000000f0 data=0xececdf89 strb=0xf resp=3
UVM_INFO axi_scoreboard.sv(85) @ 2575: uvm_test_top.env.scb [AXI_SCOREBOARD] [WRITE RESP PASS] addr=0x000000f0 resp=2'b11
UVM_INFO axi_dec_err.sv(45) @ 2585: uvm_test_top.env.agt.wr_sqr@@dec_wr_seq [AXI_DEC_ERR] READ out-of-range addr=0x00000060 resp=0 (expected DECERR=3)
UVM_INFO axi_input_monitor.sv(78) @ 2625: uvm_test_top.env.agt.mon [AXI_MONITOR] [WRITE COMPLETE] addr=0x0000002c data=0xbac960b2 strb=0xf resp=2
UVM_INFO axi_scoreboard.sv(85) @ 2625: uvm_test_top.env.scb [AXI_SCOREBOARD] [WRITE RESP PASS] addr=0x0000002c resp=2'b10
UVM_INFO axi_slv_err.sv(44) @ 2635: uvm_test_top.env.agt.wr_sqr@@slv_wr_seq [AXI_SLV_ERR] READ from WO addr=0x00000038 resp=0 (expected SLVERR=2)
UVM_INFO axi_input_monitor.sv(78) @ 2675: uvm_test_top.env.agt.mon [AXI_MONITOR] [WRITE COMPLETE] addr=0x00000000 data=0xfa233999 strb=0xf resp=0
UVM_INFO axi_scoreboard.sv(85) @ 2675: uvm_test_top.env.scb [AXI_SCOREBOARD] [WRITE RESP PASS] addr=0x00000000 resp=2'b00
UVM_INFO axi_wstrb_seq.sv(55) @ 2685: uvm_test_top.env.agt.wr_sqr@@strb_seq [AXI_WSTRB] READ  strb=4'b0010 data=0x00000000
UVM_INFO axi_input_monitor.sv(78) @ 2725: uvm_test_top.env.agt.mon [AXI_MONITOR] [WRITE COMPLETE] addr=0x0000001c data=0xbd35e6c4 strb=0xf resp=0
UVM_INFO axi_scoreboard.sv(85) @ 2725: uvm_test_top.env.scb [AXI_SCOREBOARD] [WRITE RESP PASS] addr=0x0000001c resp=2'b00
UVM_INFO axi_sanity_test.sv(23) @ 2735: uvm_test_top.env.agt.wr_sqr@@sanity_wr_seq [AXI_SANITY_WR] WRITE addr=0x0000001c data=0xbd35e6c4 resp=0
UVM_INFO axi_input_monitor.sv(78) @ 2775: uvm_test_top.env.agt.mon [AXI_MONITOR] [WRITE COMPLETE] addr=0x0000003c data=0xcacc24f1 strb=0xf resp=0
UVM_INFO axi_scoreboard.sv(85) @ 2775: uvm_test_top.env.scb [AXI_SCOREBOARD] [WRITE RESP PASS] addr=0x0000003c resp=2'b00
UVM_INFO axi_b2b_write.sv(22) @ 2785: uvm_test_top.env.agt.wr_sqr@@b2b_seq [AXI_B2B_WRITE] B2B WRITE addr=0x0000003c data=0xcacc24f1 resp=0
UVM_INFO axi_input_monitor.sv(78) @ 2825: uvm_test_top.env.agt.mon [AXI_MONITOR] [WRITE COMPLETE] addr=0x000000fc data=0xe0c5cbdb strb=0xf resp=3
UVM_INFO axi_scoreboard.sv(85) @ 2825: uvm_test_top.env.scb [AXI_SCOREBOARD] [WRITE RESP PASS] addr=0x000000fc resp=2'b11
UVM_INFO axi_dec_err.sv(45) @ 2835: uvm_test_top.env.agt.wr_sqr@@dec_wr_seq [AXI_DEC_ERR] READ out-of-range addr=0x0000008c resp=0 (expected DECERR=3)
UVM_INFO axi_dec_err.sv(49) @ 2835: uvm_test_top.env.agt.wr_sqr@@dec_wr_seq [AXI_DEC_ERR] Decode Error Sequence Complete
UVM_INFO axi_input_monitor.sv(78) @ 2875: uvm_test_top.env.agt.mon [AXI_MONITOR] [WRITE COMPLETE] addr=0x00000028 data=0x56539219 strb=0xf resp=2
UVM_INFO axi_scoreboard.sv(85) @ 2875: uvm_test_top.env.scb [AXI_SCOREBOARD] [WRITE RESP PASS] addr=0x00000028 resp=2'b10
UVM_INFO axi_slv_err.sv(44) @ 2885: uvm_test_top.env.agt.wr_sqr@@slv_wr_seq [AXI_SLV_ERR] READ from WO addr=0x00000034 resp=0 (expected SLVERR=2)
UVM_INFO axi_slv_err.sv(48) @ 2885: uvm_test_top.env.agt.wr_sqr@@slv_wr_seq [AXI_SLV_ERR] Slave Error Sequence Complete
UVM_INFO axi_input_monitor.sv(78) @ 2925: uvm_test_top.env.agt.mon [AXI_MONITOR] [WRITE COMPLETE] addr=0x00000000 data=0x00000000 strb=0xf resp=0
UVM_INFO axi_scoreboard.sv(85) @ 2925: uvm_test_top.env.scb [AXI_SCOREBOARD] [WRITE RESP PASS] addr=0x00000000 resp=2'b00
UVM_INFO axi_input_monitor.sv(78) @ 2975: uvm_test_top.env.agt.mon [AXI_MONITOR] [WRITE COMPLETE] addr=0x00000024 data=0x4a8ba447 strb=0xf resp=0
UVM_INFO axi_scoreboard.sv(85) @ 2975: uvm_test_top.env.scb [AXI_SCOREBOARD] [WRITE RESP PASS] addr=0x00000024 resp=2'b00
UVM_INFO axi_sanity_test.sv(23) @ 2985: uvm_test_top.env.agt.wr_sqr@@sanity_wr_seq [AXI_SANITY_WR] WRITE addr=0x00000024 data=0x4a8ba447 resp=0
UVM_INFO axi_input_monitor.sv(78) @ 3025: uvm_test_top.env.agt.mon [AXI_MONITOR] [WRITE COMPLETE] addr=0x00000018 data=0xba243d99 strb=0xf resp=0
UVM_INFO axi_scoreboard.sv(85) @ 3025: uvm_test_top.env.scb [AXI_SCOREBOARD] [WRITE RESP PASS] addr=0x00000018 resp=2'b00
UVM_INFO axi_b2b_write.sv(22) @ 3035: uvm_test_top.env.agt.wr_sqr@@b2b_seq [AXI_B2B_WRITE] B2B WRITE addr=0x00000018 data=0xba243d99 resp=0
UVM_INFO axi_input_monitor.sv(78) @ 3075: uvm_test_top.env.agt.mon [AXI_MONITOR] [WRITE COMPLETE] addr=0x00000000 data=0xdeadbeef strb=0x3 resp=0
UVM_INFO axi_scoreboard.sv(85) @ 3075: uvm_test_top.env.scb [AXI_SCOREBOARD] [WRITE RESP PASS] addr=0x00000000 resp=2'b00
UVM_INFO axi_wstrb_seq.sv(44) @ 3085: uvm_test_top.env.agt.wr_sqr@@strb_seq [AXI_WSTRB] WRITE strb=4'b0011 data=0xDEADBEEF resp=0
UVM_INFO axi_input_monitor.sv(78) @ 3125: uvm_test_top.env.agt.mon [AXI_MONITOR] [WRITE COMPLETE] addr=0x0000000c data=0xad104531 strb=0xf resp=0
UVM_INFO axi_scoreboard.sv(85) @ 3125: uvm_test_top.env.scb [AXI_SCOREBOARD] [WRITE RESP PASS] addr=0x0000000c resp=2'b00
UVM_INFO axi_sanity_test.sv(23) @ 3135: uvm_test_top.env.agt.wr_sqr@@sanity_wr_seq [AXI_SANITY_WR] WRITE addr=0x0000000c data=0xad104531 resp=0
UVM_INFO axi_input_monitor.sv(78) @ 3175: uvm_test_top.env.agt.mon [AXI_MONITOR] [WRITE COMPLETE] addr=0x00000010 data=0xd96d46ee strb=0xf resp=0
UVM_INFO axi_scoreboard.sv(85) @ 3175: uvm_test_top.env.scb [AXI_SCOREBOARD] [WRITE RESP PASS] addr=0x00000010 resp=2'b00
UVM_INFO axi_b2b_write.sv(22) @ 3185: uvm_test_top.env.agt.wr_sqr@@b2b_seq [AXI_B2B_WRITE] B2B WRITE addr=0x00000010 data=0xd96d46ee resp=0
UVM_INFO axi_input_monitor.sv(78) @ 3225: uvm_test_top.env.agt.mon [AXI_MONITOR] [WRITE COMPLETE] addr=0x00000018 data=0x3dde8cc9 strb=0xf resp=0
UVM_INFO axi_scoreboard.sv(85) @ 3225: uvm_test_top.env.scb [AXI_SCOREBOARD] [WRITE RESP PASS] addr=0x00000018 resp=2'b00
UVM_INFO axi_wstrb_seq.sv(55) @ 3235: uvm_test_top.env.agt.wr_sqr@@strb_seq [AXI_WSTRB] READ  strb=4'b0011 data=0x00000000
UVM_INFO axi_input_monitor.sv(78) @ 3275: uvm_test_top.env.agt.mon [AXI_MONITOR] [WRITE COMPLETE] addr=0x0000000c data=0x1c783ad7 strb=0xf resp=0
UVM_INFO axi_scoreboard.sv(85) @ 3275: uvm_test_top.env.scb [AXI_SCOREBOARD] [WRITE RESP PASS] addr=0x0000000c resp=2'b00
UVM_INFO axi_sanity_test.sv(23) @ 3285: uvm_test_top.env.agt.wr_sqr@@sanity_wr_seq [AXI_SANITY_WR] WRITE addr=0x0000000c data=0x1c783ad7 resp=0
UVM_INFO axi_input_monitor.sv(78) @ 3325: uvm_test_top.env.agt.mon [AXI_MONITOR] [WRITE COMPLETE] addr=0x0000000c data=0xfc66c32a strb=0xf resp=0
UVM_INFO axi_scoreboard.sv(85) @ 3325: uvm_test_top.env.scb [AXI_SCOREBOARD] [WRITE RESP PASS] addr=0x0000000c resp=2'b00
UVM_INFO axi_b2b_write.sv(22) @ 3335: uvm_test_top.env.agt.wr_sqr@@b2b_seq [AXI_B2B_WRITE] B2B WRITE addr=0x0000000c data=0xfc66c32a resp=0
UVM_INFO axi_input_monitor.sv(78) @ 3375: uvm_test_top.env.agt.mon [AXI_MONITOR] [WRITE COMPLETE] addr=0x00000000 data=0x00000000 strb=0xf resp=0
UVM_INFO axi_scoreboard.sv(85) @ 3375: uvm_test_top.env.scb [AXI_SCOREBOARD] [WRITE RESP PASS] addr=0x00000000 resp=2'b00
UVM_INFO axi_input_monitor.sv(78) @ 3425: uvm_test_top.env.agt.mon [AXI_MONITOR] [WRITE COMPLETE] addr=0x00000000 data=0x23cb3ee0 strb=0xf resp=0
UVM_INFO axi_scoreboard.sv(85) @ 3425: uvm_test_top.env.scb [AXI_SCOREBOARD] [WRITE RESP PASS] addr=0x00000000 resp=2'b00
UVM_INFO axi_sanity_test.sv(23) @ 3435: uvm_test_top.env.agt.wr_sqr@@sanity_wr_seq [AXI_SANITY_WR] WRITE addr=0x00000000 data=0x23cb3ee0 resp=0
UVM_INFO axi_input_monitor.sv(78) @ 3475: uvm_test_top.env.agt.mon [AXI_MONITOR] [WRITE COMPLETE] addr=0x00000018 data=0x6dc688a9 strb=0xf resp=0
UVM_INFO axi_scoreboard.sv(85) @ 3475: uvm_test_top.env.scb [AXI_SCOREBOARD] [WRITE RESP PASS] addr=0x00000018 resp=2'b00
UVM_INFO axi_b2b_write.sv(22) @ 3485: uvm_test_top.env.agt.wr_sqr@@b2b_seq [AXI_B2B_WRITE] B2B WRITE addr=0x00000018 data=0x6dc688a9 resp=0
UVM_INFO axi_input_monitor.sv(78) @ 3525: uvm_test_top.env.agt.mon [AXI_MONITOR] [WRITE COMPLETE] addr=0x00000000 data=0xdeadbeef strb=0x4 resp=0
UVM_INFO axi_scoreboard.sv(85) @ 3525: uvm_test_top.env.scb [AXI_SCOREBOARD] [WRITE RESP PASS] addr=0x00000000 resp=2'b00
UVM_INFO axi_wstrb_seq.sv(44) @ 3535: uvm_test_top.env.agt.wr_sqr@@strb_seq [AXI_WSTRB] WRITE strb=4'b0100 data=0xDEADBEEF resp=0
UVM_INFO axi_input_monitor.sv(78) @ 3575: uvm_test_top.env.agt.mon [AXI_MONITOR] [WRITE COMPLETE] addr=0x00000014 data=0x0307805d strb=0xf resp=0
UVM_INFO axi_scoreboard.sv(85) @ 3575: uvm_test_top.env.scb [AXI_SCOREBOARD] [WRITE RESP PASS] addr=0x00000014 resp=2'b00
UVM_INFO axi_sanity_test.sv(23) @ 3585: uvm_test_top.env.agt.wr_sqr@@sanity_wr_seq [AXI_SANITY_WR] WRITE addr=0x00000014 data=0x0307805d resp=0
UVM_INFO axi_input_monitor.sv(78) @ 3625: uvm_test_top.env.agt.mon [AXI_MONITOR] [WRITE COMPLETE] addr=0x00000010 data=0xc7806069 strb=0xf resp=0
UVM_INFO axi_scoreboard.sv(85) @ 3625: uvm_test_top.env.scb [AXI_SCOREBOARD] [WRITE RESP PASS] addr=0x00000010 resp=2'b00
UVM_INFO axi_b2b_write.sv(22) @ 3635: uvm_test_top.env.agt.wr_sqr@@b2b_seq [AXI_B2B_WRITE] B2B WRITE addr=0x00000010 data=0xc7806069 resp=0
UVM_INFO axi_input_monitor.sv(78) @ 3675: uvm_test_top.env.agt.mon [AXI_MONITOR] [WRITE COMPLETE] addr=0x00000014 data=0xf90ec98a strb=0xf resp=0
UVM_INFO axi_scoreboard.sv(85) @ 3675: uvm_test_top.env.scb [AXI_SCOREBOARD] [WRITE RESP PASS] addr=0x00000014 resp=2'b00
UVM_INFO axi_wstrb_seq.sv(55) @ 3685: uvm_test_top.env.agt.wr_sqr@@strb_seq [AXI_WSTRB] READ  strb=4'b0100 data=0x00000000
UVM_INFO axi_input_monitor.sv(78) @ 3725: uvm_test_top.env.agt.mon [AXI_MONITOR] [WRITE COMPLETE] addr=0x00000010 data=0xaad9663d strb=0xf resp=0
UVM_INFO axi_scoreboard.sv(85) @ 3725: uvm_test_top.env.scb [AXI_SCOREBOARD] [WRITE RESP PASS] addr=0x00000010 resp=2'b00
UVM_INFO axi_sanity_test.sv(23) @ 3735: uvm_test_top.env.agt.wr_sqr@@sanity_wr_seq [AXI_SANITY_WR] WRITE addr=0x00000010 data=0xaad9663d resp=0
UVM_INFO axi_input_monitor.sv(78) @ 3775: uvm_test_top.env.agt.mon [AXI_MONITOR] [WRITE COMPLETE] addr=0x00000020 data=0x9d7b2c5d strb=0xf resp=0
UVM_INFO axi_scoreboard.sv(85) @ 3775: uvm_test_top.env.scb [AXI_SCOREBOARD] [WRITE RESP PASS] addr=0x00000020 resp=2'b00
UVM_INFO axi_b2b_write.sv(22) @ 3785: uvm_test_top.env.agt.wr_sqr@@b2b_seq [AXI_B2B_WRITE] B2B WRITE addr=0x00000020 data=0x9d7b2c5d resp=0
UVM_INFO axi_input_monitor.sv(78) @ 3825: uvm_test_top.env.agt.mon [AXI_MONITOR] [WRITE COMPLETE] addr=0x00000000 data=0x00000000 strb=0xf resp=0
UVM_INFO axi_scoreboard.sv(85) @ 3825: uvm_test_top.env.scb [AXI_SCOREBOARD] [WRITE RESP PASS] addr=0x00000000 resp=2'b00
UVM_INFO axi_input_monitor.sv(78) @ 3875: uvm_test_top.env.agt.mon [AXI_MONITOR] [WRITE COMPLETE] addr=0x0000001c data=0xbabbfdb4 strb=0xf resp=0
UVM_INFO axi_scoreboard.sv(85) @ 3875: uvm_test_top.env.scb [AXI_SCOREBOARD] [WRITE RESP PASS] addr=0x0000001c resp=2'b00
UVM_INFO axi_sanity_test.sv(23) @ 3885: uvm_test_top.env.agt.wr_sqr@@sanity_wr_seq [AXI_SANITY_WR] WRITE addr=0x0000001c data=0xbabbfdb4 resp=0
UVM_INFO axi_input_monitor.sv(78) @ 3925: uvm_test_top.env.agt.mon [AXI_MONITOR] [WRITE COMPLETE] addr=0x00000010 data=0x4c877624 strb=0xf resp=0
UVM_INFO axi_scoreboard.sv(85) @ 3925: uvm_test_top.env.scb [AXI_SCOREBOARD] [WRITE RESP PASS] addr=0x00000010 resp=2'b00
UVM_INFO axi_b2b_write.sv(22) @ 3935: uvm_test_top.env.agt.wr_sqr@@b2b_seq [AXI_B2B_WRITE] B2B WRITE addr=0x00000010 data=0x4c877624 resp=0
UVM_INFO axi_input_monitor.sv(78) @ 3975: uvm_test_top.env.agt.mon [AXI_MONITOR] [WRITE COMPLETE] addr=0x00000000 data=0xdeadbeef strb=0x5 resp=0
UVM_INFO axi_scoreboard.sv(85) @ 3975: uvm_test_top.env.scb [AXI_SCOREBOARD] [WRITE RESP PASS] addr=0x00000000 resp=2'b00
UVM_INFO axi_wstrb_seq.sv(44) @ 3985: uvm_test_top.env.agt.wr_sqr@@strb_seq [AXI_WSTRB] WRITE strb=4'b0101 data=0xDEADBEEF resp=0
UVM_INFO axi_input_monitor.sv(78) @ 4025: uvm_test_top.env.agt.mon [AXI_MONITOR] [WRITE COMPLETE] addr=0x00000010 data=0x0dc1b6b4 strb=0xf resp=0
UVM_INFO axi_scoreboard.sv(85) @ 4025: uvm_test_top.env.scb [AXI_SCOREBOARD] [WRITE RESP PASS] addr=0x00000010 resp=2'b00
UVM_INFO axi_sanity_test.sv(23) @ 4035: uvm_test_top.env.agt.wr_sqr@@sanity_wr_seq [AXI_SANITY_WR] WRITE addr=0x00000010 data=0x0dc1b6b4 resp=0
UVM_INFO axi_input_monitor.sv(78) @ 4075: uvm_test_top.env.agt.mon [AXI_MONITOR] [WRITE COMPLETE] addr=0x00000020 data=0xd6218b9f strb=0xf resp=0
UVM_INFO axi_scoreboard.sv(85) @ 4075: uvm_test_top.env.scb [AXI_SCOREBOARD] [WRITE RESP PASS] addr=0x00000020 resp=2'b00
UVM_INFO axi_b2b_write.sv(22) @ 4085: uvm_test_top.env.agt.wr_sqr@@b2b_seq [AXI_B2B_WRITE] B2B WRITE addr=0x00000020 data=0xd6218b9f resp=0
UVM_INFO axi_input_monitor.sv(78) @ 4125: uvm_test_top.env.agt.mon [AXI_MONITOR] [WRITE COMPLETE] addr=0x00000024 data=0x7e92c13f strb=0xf resp=0
UVM_INFO axi_scoreboard.sv(85) @ 4125: uvm_test_top.env.scb [AXI_SCOREBOARD] [WRITE RESP PASS] addr=0x00000024 resp=2'b00
UVM_INFO axi_wstrb_seq.sv(55) @ 4135: uvm_test_top.env.agt.wr_sqr@@strb_seq [AXI_WSTRB] READ  strb=4'b0101 data=0x00000000
UVM_INFO axi_input_monitor.sv(78) @ 4175: uvm_test_top.env.agt.mon [AXI_MONITOR] [WRITE COMPLETE] addr=0x0000001c data=0xb57ee8ba strb=0xf resp=0
UVM_INFO axi_scoreboard.sv(85) @ 4175: uvm_test_top.env.scb [AXI_SCOREBOARD] [WRITE RESP PASS] addr=0x0000001c resp=2'b00
UVM_INFO axi_sanity_test.sv(23) @ 4185: uvm_test_top.env.agt.wr_sqr@@sanity_wr_seq [AXI_SANITY_WR] WRITE addr=0x0000001c data=0xb57ee8ba resp=0
UVM_INFO axi_input_monitor.sv(78) @ 4225: uvm_test_top.env.agt.mon [AXI_MONITOR] [WRITE COMPLETE] addr=0x00000004 data=0x0a2183d0 strb=0xf resp=0
UVM_INFO axi_scoreboard.sv(85) @ 4225: uvm_test_top.env.scb [AXI_SCOREBOARD] [WRITE RESP PASS] addr=0x00000004 resp=2'b00
UVM_INFO axi_b2b_write.sv(22) @ 4235: uvm_test_top.env.agt.wr_sqr@@b2b_seq [AXI_B2B_WRITE] B2B WRITE addr=0x00000004 data=0x0a2183d0 resp=0
UVM_INFO axi_input_monitor.sv(78) @ 4275: uvm_test_top.env.agt.mon [AXI_MONITOR] [WRITE COMPLETE] addr=0x00000000 data=0x00000000 strb=0xf resp=0
UVM_INFO axi_scoreboard.sv(85) @ 4275: uvm_test_top.env.scb [AXI_SCOREBOARD] [WRITE RESP PASS] addr=0x00000000 resp=2'b00
UVM_INFO axi_input_monitor.sv(78) @ 4325: uvm_test_top.env.agt.mon [AXI_MONITOR] [WRITE COMPLETE] addr=0x0000000c data=0xb78f675f strb=0xf resp=0
UVM_INFO axi_scoreboard.sv(85) @ 4325: uvm_test_top.env.scb [AXI_SCOREBOARD] [WRITE RESP PASS] addr=0x0000000c resp=2'b00
UVM_INFO axi_sanity_test.sv(23) @ 4335: uvm_test_top.env.agt.wr_sqr@@sanity_wr_seq [AXI_SANITY_WR] WRITE addr=0x0000000c data=0xb78f675f resp=0
UVM_INFO axi_input_monitor.sv(78) @ 4375: uvm_test_top.env.agt.mon [AXI_MONITOR] [WRITE COMPLETE] addr=0x00000004 data=0x2ad04c9f strb=0xf resp=0
UVM_INFO axi_scoreboard.sv(85) @ 4375: uvm_test_top.env.scb [AXI_SCOREBOARD] [WRITE RESP PASS] addr=0x00000004 resp=2'b00
UVM_INFO axi_b2b_write.sv(22) @ 4385: uvm_test_top.env.agt.wr_sqr@@b2b_seq [AXI_B2B_WRITE] B2B WRITE addr=0x00000004 data=0x2ad04c9f resp=0
UVM_INFO axi_input_monitor.sv(78) @ 4425: uvm_test_top.env.agt.mon [AXI_MONITOR] [WRITE COMPLETE] addr=0x00000000 data=0xdeadbeef strb=0x6 resp=0
UVM_INFO axi_scoreboard.sv(85) @ 4425: uvm_test_top.env.scb [AXI_SCOREBOARD] [WRITE RESP PASS] addr=0x00000000 resp=2'b00
UVM_INFO axi_wstrb_seq.sv(44) @ 4435: uvm_test_top.env.agt.wr_sqr@@strb_seq [AXI_WSTRB] WRITE strb=4'b0110 data=0xDEADBEEF resp=0
UVM_INFO axi_input_monitor.sv(78) @ 4475: uvm_test_top.env.agt.mon [AXI_MONITOR] [WRITE COMPLETE] addr=0x0000001c data=0x77095f34 strb=0xf resp=0
UVM_INFO axi_scoreboard.sv(85) @ 4475: uvm_test_top.env.scb [AXI_SCOREBOARD] [WRITE RESP PASS] addr=0x0000001c resp=2'b00
UVM_INFO axi_sanity_test.sv(23) @ 4485: uvm_test_top.env.agt.wr_sqr@@sanity_wr_seq [AXI_SANITY_WR] WRITE addr=0x0000001c data=0x77095f34 resp=0
UVM_INFO axi_input_monitor.sv(78) @ 4525: uvm_test_top.env.agt.mon [AXI_MONITOR] [WRITE COMPLETE] addr=0x00000008 data=0xabe4c837 strb=0xf resp=0
UVM_INFO axi_scoreboard.sv(85) @ 4525: uvm_test_top.env.scb [AXI_SCOREBOARD] [WRITE RESP PASS] addr=0x00000008 resp=2'b00
UVM_INFO axi_b2b_write.sv(22) @ 4535: uvm_test_top.env.agt.wr_sqr@@b2b_seq [AXI_B2B_WRITE] B2B WRITE addr=0x00000008 data=0xabe4c837 resp=0
UVM_INFO axi_input_monitor.sv(78) @ 4575: uvm_test_top.env.agt.mon [AXI_MONITOR] [WRITE COMPLETE] addr=0x0000001c data=0x5097f92f strb=0xf resp=0
UVM_INFO axi_scoreboard.sv(85) @ 4575: uvm_test_top.env.scb [AXI_SCOREBOARD] [WRITE RESP PASS] addr=0x0000001c resp=2'b00
UVM_INFO axi_wstrb_seq.sv(55) @ 4585: uvm_test_top.env.agt.wr_sqr@@strb_seq [AXI_WSTRB] READ  strb=4'b0110 data=0x00000000
UVM_INFO axi_input_monitor.sv(78) @ 4625: uvm_test_top.env.agt.mon [AXI_MONITOR] [WRITE COMPLETE] addr=0x00000014 data=0xcdf375da strb=0xf resp=0
UVM_INFO axi_scoreboard.sv(85) @ 4625: uvm_test_top.env.scb [AXI_SCOREBOARD] [WRITE RESP PASS] addr=0x00000014 resp=2'b00
UVM_INFO axi_sanity_test.sv(23) @ 4635: uvm_test_top.env.agt.wr_sqr@@sanity_wr_seq [AXI_SANITY_WR] WRITE addr=0x00000014 data=0xcdf375da resp=0
UVM_INFO axi_input_monitor.sv(78) @ 4675: uvm_test_top.env.agt.mon [AXI_MONITOR] [WRITE COMPLETE] addr=0x0000000c data=0xa7d9cdae strb=0xf resp=0
UVM_INFO axi_scoreboard.sv(85) @ 4675: uvm_test_top.env.scb [AXI_SCOREBOARD] [WRITE RESP PASS] addr=0x0000000c resp=2'b00
UVM_INFO axi_b2b_write.sv(22) @ 4685: uvm_test_top.env.agt.wr_sqr@@b2b_seq [AXI_B2B_WRITE] B2B WRITE addr=0x0000000c data=0xa7d9cdae resp=0
UVM_INFO axi_input_monitor.sv(78) @ 4725: uvm_test_top.env.agt.mon [AXI_MONITOR] [WRITE COMPLETE] addr=0x00000000 data=0x00000000 strb=0xf resp=0
UVM_INFO axi_scoreboard.sv(85) @ 4725: uvm_test_top.env.scb [AXI_SCOREBOARD] [WRITE RESP PASS] addr=0x00000000 resp=2'b00
UVM_INFO axi_input_monitor.sv(78) @ 4775: uvm_test_top.env.agt.mon [AXI_MONITOR] [WRITE COMPLETE] addr=0x00000024 data=0x55379303 strb=0xf resp=0
UVM_INFO axi_scoreboard.sv(85) @ 4775: uvm_test_top.env.scb [AXI_SCOREBOARD] [WRITE RESP PASS] addr=0x00000024 resp=2'b00
UVM_INFO axi_sanity_test.sv(23) @ 4785: uvm_test_top.env.agt.wr_sqr@@sanity_wr_seq [AXI_SANITY_WR] WRITE addr=0x00000024 data=0x55379303 resp=0
UVM_INFO axi_input_monitor.sv(78) @ 4825: uvm_test_top.env.agt.mon [AXI_MONITOR] [WRITE COMPLETE] addr=0x0000001c data=0xe1a5c328 strb=0xf resp=0
UVM_INFO axi_scoreboard.sv(85) @ 4825: uvm_test_top.env.scb [AXI_SCOREBOARD] [WRITE RESP PASS] addr=0x0000001c resp=2'b00
UVM_INFO axi_b2b_write.sv(22) @ 4835: uvm_test_top.env.agt.wr_sqr@@b2b_seq [AXI_B2B_WRITE] B2B WRITE addr=0x0000001c data=0xe1a5c328 resp=0
UVM_INFO axi_input_monitor.sv(78) @ 4875: uvm_test_top.env.agt.mon [AXI_MONITOR] [WRITE COMPLETE] addr=0x00000000 data=0xdeadbeef strb=0x7 resp=0
UVM_INFO axi_scoreboard.sv(85) @ 4875: uvm_test_top.env.scb [AXI_SCOREBOARD] [WRITE RESP PASS] addr=0x00000000 resp=2'b00
UVM_INFO axi_wstrb_seq.sv(44) @ 4885: uvm_test_top.env.agt.wr_sqr@@strb_seq [AXI_WSTRB] WRITE strb=4'b0111 data=0xDEADBEEF resp=0
UVM_INFO axi_input_monitor.sv(78) @ 4925: uvm_test_top.env.agt.mon [AXI_MONITOR] [WRITE COMPLETE] addr=0x00000014 data=0x547bfdaf strb=0xf resp=0
UVM_INFO axi_scoreboard.sv(85) @ 4925: uvm_test_top.env.scb [AXI_SCOREBOARD] [WRITE RESP PASS] addr=0x00000014 resp=2'b00
UVM_INFO axi_sanity_test.sv(23) @ 4935: uvm_test_top.env.agt.wr_sqr@@sanity_wr_seq [AXI_SANITY_WR] WRITE addr=0x00000014 data=0x547bfdaf resp=0
UVM_INFO axi_input_monitor.sv(78) @ 4975: uvm_test_top.env.agt.mon [AXI_MONITOR] [WRITE COMPLETE] addr=0x00000020 data=0xdb3e03e0 strb=0xf resp=0
UVM_INFO axi_scoreboard.sv(85) @ 4975: uvm_test_top.env.scb [AXI_SCOREBOARD] [WRITE RESP PASS] addr=0x00000020 resp=2'b00
UVM_INFO axi_b2b_write.sv(22) @ 4985: uvm_test_top.env.agt.wr_sqr@@b2b_seq [AXI_B2B_WRITE] B2B WRITE addr=0x00000020 data=0xdb3e03e0 resp=0
UVM_INFO axi_input_monitor.sv(78) @ 5025: uvm_test_top.env.agt.mon [AXI_MONITOR] [WRITE COMPLETE] addr=0x00000018 data=0x6cbef262 strb=0xf resp=0
UVM_INFO axi_scoreboard.sv(85) @ 5025: uvm_test_top.env.scb [AXI_SCOREBOARD] [WRITE RESP PASS] addr=0x00000018 resp=2'b00
UVM_INFO axi_wstrb_seq.sv(55) @ 5035: uvm_test_top.env.agt.wr_sqr@@strb_seq [AXI_WSTRB] READ  strb=4'b0111 data=0x00000000
UVM_INFO axi_input_monitor.sv(78) @ 5075: uvm_test_top.env.agt.mon [AXI_MONITOR] [WRITE COMPLETE] addr=0x0000000c data=0xc10e793a strb=0xf resp=0
UVM_INFO axi_scoreboard.sv(85) @ 5075: uvm_test_top.env.scb [AXI_SCOREBOARD] [WRITE RESP PASS] addr=0x0000000c resp=2'b00
UVM_INFO axi_sanity_test.sv(23) @ 5085: uvm_test_top.env.agt.wr_sqr@@sanity_wr_seq [AXI_SANITY_WR] WRITE addr=0x0000000c data=0xc10e793a resp=0
UVM_INFO axi_input_monitor.sv(78) @ 5125: uvm_test_top.env.agt.mon [AXI_MONITOR] [WRITE COMPLETE] addr=0x00000024 data=0x9b64c8c8 strb=0xf resp=0
UVM_INFO axi_scoreboard.sv(85) @ 5125: uvm_test_top.env.scb [AXI_SCOREBOARD] [WRITE RESP PASS] addr=0x00000024 resp=2'b00
UVM_INFO axi_b2b_write.sv(22) @ 5135: uvm_test_top.env.agt.wr_sqr@@b2b_seq [AXI_B2B_WRITE] B2B WRITE addr=0x00000024 data=0x9b64c8c8 resp=0
UVM_INFO axi_input_monitor.sv(78) @ 5175: uvm_test_top.env.agt.mon [AXI_MONITOR] [WRITE COMPLETE] addr=0x00000000 data=0x00000000 strb=0xf resp=0
UVM_INFO axi_scoreboard.sv(85) @ 5175: uvm_test_top.env.scb [AXI_SCOREBOARD] [WRITE RESP PASS] addr=0x00000000 resp=2'b00
UVM_INFO axi_input_monitor.sv(78) @ 5225: uvm_test_top.env.agt.mon [AXI_MONITOR] [WRITE COMPLETE] addr=0x00000000 data=0xbed7a5ca strb=0xf resp=0
UVM_INFO axi_scoreboard.sv(85) @ 5225: uvm_test_top.env.scb [AXI_SCOREBOARD] [WRITE RESP PASS] addr=0x00000000 resp=2'b00
UVM_INFO axi_sanity_test.sv(23) @ 5235: uvm_test_top.env.agt.wr_sqr@@sanity_wr_seq [AXI_SANITY_WR] WRITE addr=0x00000000 data=0xbed7a5ca resp=0
UVM_INFO axi_input_monitor.sv(78) @ 5275: uvm_test_top.env.agt.mon [AXI_MONITOR] [WRITE COMPLETE] addr=0x00000014 data=0x4c3a7dfc strb=0xf resp=0
UVM_INFO axi_scoreboard.sv(85) @ 5275: uvm_test_top.env.scb [AXI_SCOREBOARD] [WRITE RESP PASS] addr=0x00000014 resp=2'b00
UVM_INFO axi_b2b_write.sv(22) @ 5285: uvm_test_top.env.agt.wr_sqr@@b2b_seq [AXI_B2B_WRITE] B2B WRITE addr=0x00000014 data=0x4c3a7dfc resp=0
UVM_INFO axi_input_monitor.sv(78) @ 5325: uvm_test_top.env.agt.mon [AXI_MONITOR] [WRITE COMPLETE] addr=0x00000000 data=0xdeadbeef strb=0x8 resp=0
UVM_INFO axi_scoreboard.sv(85) @ 5325: uvm_test_top.env.scb [AXI_SCOREBOARD] [WRITE RESP PASS] addr=0x00000000 resp=2'b00
UVM_INFO axi_wstrb_seq.sv(44) @ 5335: uvm_test_top.env.agt.wr_sqr@@strb_seq [AXI_WSTRB] WRITE strb=4'b1000 data=0xDEADBEEF resp=0
UVM_INFO axi_input_monitor.sv(78) @ 5375: uvm_test_top.env.agt.mon [AXI_MONITOR] [WRITE COMPLETE] addr=0x00000000 data=0x4e78e864 strb=0xf resp=0
UVM_INFO axi_scoreboard.sv(85) @ 5375: uvm_test_top.env.scb [AXI_SCOREBOARD] [WRITE RESP PASS] addr=0x00000000 resp=2'b00
UVM_INFO axi_sanity_test.sv(23) @ 5385: uvm_test_top.env.agt.wr_sqr@@sanity_wr_seq [AXI_SANITY_WR] WRITE addr=0x00000000 data=0x4e78e864 resp=0
UVM_INFO axi_input_monitor.sv(78) @ 5425: uvm_test_top.env.agt.mon [AXI_MONITOR] [WRITE COMPLETE] addr=0x0000003c data=0xf8eba987 strb=0xf resp=0
UVM_INFO axi_scoreboard.sv(85) @ 5425: uvm_test_top.env.scb [AXI_SCOREBOARD] [WRITE RESP PASS] addr=0x0000003c resp=2'b00
UVM_INFO axi_b2b_write.sv(22) @ 5435: uvm_test_top.env.agt.wr_sqr@@b2b_seq [AXI_B2B_WRITE] B2B WRITE addr=0x0000003c data=0xf8eba987 resp=0
UVM_INFO axi_input_monitor.sv(78) @ 5475: uvm_test_top.env.agt.mon [AXI_MONITOR] [WRITE COMPLETE] addr=0x00000020 data=0x70865dcb strb=0xf resp=0
UVM_INFO axi_scoreboard.sv(85) @ 5475: uvm_test_top.env.scb [AXI_SCOREBOARD] [WRITE RESP PASS] addr=0x00000020 resp=2'b00
UVM_INFO axi_wstrb_seq.sv(55) @ 5485: uvm_test_top.env.agt.wr_sqr@@strb_seq [AXI_WSTRB] READ  strb=4'b1000 data=0x00000000
UVM_INFO axi_input_monitor.sv(78) @ 5525: uvm_test_top.env.agt.mon [AXI_MONITOR] [WRITE COMPLETE] addr=0x0000000c data=0x804935bf strb=0xf resp=0
UVM_INFO axi_scoreboard.sv(85) @ 5525: uvm_test_top.env.scb [AXI_SCOREBOARD] [WRITE RESP PASS] addr=0x0000000c resp=2'b00
UVM_INFO axi_sanity_test.sv(23) @ 5535: uvm_test_top.env.agt.wr_sqr@@sanity_wr_seq [AXI_SANITY_WR] WRITE addr=0x0000000c data=0x804935bf resp=0
UVM_INFO axi_input_monitor.sv(78) @ 5575: uvm_test_top.env.agt.mon [AXI_MONITOR] [WRITE COMPLETE] addr=0x00000004 data=0x8c2d7dce strb=0xf resp=0
UVM_INFO axi_scoreboard.sv(85) @ 5575: uvm_test_top.env.scb [AXI_SCOREBOARD] [WRITE RESP PASS] addr=0x00000004 resp=2'b00
UVM_INFO axi_b2b_write.sv(22) @ 5585: uvm_test_top.env.agt.wr_sqr@@b2b_seq [AXI_B2B_WRITE] B2B WRITE addr=0x00000004 data=0x8c2d7dce resp=0
UVM_INFO axi_input_monitor.sv(78) @ 5625: uvm_test_top.env.agt.mon [AXI_MONITOR] [WRITE COMPLETE] addr=0x00000000 data=0x00000000 strb=0xf resp=0
UVM_INFO axi_scoreboard.sv(85) @ 5625: uvm_test_top.env.scb [AXI_SCOREBOARD] [WRITE RESP PASS] addr=0x00000000 resp=2'b00
UVM_INFO axi_input_monitor.sv(78) @ 5675: uvm_test_top.env.agt.mon [AXI_MONITOR] [WRITE COMPLETE] addr=0x00000014 data=0x5ff2ae23 strb=0xf resp=0
UVM_INFO axi_scoreboard.sv(85) @ 5675: uvm_test_top.env.scb [AXI_SCOREBOARD] [WRITE RESP PASS] addr=0x00000014 resp=2'b00
UVM_INFO axi_sanity_test.sv(23) @ 5685: uvm_test_top.env.agt.wr_sqr@@sanity_wr_seq [AXI_SANITY_WR] WRITE addr=0x00000014 data=0x5ff2ae23 resp=0
UVM_INFO axi_input_monitor.sv(78) @ 5725: uvm_test_top.env.agt.mon [AXI_MONITOR] [WRITE COMPLETE] addr=0x00000014 data=0x80d6a3e9 strb=0xf resp=0
UVM_INFO axi_scoreboard.sv(85) @ 5725: uvm_test_top.env.scb [AXI_SCOREBOARD] [WRITE RESP PASS] addr=0x00000014 resp=2'b00
UVM_INFO axi_b2b_write.sv(22) @ 5735: uvm_test_top.env.agt.wr_sqr@@b2b_seq [AXI_B2B_WRITE] B2B WRITE addr=0x00000014 data=0x80d6a3e9 resp=0
UVM_INFO axi_input_monitor.sv(78) @ 5775: uvm_test_top.env.agt.mon [AXI_MONITOR] [WRITE COMPLETE] addr=0x00000000 data=0xdeadbeef strb=0x9 resp=0
UVM_INFO axi_scoreboard.sv(85) @ 5775: uvm_test_top.env.scb [AXI_SCOREBOARD] [WRITE RESP PASS] addr=0x00000000 resp=2'b00
UVM_INFO axi_wstrb_seq.sv(44) @ 5785: uvm_test_top.env.agt.wr_sqr@@strb_seq [AXI_WSTRB] WRITE strb=4'b1001 data=0xDEADBEEF resp=0
UVM_INFO axi_input_monitor.sv(78) @ 5825: uvm_test_top.env.agt.mon [AXI_MONITOR] [WRITE COMPLETE] addr=0x00000020 data=0x64a57a86 strb=0xf resp=0
UVM_INFO axi_scoreboard.sv(85) @ 5825: uvm_test_top.env.scb [AXI_SCOREBOARD] [WRITE RESP PASS] addr=0x00000020 resp=2'b00
UVM_INFO axi_sanity_test.sv(23) @ 5835: uvm_test_top.env.agt.wr_sqr@@sanity_wr_seq [AXI_SANITY_WR] WRITE addr=0x00000020 data=0x64a57a86 resp=0
UVM_INFO axi_sanity_test.sv(27) @ 5835: uvm_test_top.env.agt.wr_sqr@@sanity_wr_seq [AXI_SANITY_WR] Sanity Write Sequence Complete
UVM_INFO axi_input_monitor.sv(78) @ 5875: uvm_test_top.env.agt.mon [AXI_MONITOR] [WRITE COMPLETE] addr=0x00000000 data=0xc82d3e3f strb=0xf resp=0
UVM_INFO axi_scoreboard.sv(85) @ 5875: uvm_test_top.env.scb [AXI_SCOREBOARD] [WRITE RESP PASS] addr=0x00000000 resp=2'b00
UVM_INFO axi_b2b_write.sv(22) @ 5885: uvm_test_top.env.agt.wr_sqr@@b2b_seq [AXI_B2B_WRITE] B2B WRITE addr=0x00000000 data=0xc82d3e3f resp=0
UVM_INFO axi_b2b_write.sv(26) @ 5885: uvm_test_top.env.agt.wr_sqr@@b2b_seq [AXI_B2B_WRITE] Back-to-Back Write Sequence Complete
UVM_INFO axi_input_monitor.sv(78) @ 5925: uvm_test_top.env.agt.mon [AXI_MONITOR] [WRITE COMPLETE] addr=0x00000008 data=0x66ee8866 strb=0xf resp=0
UVM_INFO axi_scoreboard.sv(85) @ 5925: uvm_test_top.env.scb [AXI_SCOREBOARD] [WRITE RESP PASS] addr=0x00000008 resp=2'b00
UVM_INFO axi_wstrb_seq.sv(55) @ 5935: uvm_test_top.env.agt.wr_sqr@@strb_seq [AXI_WSTRB] READ  strb=4'b1001 data=0x00000000
UVM_INFO axi_input_monitor.sv(78) @ 5975: uvm_test_top.env.agt.mon [AXI_MONITOR] [WRITE COMPLETE] addr=0x00000000 data=0x00000000 strb=0xf resp=0
UVM_INFO axi_scoreboard.sv(85) @ 5975: uvm_test_top.env.scb [AXI_SCOREBOARD] [WRITE RESP PASS] addr=0x00000000 resp=2'b00
UVM_INFO axi_input_monitor.sv(78) @ 6025: uvm_test_top.env.agt.mon [AXI_MONITOR] [WRITE COMPLETE] addr=0x00000000 data=0xdeadbeef strb=0xa resp=0
UVM_INFO axi_scoreboard.sv(85) @ 6025: uvm_test_top.env.scb [AXI_SCOREBOARD] [WRITE RESP PASS] addr=0x00000000 resp=2'b00
UVM_INFO axi_wstrb_seq.sv(44) @ 6035: uvm_test_top.env.agt.wr_sqr@@strb_seq [AXI_WSTRB] WRITE strb=4'b1010 data=0xDEADBEEF resp=0
UVM_INFO axi_input_monitor.sv(78) @ 6075: uvm_test_top.env.agt.mon [AXI_MONITOR] [WRITE COMPLETE] addr=0x00000010 data=0xb679b6ff strb=0xf resp=0
UVM_INFO axi_scoreboard.sv(85) @ 6075: uvm_test_top.env.scb [AXI_SCOREBOARD] [WRITE RESP PASS] addr=0x00000010 resp=2'b00
UVM_INFO axi_wstrb_seq.sv(55) @ 6085: uvm_test_top.env.agt.wr_sqr@@strb_seq [AXI_WSTRB] READ  strb=4'b1010 data=0x00000000
UVM_INFO axi_input_monitor.sv(78) @ 6125: uvm_test_top.env.agt.mon [AXI_MONITOR] [WRITE COMPLETE] addr=0x00000000 data=0x00000000 strb=0xf resp=0
UVM_INFO axi_scoreboard.sv(85) @ 6125: uvm_test_top.env.scb [AXI_SCOREBOARD] [WRITE RESP PASS] addr=0x00000000 resp=2'b00
UVM_INFO axi_input_monitor.sv(78) @ 6175: uvm_test_top.env.agt.mon [AXI_MONITOR] [WRITE COMPLETE] addr=0x00000000 data=0xdeadbeef strb=0xb resp=0
UVM_INFO axi_scoreboard.sv(85) @ 6175: uvm_test_top.env.scb [AXI_SCOREBOARD] [WRITE RESP PASS] addr=0x00000000 resp=2'b00
UVM_INFO axi_wstrb_seq.sv(44) @ 6185: uvm_test_top.env.agt.wr_sqr@@strb_seq [AXI_WSTRB] WRITE strb=4'b1011 data=0xDEADBEEF resp=0
UVM_INFO axi_input_monitor.sv(78) @ 6225: uvm_test_top.env.agt.mon [AXI_MONITOR] [WRITE COMPLETE] addr=0x0000003c data=0x3f31fd32 strb=0xf resp=0
UVM_INFO axi_scoreboard.sv(85) @ 6225: uvm_test_top.env.scb [AXI_SCOREBOARD] [WRITE RESP PASS] addr=0x0000003c resp=2'b00
UVM_INFO axi_wstrb_seq.sv(55) @ 6235: uvm_test_top.env.agt.wr_sqr@@strb_seq [AXI_WSTRB] READ  strb=4'b1011 data=0x00000000
UVM_INFO axi_input_monitor.sv(78) @ 6275: uvm_test_top.env.agt.mon [AXI_MONITOR] [WRITE COMPLETE] addr=0x00000000 data=0x00000000 strb=0xf resp=0
UVM_INFO axi_scoreboard.sv(85) @ 6275: uvm_test_top.env.scb [AXI_SCOREBOARD] [WRITE RESP PASS] addr=0x00000000 resp=2'b00
UVM_INFO axi_input_monitor.sv(78) @ 6325: uvm_test_top.env.agt.mon [AXI_MONITOR] [WRITE COMPLETE] addr=0x00000000 data=0xdeadbeef strb=0xc resp=0
UVM_INFO axi_scoreboard.sv(85) @ 6325: uvm_test_top.env.scb [AXI_SCOREBOARD] [WRITE RESP PASS] addr=0x00000000 resp=2'b00
UVM_INFO axi_wstrb_seq.sv(44) @ 6335: uvm_test_top.env.agt.wr_sqr@@strb_seq [AXI_WSTRB] WRITE strb=4'b1100 data=0xDEADBEEF resp=0
UVM_INFO axi_input_monitor.sv(78) @ 6375: uvm_test_top.env.agt.mon [AXI_MONITOR] [WRITE COMPLETE] addr=0x00000004 data=0x2a16df9b strb=0xf resp=0
UVM_INFO axi_scoreboard.sv(85) @ 6375: uvm_test_top.env.scb [AXI_SCOREBOARD] [WRITE RESP PASS] addr=0x00000004 resp=2'b00
UVM_INFO axi_wstrb_seq.sv(55) @ 6385: uvm_test_top.env.agt.wr_sqr@@strb_seq [AXI_WSTRB] READ  strb=4'b1100 data=0x00000000
UVM_INFO axi_input_monitor.sv(78) @ 6425: uvm_test_top.env.agt.mon [AXI_MONITOR] [WRITE COMPLETE] addr=0x00000000 data=0x00000000 strb=0xf resp=0
UVM_INFO axi_scoreboard.sv(85) @ 6425: uvm_test_top.env.scb [AXI_SCOREBOARD] [WRITE RESP PASS] addr=0x00000000 resp=2'b00
UVM_INFO axi_input_monitor.sv(78) @ 6475: uvm_test_top.env.agt.mon [AXI_MONITOR] [WRITE COMPLETE] addr=0x00000000 data=0xdeadbeef strb=0xd resp=0
UVM_INFO axi_scoreboard.sv(85) @ 6475: uvm_test_top.env.scb [AXI_SCOREBOARD] [WRITE RESP PASS] addr=0x00000000 resp=2'b00
UVM_INFO axi_wstrb_seq.sv(44) @ 6485: uvm_test_top.env.agt.wr_sqr@@strb_seq [AXI_WSTRB] WRITE strb=4'b1101 data=0xDEADBEEF resp=0
UVM_INFO axi_input_monitor.sv(78) @ 6525: uvm_test_top.env.agt.mon [AXI_MONITOR] [WRITE COMPLETE] addr=0x0000001c data=0xa6a648ac strb=0xf resp=0
UVM_INFO axi_scoreboard.sv(85) @ 6525: uvm_test_top.env.scb [AXI_SCOREBOARD] [WRITE RESP PASS] addr=0x0000001c resp=2'b00
UVM_INFO axi_wstrb_seq.sv(55) @ 6535: uvm_test_top.env.agt.wr_sqr@@strb_seq [AXI_WSTRB] READ  strb=4'b1101 data=0x00000000
UVM_INFO axi_input_monitor.sv(78) @ 6575: uvm_test_top.env.agt.mon [AXI_MONITOR] [WRITE COMPLETE] addr=0x00000000 data=0x00000000 strb=0xf resp=0
UVM_INFO axi_scoreboard.sv(85) @ 6575: uvm_test_top.env.scb [AXI_SCOREBOARD] [WRITE RESP PASS] addr=0x00000000 resp=2'b00
UVM_INFO axi_input_monitor.sv(78) @ 6625: uvm_test_top.env.agt.mon [AXI_MONITOR] [WRITE COMPLETE] addr=0x00000000 data=0xdeadbeef strb=0xe resp=0
UVM_INFO axi_scoreboard.sv(85) @ 6625: uvm_test_top.env.scb [AXI_SCOREBOARD] [WRITE RESP PASS] addr=0x00000000 resp=2'b00
UVM_INFO axi_wstrb_seq.sv(44) @ 6635: uvm_test_top.env.agt.wr_sqr@@strb_seq [AXI_WSTRB] WRITE strb=4'b1110 data=0xDEADBEEF resp=0
UVM_INFO axi_input_monitor.sv(78) @ 6675: uvm_test_top.env.agt.mon [AXI_MONITOR] [WRITE COMPLETE] addr=0x00000000 data=0x6947b6c6 strb=0xf resp=0
UVM_INFO axi_scoreboard.sv(85) @ 6675: uvm_test_top.env.scb [AXI_SCOREBOARD] [WRITE RESP PASS] addr=0x00000000 resp=2'b00
UVM_INFO axi_wstrb_seq.sv(55) @ 6685: uvm_test_top.env.agt.wr_sqr@@strb_seq [AXI_WSTRB] READ  strb=4'b1110 data=0x00000000
UVM_INFO axi_input_monitor.sv(78) @ 6725: uvm_test_top.env.agt.mon [AXI_MONITOR] [WRITE COMPLETE] addr=0x00000000 data=0x00000000 strb=0xf resp=0
UVM_INFO axi_scoreboard.sv(85) @ 6725: uvm_test_top.env.scb [AXI_SCOREBOARD] [WRITE RESP PASS] addr=0x00000000 resp=2'b00
UVM_INFO axi_input_monitor.sv(78) @ 6775: uvm_test_top.env.agt.mon [AXI_MONITOR] [WRITE COMPLETE] addr=0x00000000 data=0xdeadbeef strb=0xf resp=0
UVM_INFO axi_scoreboard.sv(85) @ 6775: uvm_test_top.env.scb [AXI_SCOREBOARD] [WRITE RESP PASS] addr=0x00000000 resp=2'b00
UVM_INFO axi_wstrb_seq.sv(44) @ 6785: uvm_test_top.env.agt.wr_sqr@@strb_seq [AXI_WSTRB] WRITE strb=4'b1111 data=0xDEADBEEF resp=0
UVM_INFO axi_input_monitor.sv(78) @ 6825: uvm_test_top.env.agt.mon [AXI_MONITOR] [WRITE COMPLETE] addr=0x00000024 data=0xb0e2972c strb=0xf resp=0
UVM_INFO axi_scoreboard.sv(85) @ 6825: uvm_test_top.env.scb [AXI_SCOREBOARD] [WRITE RESP PASS] addr=0x00000024 resp=2'b00
UVM_INFO axi_wstrb_seq.sv(55) @ 6835: uvm_test_top.env.agt.wr_sqr@@strb_seq [AXI_WSTRB] READ  strb=4'b1111 data=0x00000000
UVM_INFO axi_wstrb_seq.sv(58) @ 6835: uvm_test_top.env.agt.wr_sqr@@strb_seq [AXI_WSTRB] WSTRB Test Sequence Complete
UVM_INFO /fetools/synopsys/installed_tools/vcs/vcs/Q-2020.03-SP2-8/etc/uvm/base/uvm_objection.svh(1274) @ 6835: reporter [TEST_DONE] 'run' phase is ready to proceed to the 'extract' phase
UVM_INFO axi_subscriber.sv(117) @ 6835: uvm_test_top.env.cov [AXI_COVERAGE] 
============ COVERAGE SUMMARY ============
  Write Coverage : 70.67%
  Read  Coverage : 77.92%
=============================================
UVM_INFO axi_scoreboard.sv(145) @ 6835: uvm_test_top.env.scb [AXI_SCOREBOARD] 
============ SCOREBOARD SUMMARY ============
  Total Writes  : 135
  Total Reads   : 58
  Total Pass    : 192
  Total Fail    : 1
=============================================
UVM_ERROR axi_scoreboard.sv(149) @ 6835: uvm_test_top.env.scb [AXI_SCOREBOARD] TEST FAILED with 1 mismatches!
UVM_INFO axi_test.sv(34) @ 6835: uvm_test_top [AXI_TEST] 
*** TEST FAILED ***

--- UVM Report Summary ---

** Report counts by severity
UVM_INFO :  581
UVM_WARNING :    0
UVM_ERROR :    2
UVM_FATAL :    0
** Report counts by id
[AXI_B2B_WRITE]    32
[AXI_COVERAGE]     1
[AXI_DEC_ERR]    24
[AXI_MONITOR]   193
[AXI_NEGATIVE]     2
[AXI_Negative_WR]     8
[AXI_SANITY_RD]    32
[AXI_SANITY_WR]    32
[AXI_SCOREBOARD]   195
[AXI_SLV_ERR]    24
[AXI_TEST]     1
[AXI_WSTRB]    34
[RNTST]     1
[TESTBENCH]     2
[TEST_DONE]     1
[UVMTOP]     1
$finish called from file "/fetools/synopsys/installed_tools/vcs/vcs/Q-2020.03-SP2-8/etc/uvm/base/uvm_root.svh", line 437.
$finish at simulation time                 6835

---------------------------------------------------------------------------
VCS Coverage Metrics: during simulation line, cond, FSM, branch, tgl was monitored
---------------------------------------------------------------------------
           V C S   S i m u l a t i o n   R e p o r t 
Time: 6835
CPU Time:      0.820 seconds;       Data structure size:   0.6Mb
Fri Sep 18 00:14:52 2026
