Command: /fetools/work_area/frontend/Batch_11/Kittu_Patel/UVM/Project/AXI/./simv +UVM_TESTNAME=axi_b2b_write_test +ntb_random_seed=2 +UVM_VERBOSITY=UVM_MEDIUM -cm line+cond+fsm+tgl+branch -cm_name axi_b2b_write_test_seed_2 -cm_dir simv.vdb -l regression_logs/axi_b2b_write_test_seed_2.log
Chronologic VCS simulator copyright 1991-2020
Contains Synopsys proprietary information.
Compiler version Q-2020.03-SP2-8_Full64; Runtime version Q-2020.03-SP2-8_Full64;  Sep 18 01:24 2026
----------------------------------------------------------------
UVM-1.1d.Synopsys
(C) 2007-2013 Mentor Graphics Corporation
(C) 2007-2013 Cadence Design Systems, Inc.
(C) 2006-2013 Synopsys, Inc.
(C) 2011-2013 Cypress Semiconductor Corp.
----------------------------------------------------------------

  ***********       IMPORTANT RELEASE NOTES         ************

  You are using a version of the UVM library that has been compiled
  with `UVM_NO_DEPRECATED undefined.
  See http://www.eda.org/svdb/view.php?id=3313 for more details.

  You are using a version of the UVM library that has been compiled
  with `UVM_OBJECT_MUST_HAVE_CONSTRUCTOR undefined.
  See http://www.eda.org/svdb/view.php?id=3770 for more details.

      (Specify +UVM_NO_RELNOTES to turn off this notice)

UVM_INFO @ 0: reporter [RNTST] Running test axi_b2b_write_test...
UVM_INFO @ 0: reporter [UVMTOP] UVM testbench topology:
------------------------------------------------------------------
Name                       Type                        Size  Value
------------------------------------------------------------------
uvm_test_top               axi_b2b_write_test          -     @461 
  env                      axi_env                     -     @469 
    agt                    axi_act_agent               -     @477 
      drv                  axi_override_driver         -     @751 
        rd_item_port       uvm_seq_item_pull_port      -     @777 
        rsp_port           uvm_analysis_port           -     @768 
        seq_item_port      uvm_seq_item_pull_port      -     @759 
      mon                  axi_monitor                 -     @786 
        read_ap            uvm_analysis_port           -     @804 
        write_ap           uvm_analysis_port           -     @795 
      rd_sqr               axi_sequencer               -     @628 
        rsp_export         uvm_analysis_export         -     @636 
        seq_item_export    uvm_seq_item_pull_imp       -     @742 
        arbitration_queue  array                       0     -    
        lock_queue         array                       0     -    
        num_last_reqs      integral                    32    'd1  
        num_last_rsps      integral                    32    'd1  
      wr_sqr               axi_sequencer               -     @505 
        rsp_export         uvm_analysis_export         -     @513 
        seq_item_export    uvm_seq_item_pull_imp       -     @619 
        arbitration_queue  array                       0     -    
        lock_queue         array                       0     -    
        num_last_reqs      integral                    32    'd1  
        num_last_rsps      integral                    32    'd1  
    cov                    axi_sub                     -     @493 
      read_export          uvm_analysis_imp_cov_read   -     @833 
      write_export         uvm_analysis_imp_cov_write  -     @824 
    scb                    axi_scb                     -     @485 
      read_export          uvm_analysis_imp_read_txn   -     @851 
      write_export         uvm_analysis_imp_write_txn  -     @842 
------------------------------------------------------------------

UVM_INFO axi_b2b_write.sv(13) @ 0: uvm_test_top.env.agt.wr_sqr@@seq [AXI_B2B_WRITE] Starting Back-to-Back Write Sequence
UVM_INFO axi_top.sv(25) @ 15: reporter [TESTBENCH] Reset released
UVM_INFO axi_input_monitor.sv(78) @ 65: uvm_test_top.env.agt.mon [AXI_MONITOR] [WRITE COMPLETE] addr=0x00000014 data=0x3af437d3 strb=0xf resp=0
UVM_INFO axi_scoreboard.sv(85) @ 65: uvm_test_top.env.scb [AXI_SCOREBOARD] [WRITE RESP PASS] addr=0x00000014 resp=2'b00
UVM_INFO axi_b2b_write.sv(22) @ 75: uvm_test_top.env.agt.wr_sqr@@seq [AXI_B2B_WRITE] B2B WRITE addr=0x00000014 data=0x3af437d3 resp=0
UVM_INFO axi_b2b_write.sv(22) @ 125: uvm_test_top.env.agt.wr_sqr@@seq [AXI_B2B_WRITE] B2B WRITE addr=0x0000003c data=0xf715fc1d resp=0
UVM_INFO axi_top.sv(25) @ 135: reporter [TESTBENCH] Reset released
UVM_INFO axi_input_monitor.sv(78) @ 175: uvm_test_top.env.agt.mon [AXI_MONITOR] [WRITE COMPLETE] addr=0x0000001c data=0x4ec14cea strb=0xf resp=0
UVM_INFO axi_scoreboard.sv(85) @ 175: uvm_test_top.env.scb [AXI_SCOREBOARD] [WRITE RESP PASS] addr=0x0000001c resp=2'b00
UVM_INFO axi_b2b_write.sv(22) @ 185: uvm_test_top.env.agt.wr_sqr@@seq [AXI_B2B_WRITE] B2B WRITE addr=0x0000001c data=0x4ec14cea resp=0
UVM_INFO axi_input_monitor.sv(78) @ 225: uvm_test_top.env.agt.mon [AXI_MONITOR] [WRITE COMPLETE] addr=0x00000024 data=0x6b3a3680 strb=0xf resp=0
UVM_INFO axi_scoreboard.sv(85) @ 225: uvm_test_top.env.scb [AXI_SCOREBOARD] [WRITE RESP PASS] addr=0x00000024 resp=2'b00
UVM_INFO axi_b2b_write.sv(22) @ 235: uvm_test_top.env.agt.wr_sqr@@seq [AXI_B2B_WRITE] B2B WRITE addr=0x00000024 data=0x6b3a3680 resp=0
UVM_INFO axi_input_monitor.sv(78) @ 275: uvm_test_top.env.agt.mon [AXI_MONITOR] [WRITE COMPLETE] addr=0x00000024 data=0xadd67cab strb=0xf resp=0
UVM_INFO axi_scoreboard.sv(85) @ 275: uvm_test_top.env.scb [AXI_SCOREBOARD] [WRITE RESP PASS] addr=0x00000024 resp=2'b00
UVM_INFO axi_b2b_write.sv(22) @ 285: uvm_test_top.env.agt.wr_sqr@@seq [AXI_B2B_WRITE] B2B WRITE addr=0x00000024 data=0xadd67cab resp=0
UVM_INFO axi_input_monitor.sv(78) @ 325: uvm_test_top.env.agt.mon [AXI_MONITOR] [WRITE COMPLETE] addr=0x00000010 data=0xa582ca47 strb=0xf resp=0
UVM_INFO axi_scoreboard.sv(85) @ 325: uvm_test_top.env.scb [AXI_SCOREBOARD] [WRITE RESP PASS] addr=0x00000010 resp=2'b00
UVM_INFO axi_b2b_write.sv(22) @ 335: uvm_test_top.env.agt.wr_sqr@@seq [AXI_B2B_WRITE] B2B WRITE addr=0x00000010 data=0xa582ca47 resp=0
UVM_INFO axi_input_monitor.sv(78) @ 375: uvm_test_top.env.agt.mon [AXI_MONITOR] [WRITE COMPLETE] addr=0x00000020 data=0xe86a473c strb=0xf resp=0
UVM_INFO axi_scoreboard.sv(85) @ 375: uvm_test_top.env.scb [AXI_SCOREBOARD] [WRITE RESP PASS] addr=0x00000020 resp=2'b00
UVM_INFO axi_b2b_write.sv(22) @ 385: uvm_test_top.env.agt.wr_sqr@@seq [AXI_B2B_WRITE] B2B WRITE addr=0x00000020 data=0xe86a473c resp=0
UVM_INFO axi_input_monitor.sv(78) @ 425: uvm_test_top.env.agt.mon [AXI_MONITOR] [WRITE COMPLETE] addr=0x0000003c data=0x05495787 strb=0xf resp=0
UVM_INFO axi_scoreboard.sv(85) @ 425: uvm_test_top.env.scb [AXI_SCOREBOARD] [WRITE RESP PASS] addr=0x0000003c resp=2'b00
UVM_INFO axi_b2b_write.sv(22) @ 435: uvm_test_top.env.agt.wr_sqr@@seq [AXI_B2B_WRITE] B2B WRITE addr=0x0000003c data=0x05495787 resp=0
UVM_INFO axi_input_monitor.sv(78) @ 475: uvm_test_top.env.agt.mon [AXI_MONITOR] [WRITE COMPLETE] addr=0x00000024 data=0xc969f249 strb=0xf resp=0
UVM_INFO axi_scoreboard.sv(85) @ 475: uvm_test_top.env.scb [AXI_SCOREBOARD] [WRITE RESP PASS] addr=0x00000024 resp=2'b00
UVM_INFO axi_b2b_write.sv(22) @ 485: uvm_test_top.env.agt.wr_sqr@@seq [AXI_B2B_WRITE] B2B WRITE addr=0x00000024 data=0xc969f249 resp=0
UVM_INFO axi_input_monitor.sv(78) @ 525: uvm_test_top.env.agt.mon [AXI_MONITOR] [WRITE COMPLETE] addr=0x00000020 data=0xf1a66f6b strb=0xf resp=0
UVM_INFO axi_scoreboard.sv(85) @ 525: uvm_test_top.env.scb [AXI_SCOREBOARD] [WRITE RESP PASS] addr=0x00000020 resp=2'b00
UVM_INFO axi_b2b_write.sv(22) @ 535: uvm_test_top.env.agt.wr_sqr@@seq [AXI_B2B_WRITE] B2B WRITE addr=0x00000020 data=0xf1a66f6b resp=0
UVM_INFO axi_input_monitor.sv(78) @ 575: uvm_test_top.env.agt.mon [AXI_MONITOR] [WRITE COMPLETE] addr=0x0000003c data=0x706fbe4f strb=0xf resp=0
UVM_INFO axi_scoreboard.sv(85) @ 575: uvm_test_top.env.scb [AXI_SCOREBOARD] [WRITE RESP PASS] addr=0x0000003c resp=2'b00
UVM_INFO axi_b2b_write.sv(22) @ 585: uvm_test_top.env.agt.wr_sqr@@seq [AXI_B2B_WRITE] B2B WRITE addr=0x0000003c data=0x706fbe4f resp=0
UVM_INFO axi_input_monitor.sv(78) @ 625: uvm_test_top.env.agt.mon [AXI_MONITOR] [WRITE COMPLETE] addr=0x0000001c data=0x2a502190 strb=0xf resp=0
UVM_INFO axi_scoreboard.sv(85) @ 625: uvm_test_top.env.scb [AXI_SCOREBOARD] [WRITE RESP PASS] addr=0x0000001c resp=2'b00
UVM_INFO axi_b2b_write.sv(22) @ 635: uvm_test_top.env.agt.wr_sqr@@seq [AXI_B2B_WRITE] B2B WRITE addr=0x0000001c data=0x2a502190 resp=0
UVM_INFO axi_input_monitor.sv(78) @ 675: uvm_test_top.env.agt.mon [AXI_MONITOR] [WRITE COMPLETE] addr=0x0000000c data=0x2877e9e7 strb=0xf resp=0
UVM_INFO axi_scoreboard.sv(85) @ 675: uvm_test_top.env.scb [AXI_SCOREBOARD] [WRITE RESP PASS] addr=0x0000000c resp=2'b00
UVM_INFO axi_b2b_write.sv(22) @ 685: uvm_test_top.env.agt.wr_sqr@@seq [AXI_B2B_WRITE] B2B WRITE addr=0x0000000c data=0x2877e9e7 resp=0
UVM_INFO axi_input_monitor.sv(78) @ 725: uvm_test_top.env.agt.mon [AXI_MONITOR] [WRITE COMPLETE] addr=0x00000000 data=0x0b6ca030 strb=0xf resp=0
UVM_INFO axi_scoreboard.sv(85) @ 725: uvm_test_top.env.scb [AXI_SCOREBOARD] [WRITE RESP PASS] addr=0x00000000 resp=2'b00
UVM_INFO axi_b2b_write.sv(22) @ 735: uvm_test_top.env.agt.wr_sqr@@seq [AXI_B2B_WRITE] B2B WRITE addr=0x00000000 data=0x0b6ca030 resp=0
UVM_INFO axi_input_monitor.sv(78) @ 775: uvm_test_top.env.agt.mon [AXI_MONITOR] [WRITE COMPLETE] addr=0x00000018 data=0x46f9b5fe strb=0xf resp=0
UVM_INFO axi_scoreboard.sv(85) @ 775: uvm_test_top.env.scb [AXI_SCOREBOARD] [WRITE RESP PASS] addr=0x00000018 resp=2'b00
UVM_INFO axi_b2b_write.sv(22) @ 785: uvm_test_top.env.agt.wr_sqr@@seq [AXI_B2B_WRITE] B2B WRITE addr=0x00000018 data=0x46f9b5fe resp=0
UVM_INFO axi_input_monitor.sv(78) @ 825: uvm_test_top.env.agt.mon [AXI_MONITOR] [WRITE COMPLETE] addr=0x00000014 data=0x3f855824 strb=0xf resp=0
UVM_INFO axi_scoreboard.sv(85) @ 825: uvm_test_top.env.scb [AXI_SCOREBOARD] [WRITE RESP PASS] addr=0x00000014 resp=2'b00
UVM_INFO axi_b2b_write.sv(22) @ 835: uvm_test_top.env.agt.wr_sqr@@seq [AXI_B2B_WRITE] B2B WRITE addr=0x00000014 data=0x3f855824 resp=0
UVM_INFO axi_input_monitor.sv(78) @ 875: uvm_test_top.env.agt.mon [AXI_MONITOR] [WRITE COMPLETE] addr=0x0000001c data=0xded452dd strb=0xf resp=0
UVM_INFO axi_scoreboard.sv(85) @ 875: uvm_test_top.env.scb [AXI_SCOREBOARD] [WRITE RESP PASS] addr=0x0000001c resp=2'b00
UVM_INFO axi_b2b_write.sv(22) @ 885: uvm_test_top.env.agt.wr_sqr@@seq [AXI_B2B_WRITE] B2B WRITE addr=0x0000001c data=0xded452dd resp=0
UVM_INFO axi_input_monitor.sv(78) @ 925: uvm_test_top.env.agt.mon [AXI_MONITOR] [WRITE COMPLETE] addr=0x00000008 data=0xedaddc40 strb=0xf resp=0
UVM_INFO axi_scoreboard.sv(85) @ 925: uvm_test_top.env.scb [AXI_SCOREBOARD] [WRITE RESP PASS] addr=0x00000008 resp=2'b00
UVM_INFO axi_b2b_write.sv(22) @ 935: uvm_test_top.env.agt.wr_sqr@@seq [AXI_B2B_WRITE] B2B WRITE addr=0x00000008 data=0xedaddc40 resp=0
UVM_INFO axi_input_monitor.sv(78) @ 975: uvm_test_top.env.agt.mon [AXI_MONITOR] [WRITE COMPLETE] addr=0x00000020 data=0xcc5661e8 strb=0xf resp=0
UVM_INFO axi_scoreboard.sv(85) @ 975: uvm_test_top.env.scb [AXI_SCOREBOARD] [WRITE RESP PASS] addr=0x00000020 resp=2'b00
UVM_INFO axi_b2b_write.sv(22) @ 985: uvm_test_top.env.agt.wr_sqr@@seq [AXI_B2B_WRITE] B2B WRITE addr=0x00000020 data=0xcc5661e8 resp=0
UVM_INFO axi_input_monitor.sv(78) @ 1025: uvm_test_top.env.agt.mon [AXI_MONITOR] [WRITE COMPLETE] addr=0x0000000c data=0x6fa75998 strb=0xf resp=0
UVM_INFO axi_scoreboard.sv(85) @ 1025: uvm_test_top.env.scb [AXI_SCOREBOARD] [WRITE RESP PASS] addr=0x0000000c resp=2'b00
UVM_INFO axi_b2b_write.sv(22) @ 1035: uvm_test_top.env.agt.wr_sqr@@seq [AXI_B2B_WRITE] B2B WRITE addr=0x0000000c data=0x6fa75998 resp=0
UVM_INFO axi_input_monitor.sv(78) @ 1075: uvm_test_top.env.agt.mon [AXI_MONITOR] [WRITE COMPLETE] addr=0x00000018 data=0xebf4a903 strb=0xf resp=0
UVM_INFO axi_scoreboard.sv(85) @ 1075: uvm_test_top.env.scb [AXI_SCOREBOARD] [WRITE RESP PASS] addr=0x00000018 resp=2'b00
UVM_INFO axi_b2b_write.sv(22) @ 1085: uvm_test_top.env.agt.wr_sqr@@seq [AXI_B2B_WRITE] B2B WRITE addr=0x00000018 data=0xebf4a903 resp=0
UVM_INFO axi_input_monitor.sv(78) @ 1125: uvm_test_top.env.agt.mon [AXI_MONITOR] [WRITE COMPLETE] addr=0x00000004 data=0xefae3c91 strb=0xf resp=0
UVM_INFO axi_scoreboard.sv(85) @ 1125: uvm_test_top.env.scb [AXI_SCOREBOARD] [WRITE RESP PASS] addr=0x00000004 resp=2'b00
UVM_INFO axi_b2b_write.sv(22) @ 1135: uvm_test_top.env.agt.wr_sqr@@seq [AXI_B2B_WRITE] B2B WRITE addr=0x00000004 data=0xefae3c91 resp=0
UVM_INFO axi_input_monitor.sv(78) @ 1175: uvm_test_top.env.agt.mon [AXI_MONITOR] [WRITE COMPLETE] addr=0x00000004 data=0x52e07591 strb=0xf resp=0
UVM_INFO axi_scoreboard.sv(85) @ 1175: uvm_test_top.env.scb [AXI_SCOREBOARD] [WRITE RESP PASS] addr=0x00000004 resp=2'b00
UVM_INFO axi_b2b_write.sv(22) @ 1185: uvm_test_top.env.agt.wr_sqr@@seq [AXI_B2B_WRITE] B2B WRITE addr=0x00000004 data=0x52e07591 resp=0
UVM_INFO axi_input_monitor.sv(78) @ 1225: uvm_test_top.env.agt.mon [AXI_MONITOR] [WRITE COMPLETE] addr=0x0000000c data=0x2324d0c6 strb=0xf resp=0
UVM_INFO axi_scoreboard.sv(85) @ 1225: uvm_test_top.env.scb [AXI_SCOREBOARD] [WRITE RESP PASS] addr=0x0000000c resp=2'b00
UVM_INFO axi_b2b_write.sv(22) @ 1235: uvm_test_top.env.agt.wr_sqr@@seq [AXI_B2B_WRITE] B2B WRITE addr=0x0000000c data=0x2324d0c6 resp=0
UVM_INFO axi_input_monitor.sv(78) @ 1275: uvm_test_top.env.agt.mon [AXI_MONITOR] [WRITE COMPLETE] addr=0x0000001c data=0xa70f3683 strb=0xf resp=0
UVM_INFO axi_scoreboard.sv(85) @ 1275: uvm_test_top.env.scb [AXI_SCOREBOARD] [WRITE RESP PASS] addr=0x0000001c resp=2'b00
UVM_INFO axi_b2b_write.sv(22) @ 1285: uvm_test_top.env.agt.wr_sqr@@seq [AXI_B2B_WRITE] B2B WRITE addr=0x0000001c data=0xa70f3683 resp=0
UVM_INFO axi_input_monitor.sv(78) @ 1325: uvm_test_top.env.agt.mon [AXI_MONITOR] [WRITE COMPLETE] addr=0x00000024 data=0x1e4c907d strb=0xf resp=0
UVM_INFO axi_scoreboard.sv(85) @ 1325: uvm_test_top.env.scb [AXI_SCOREBOARD] [WRITE RESP PASS] addr=0x00000024 resp=2'b00
UVM_INFO axi_b2b_write.sv(22) @ 1335: uvm_test_top.env.agt.wr_sqr@@seq [AXI_B2B_WRITE] B2B WRITE addr=0x00000024 data=0x1e4c907d resp=0
UVM_INFO axi_input_monitor.sv(78) @ 1375: uvm_test_top.env.agt.mon [AXI_MONITOR] [WRITE COMPLETE] addr=0x00000008 data=0x5ee98b4d strb=0xf resp=0
UVM_INFO axi_scoreboard.sv(85) @ 1375: uvm_test_top.env.scb [AXI_SCOREBOARD] [WRITE RESP PASS] addr=0x00000008 resp=2'b00
UVM_INFO axi_b2b_write.sv(22) @ 1385: uvm_test_top.env.agt.wr_sqr@@seq [AXI_B2B_WRITE] B2B WRITE addr=0x00000008 data=0x5ee98b4d resp=0
UVM_INFO axi_input_monitor.sv(78) @ 1425: uvm_test_top.env.agt.mon [AXI_MONITOR] [WRITE COMPLETE] addr=0x00000024 data=0xb63db40e strb=0xf resp=0
UVM_INFO axi_scoreboard.sv(85) @ 1425: uvm_test_top.env.scb [AXI_SCOREBOARD] [WRITE RESP PASS] addr=0x00000024 resp=2'b00
UVM_INFO axi_b2b_write.sv(22) @ 1435: uvm_test_top.env.agt.wr_sqr@@seq [AXI_B2B_WRITE] B2B WRITE addr=0x00000024 data=0xb63db40e resp=0
UVM_INFO axi_input_monitor.sv(78) @ 1475: uvm_test_top.env.agt.mon [AXI_MONITOR] [WRITE COMPLETE] addr=0x00000010 data=0xd182c71b strb=0xf resp=0
UVM_INFO axi_scoreboard.sv(85) @ 1475: uvm_test_top.env.scb [AXI_SCOREBOARD] [WRITE RESP PASS] addr=0x00000010 resp=2'b00
UVM_INFO axi_b2b_write.sv(22) @ 1485: uvm_test_top.env.agt.wr_sqr@@seq [AXI_B2B_WRITE] B2B WRITE addr=0x00000010 data=0xd182c71b resp=0
UVM_INFO axi_input_monitor.sv(78) @ 1525: uvm_test_top.env.agt.mon [AXI_MONITOR] [WRITE COMPLETE] addr=0x0000001c data=0xc32b5e53 strb=0xf resp=0
UVM_INFO axi_scoreboard.sv(85) @ 1525: uvm_test_top.env.scb [AXI_SCOREBOARD] [WRITE RESP PASS] addr=0x0000001c resp=2'b00
UVM_INFO axi_b2b_write.sv(22) @ 1535: uvm_test_top.env.agt.wr_sqr@@seq [AXI_B2B_WRITE] B2B WRITE addr=0x0000001c data=0xc32b5e53 resp=0
UVM_INFO axi_b2b_write.sv(26) @ 1535: uvm_test_top.env.agt.wr_sqr@@seq [AXI_B2B_WRITE] Back-to-Back Write Sequence Complete
UVM_INFO /fetools/synopsys/installed_tools/vcs/vcs/Q-2020.03-SP2-8/etc/uvm/base/uvm_objection.svh(1274) @ 1535: reporter [TEST_DONE] 'run' phase is ready to proceed to the 'extract' phase
UVM_INFO axi_subscriber.sv(117) @ 1535: uvm_test_top.env.cov [AXI_COVERAGE] 
============ COVERAGE SUMMARY ============
  Write Coverage : 26.51%
  Read  Coverage : 0.00%
=============================================
UVM_INFO axi_scoreboard.sv(145) @ 1535: uvm_test_top.env.scb [AXI_SCOREBOARD] 
============ SCOREBOARD SUMMARY ============
  Total Writes  : 29
  Total Reads   : 0
  Total Pass    : 29
  Total Fail    : 0
=============================================
UVM_INFO axi_scoreboard.sv(151) @ 1535: uvm_test_top.env.scb [AXI_SCOREBOARD] ALL CHECKS PASSED
UVM_INFO axi_test.sv(37) @ 1535: uvm_test_top [AXI_TEST] 
*** TEST PASSED ***

--- UVM Report Summary ---

** Report counts by severity
UVM_INFO :   99
UVM_WARNING :    0
UVM_ERROR :    0
UVM_FATAL :    0
** Report counts by id
[AXI_B2B_WRITE]    32
[AXI_COVERAGE]     1
[AXI_MONITOR]    29
[AXI_SCOREBOARD]    31
[AXI_TEST]     1
[RNTST]     1
[TESTBENCH]     2
[TEST_DONE]     1
[UVMTOP]     1
$finish called from file "/fetools/synopsys/installed_tools/vcs/vcs/Q-2020.03-SP2-8/etc/uvm/base/uvm_root.svh", line 437.
$finish at simulation time                 1535

---------------------------------------------------------------------------
VCS Coverage Metrics: during simulation line, cond, FSM, branch, tgl was monitored
---------------------------------------------------------------------------
           V C S   S i m u l a t i o n   R e p o r t 
Time: 1535
CPU Time:      0.690 seconds;       Data structure size:   0.6Mb
Fri Sep 18 01:24:50 2026
