Command: /fetools/work_area/frontend/Batch_11/Kittu_Patel/UVM/Project/AXI/./simv +UVM_TESTNAME=axi_sanity_test +ntb_random_seed=1 -cm line+cond+fsm+tgl+branch -cm_name axi_sanity_test_seed_1 -cm_dir simv.vdb -l regression_logs/axi_sanity_test_seed_1.log
Chronologic VCS simulator copyright 1991-2020
Contains Synopsys proprietary information.
Compiler version Q-2020.03-SP2-8_Full64; Runtime version Q-2020.03-SP2-8_Full64;  Sep 21 15:50 2026
----------------------------------------------------------------
UVM-1.1d.Synopsys
(C) 2007-2013 Mentor Graphics Corporation
(C) 2007-2013 Cadence Design Systems, Inc.
(C) 2006-2013 Synopsys, Inc.
(C) 2011-2013 Cypress Semiconductor Corp.
----------------------------------------------------------------

  ***********       IMPORTANT RELEASE NOTES         ************

  You are using a version of the UVM library that has been compiled
  with `UVM_NO_DEPRECATED undefined.
  See http://www.eda.org/svdb/view.php?id=3313 for more details.

  You are using a version of the UVM library that has been compiled
  with `UVM_OBJECT_MUST_HAVE_CONSTRUCTOR undefined.
  See http://www.eda.org/svdb/view.php?id=3770 for more details.

      (Specify +UVM_NO_RELNOTES to turn off this notice)

UVM_INFO @ 0: reporter [RNTST] Running test axi_sanity_test...
UVM_INFO @ 0: reporter [UVMTOP] UVM testbench topology:
------------------------------------------------------------------
Name                       Type                        Size  Value
------------------------------------------------------------------
uvm_test_top               axi_sanity_test             -     @461 
  env                      axi_env                     -     @469 
    agt                    axi_act_agent               -     @477 
      drv                  axi_override_driver         -     @751 
        rd_item_port       uvm_seq_item_pull_port      -     @777 
        rsp_port           uvm_analysis_port           -     @768 
        seq_item_port      uvm_seq_item_pull_port      -     @759 
      inp_mon              axi_input_monitor           -     @786 
        read_ap            uvm_analysis_port           -     @812 
        write_ap           uvm_analysis_port           -     @803 
      out_mon              axi_out_monitor             -     @794 
        read_ap            uvm_analysis_port           -     @831 
        write_ap           uvm_analysis_port           -     @822 
      rd_sqr               axi_sequencer               -     @628 
        rsp_export         uvm_analysis_export         -     @636 
        seq_item_export    uvm_seq_item_pull_imp       -     @742 
        arbitration_queue  array                       0     -    
        lock_queue         array                       0     -    
        num_last_reqs      integral                    32    'd1  
        num_last_rsps      integral                    32    'd1  
      wr_sqr               axi_sequencer               -     @505 
        rsp_export         uvm_analysis_export         -     @513 
        seq_item_export    uvm_seq_item_pull_imp       -     @619 
        arbitration_queue  array                       0     -    
        lock_queue         array                       0     -    
        num_last_reqs      integral                    32    'd1  
        num_last_rsps      integral                    32    'd1  
    cov                    axi_sub                     -     @493 
      rd_inp_fifo          uvm_tlm_analysis_fifo #(T)  -     @957 
        analysis_export    uvm_analysis_imp            -     @1001
        get_ap             uvm_analysis_port           -     @992 
        get_peek_export    uvm_get_peek_imp            -     @974 
        put_ap             uvm_analysis_port           -     @983 
        put_export         uvm_put_imp                 -     @965 
      rd_out_fifo          uvm_tlm_analysis_fifo #(T)  -     @1010
        analysis_export    uvm_analysis_imp            -     @1054
        get_ap             uvm_analysis_port           -     @1045
        get_peek_export    uvm_get_peek_imp            -     @1027
        put_ap             uvm_analysis_port           -     @1036
        put_export         uvm_put_imp                 -     @1018
      wr_inp_fifo          uvm_tlm_analysis_fifo #(T)  -     @851 
        analysis_export    uvm_analysis_imp            -     @895 
        get_ap             uvm_analysis_port           -     @886 
        get_peek_export    uvm_get_peek_imp            -     @868 
        put_ap             uvm_analysis_port           -     @877 
        put_export         uvm_put_imp                 -     @859 
      wr_out_fifo          uvm_tlm_analysis_fifo #(T)  -     @904 
        analysis_export    uvm_analysis_imp            -     @948 
        get_ap             uvm_analysis_port           -     @939 
        get_peek_export    uvm_get_peek_imp            -     @921 
        put_ap             uvm_analysis_port           -     @930 
        put_export         uvm_put_imp                 -     @912 
    scb                    axi_scb                     -     @485 
      rd_inp_fifo          uvm_tlm_analysis_fifo #(T)  -     @1170
        analysis_export    uvm_analysis_imp            -     @1214
        get_ap             uvm_analysis_port           -     @1205
        get_peek_export    uvm_get_peek_imp            -     @1187
        put_ap             uvm_analysis_port           -     @1196
        put_export         uvm_put_imp                 -     @1178
      rd_out_fifo          uvm_tlm_analysis_fifo #(T)  -     @1223
        analysis_export    uvm_analysis_imp            -     @1267
        get_ap             uvm_analysis_port           -     @1258
        get_peek_export    uvm_get_peek_imp            -     @1240
        put_ap             uvm_analysis_port           -     @1249
        put_export         uvm_put_imp                 -     @1231
      wr_inp_fifo          uvm_tlm_analysis_fifo #(T)  -     @1064
        analysis_export    uvm_analysis_imp            -     @1108
        get_ap             uvm_analysis_port           -     @1099
        get_peek_export    uvm_get_peek_imp            -     @1081
        put_ap             uvm_analysis_port           -     @1090
        put_export         uvm_put_imp                 -     @1072
      wr_out_fifo          uvm_tlm_analysis_fifo #(T)  -     @1117
        analysis_export    uvm_analysis_imp            -     @1161
        get_ap             uvm_analysis_port           -     @1152
        get_peek_export    uvm_get_peek_imp            -     @1134
        put_ap             uvm_analysis_port           -     @1143
        put_export         uvm_put_imp                 -     @1125
------------------------------------------------------------------

UVM_INFO src/tb/sequences/axi_sanity_test.sv(14) @ 0: uvm_test_top.env.agt.wr_sqr@@wr_seq [AXI_SANITY_WR] Starting Sanity Write Sequence
UVM_INFO src/tb/top/axi_top.sv(24) @ 15: reporter [TESTBENCH] Reset released
UVM_INFO src/tb/agent/axi_input_monitor.sv(73) @ 45: uvm_test_top.env.agt.inp_mon [AXI_INP_MON] [WRITE INPUT COMPLETE] addr=0x00000020 data=0x73ca5f74 strb=0xf
UVM_INFO src/tb/agent/axi_out_monitor.sv(54) @ 65: uvm_test_top.env.agt.out_mon [AXI_OUT_MON] [WRITE OUTPUT COMPLETE] resp=0
UVM_INFO src/tb/env/axi_scoreboard.sv(126) @ 65: uvm_test_top.env.scb [AXI_SCOREBOARD] [WRITE RESP PASS] addr=0x00000020 resp=2'b00
UVM_INFO src/tb/sequences/axi_sanity_test.sv(23) @ 75: uvm_test_top.env.agt.wr_sqr@@wr_seq [AXI_SANITY_WR] WRITE addr=0x00000020 data=0x73ca5f74 resp=0
UVM_INFO src/tb/agent/axi_input_monitor.sv(73) @ 95: uvm_test_top.env.agt.inp_mon [AXI_INP_MON] [WRITE INPUT COMPLETE] addr=0x00000000 data=0x51fd7b41 strb=0xf
UVM_INFO src/tb/agent/axi_out_monitor.sv(54) @ 115: uvm_test_top.env.agt.out_mon [AXI_OUT_MON] [WRITE OUTPUT COMPLETE] resp=0
UVM_INFO src/tb/env/axi_scoreboard.sv(126) @ 115: uvm_test_top.env.scb [AXI_SCOREBOARD] [WRITE RESP PASS] addr=0x00000000 resp=2'b00
UVM_INFO src/tb/sequences/axi_sanity_test.sv(23) @ 125: uvm_test_top.env.agt.wr_sqr@@wr_seq [AXI_SANITY_WR] WRITE addr=0x00000000 data=0x51fd7b41 resp=0
UVM_INFO src/tb/agent/axi_input_monitor.sv(73) @ 145: uvm_test_top.env.agt.inp_mon [AXI_INP_MON] [WRITE INPUT COMPLETE] addr=0x00000004 data=0x3bd6328f strb=0xf
UVM_INFO src/tb/agent/axi_out_monitor.sv(54) @ 165: uvm_test_top.env.agt.out_mon [AXI_OUT_MON] [WRITE OUTPUT COMPLETE] resp=0
UVM_INFO src/tb/env/axi_scoreboard.sv(126) @ 165: uvm_test_top.env.scb [AXI_SCOREBOARD] [WRITE RESP PASS] addr=0x00000004 resp=2'b00
UVM_INFO src/tb/sequences/axi_sanity_test.sv(23) @ 175: uvm_test_top.env.agt.wr_sqr@@wr_seq [AXI_SANITY_WR] WRITE addr=0x00000004 data=0x3bd6328f resp=0
UVM_INFO src/tb/agent/axi_input_monitor.sv(73) @ 195: uvm_test_top.env.agt.inp_mon [AXI_INP_MON] [WRITE INPUT COMPLETE] addr=0x00000018 data=0x4a0136dd strb=0xf
UVM_INFO src/tb/agent/axi_out_monitor.sv(54) @ 215: uvm_test_top.env.agt.out_mon [AXI_OUT_MON] [WRITE OUTPUT COMPLETE] resp=0
UVM_INFO src/tb/env/axi_scoreboard.sv(126) @ 215: uvm_test_top.env.scb [AXI_SCOREBOARD] [WRITE RESP PASS] addr=0x00000018 resp=2'b00
UVM_INFO src/tb/sequences/axi_sanity_test.sv(23) @ 225: uvm_test_top.env.agt.wr_sqr@@wr_seq [AXI_SANITY_WR] WRITE addr=0x00000018 data=0x4a0136dd resp=0
UVM_INFO src/tb/agent/axi_input_monitor.sv(73) @ 245: uvm_test_top.env.agt.inp_mon [AXI_INP_MON] [WRITE INPUT COMPLETE] addr=0x00000004 data=0x6bcec946 strb=0xf
UVM_INFO src/tb/agent/axi_out_monitor.sv(54) @ 265: uvm_test_top.env.agt.out_mon [AXI_OUT_MON] [WRITE OUTPUT COMPLETE] resp=0
UVM_INFO src/tb/env/axi_scoreboard.sv(126) @ 265: uvm_test_top.env.scb [AXI_SCOREBOARD] [WRITE RESP PASS] addr=0x00000004 resp=2'b00
UVM_INFO src/tb/sequences/axi_sanity_test.sv(23) @ 275: uvm_test_top.env.agt.wr_sqr@@wr_seq [AXI_SANITY_WR] WRITE addr=0x00000004 data=0x6bcec946 resp=0
UVM_INFO src/tb/agent/axi_input_monitor.sv(73) @ 295: uvm_test_top.env.agt.inp_mon [AXI_INP_MON] [WRITE INPUT COMPLETE] addr=0x00000010 data=0x921e02ee strb=0xf
UVM_INFO src/tb/agent/axi_out_monitor.sv(54) @ 315: uvm_test_top.env.agt.out_mon [AXI_OUT_MON] [WRITE OUTPUT COMPLETE] resp=0
UVM_INFO src/tb/env/axi_scoreboard.sv(126) @ 315: uvm_test_top.env.scb [AXI_SCOREBOARD] [WRITE RESP PASS] addr=0x00000010 resp=2'b00
UVM_INFO src/tb/sequences/axi_sanity_test.sv(23) @ 325: uvm_test_top.env.agt.wr_sqr@@wr_seq [AXI_SANITY_WR] WRITE addr=0x00000010 data=0x921e02ee resp=0
UVM_INFO src/tb/agent/axi_input_monitor.sv(73) @ 345: uvm_test_top.env.agt.inp_mon [AXI_INP_MON] [WRITE INPUT COMPLETE] addr=0x00000014 data=0xccda8578 strb=0xf
UVM_INFO src/tb/agent/axi_out_monitor.sv(54) @ 365: uvm_test_top.env.agt.out_mon [AXI_OUT_MON] [WRITE OUTPUT COMPLETE] resp=0
UVM_INFO src/tb/env/axi_scoreboard.sv(126) @ 365: uvm_test_top.env.scb [AXI_SCOREBOARD] [WRITE RESP PASS] addr=0x00000014 resp=2'b00
UVM_INFO src/tb/sequences/axi_sanity_test.sv(23) @ 375: uvm_test_top.env.agt.wr_sqr@@wr_seq [AXI_SANITY_WR] WRITE addr=0x00000014 data=0xccda8578 resp=0
UVM_INFO src/tb/agent/axi_input_monitor.sv(73) @ 395: uvm_test_top.env.agt.inp_mon [AXI_INP_MON] [WRITE INPUT COMPLETE] addr=0x00000000 data=0x4f49345f strb=0xf
UVM_INFO src/tb/agent/axi_out_monitor.sv(54) @ 415: uvm_test_top.env.agt.out_mon [AXI_OUT_MON] [WRITE OUTPUT COMPLETE] resp=0
UVM_INFO src/tb/env/axi_scoreboard.sv(126) @ 415: uvm_test_top.env.scb [AXI_SCOREBOARD] [WRITE RESP PASS] addr=0x00000000 resp=2'b00
UVM_INFO src/tb/sequences/axi_sanity_test.sv(23) @ 425: uvm_test_top.env.agt.wr_sqr@@wr_seq [AXI_SANITY_WR] WRITE addr=0x00000000 data=0x4f49345f resp=0
UVM_INFO src/tb/agent/axi_input_monitor.sv(73) @ 445: uvm_test_top.env.agt.inp_mon [AXI_INP_MON] [WRITE INPUT COMPLETE] addr=0x00000014 data=0x5f58e37b strb=0xf
UVM_INFO src/tb/agent/axi_out_monitor.sv(54) @ 465: uvm_test_top.env.agt.out_mon [AXI_OUT_MON] [WRITE OUTPUT COMPLETE] resp=0
UVM_INFO src/tb/env/axi_scoreboard.sv(126) @ 465: uvm_test_top.env.scb [AXI_SCOREBOARD] [WRITE RESP PASS] addr=0x00000014 resp=2'b00
UVM_INFO src/tb/sequences/axi_sanity_test.sv(23) @ 475: uvm_test_top.env.agt.wr_sqr@@wr_seq [AXI_SANITY_WR] WRITE addr=0x00000014 data=0x5f58e37b resp=0
UVM_INFO src/tb/agent/axi_input_monitor.sv(73) @ 495: uvm_test_top.env.agt.inp_mon [AXI_INP_MON] [WRITE INPUT COMPLETE] addr=0x00000020 data=0xd791c504 strb=0xf
UVM_INFO src/tb/agent/axi_out_monitor.sv(54) @ 515: uvm_test_top.env.agt.out_mon [AXI_OUT_MON] [WRITE OUTPUT COMPLETE] resp=0
UVM_INFO src/tb/env/axi_scoreboard.sv(126) @ 515: uvm_test_top.env.scb [AXI_SCOREBOARD] [WRITE RESP PASS] addr=0x00000020 resp=2'b00
UVM_INFO src/tb/sequences/axi_sanity_test.sv(23) @ 525: uvm_test_top.env.agt.wr_sqr@@wr_seq [AXI_SANITY_WR] WRITE addr=0x00000020 data=0xd791c504 resp=0
UVM_INFO src/tb/agent/axi_input_monitor.sv(73) @ 545: uvm_test_top.env.agt.inp_mon [AXI_INP_MON] [WRITE INPUT COMPLETE] addr=0x00000020 data=0x50bb7a6c strb=0xf
UVM_INFO src/tb/agent/axi_out_monitor.sv(54) @ 565: uvm_test_top.env.agt.out_mon [AXI_OUT_MON] [WRITE OUTPUT COMPLETE] resp=0
UVM_INFO src/tb/env/axi_scoreboard.sv(126) @ 565: uvm_test_top.env.scb [AXI_SCOREBOARD] [WRITE RESP PASS] addr=0x00000020 resp=2'b00
UVM_INFO src/tb/sequences/axi_sanity_test.sv(23) @ 575: uvm_test_top.env.agt.wr_sqr@@wr_seq [AXI_SANITY_WR] WRITE addr=0x00000020 data=0x50bb7a6c resp=0
UVM_INFO src/tb/agent/axi_input_monitor.sv(73) @ 595: uvm_test_top.env.agt.inp_mon [AXI_INP_MON] [WRITE INPUT COMPLETE] addr=0x0000003c data=0x098a8bc7 strb=0xf
UVM_INFO src/tb/agent/axi_out_monitor.sv(54) @ 615: uvm_test_top.env.agt.out_mon [AXI_OUT_MON] [WRITE OUTPUT COMPLETE] resp=0
UVM_INFO src/tb/env/axi_scoreboard.sv(126) @ 615: uvm_test_top.env.scb [AXI_SCOREBOARD] [WRITE RESP PASS] addr=0x0000003c resp=2'b00
UVM_INFO src/tb/sequences/axi_sanity_test.sv(23) @ 625: uvm_test_top.env.agt.wr_sqr@@wr_seq [AXI_SANITY_WR] WRITE addr=0x0000003c data=0x098a8bc7 resp=0
UVM_INFO src/tb/agent/axi_input_monitor.sv(73) @ 645: uvm_test_top.env.agt.inp_mon [AXI_INP_MON] [WRITE INPUT COMPLETE] addr=0x0000001c data=0xa25f56f4 strb=0xf
UVM_INFO src/tb/agent/axi_out_monitor.sv(54) @ 665: uvm_test_top.env.agt.out_mon [AXI_OUT_MON] [WRITE OUTPUT COMPLETE] resp=0
UVM_INFO src/tb/env/axi_scoreboard.sv(126) @ 665: uvm_test_top.env.scb [AXI_SCOREBOARD] [WRITE RESP PASS] addr=0x0000001c resp=2'b00
UVM_INFO src/tb/sequences/axi_sanity_test.sv(23) @ 675: uvm_test_top.env.agt.wr_sqr@@wr_seq [AXI_SANITY_WR] WRITE addr=0x0000001c data=0xa25f56f4 resp=0
UVM_INFO src/tb/agent/axi_input_monitor.sv(73) @ 695: uvm_test_top.env.agt.inp_mon [AXI_INP_MON] [WRITE INPUT COMPLETE] addr=0x00000010 data=0x31531727 strb=0xf
UVM_INFO src/tb/agent/axi_out_monitor.sv(54) @ 715: uvm_test_top.env.agt.out_mon [AXI_OUT_MON] [WRITE OUTPUT COMPLETE] resp=0
UVM_INFO src/tb/env/axi_scoreboard.sv(126) @ 715: uvm_test_top.env.scb [AXI_SCOREBOARD] [WRITE RESP PASS] addr=0x00000010 resp=2'b00
UVM_INFO src/tb/sequences/axi_sanity_test.sv(23) @ 725: uvm_test_top.env.agt.wr_sqr@@wr_seq [AXI_SANITY_WR] WRITE addr=0x00000010 data=0x31531727 resp=0
UVM_INFO src/tb/agent/axi_input_monitor.sv(73) @ 745: uvm_test_top.env.agt.inp_mon [AXI_INP_MON] [WRITE INPUT COMPLETE] addr=0x00000000 data=0xa60d76bd strb=0xf
UVM_INFO src/tb/agent/axi_out_monitor.sv(54) @ 765: uvm_test_top.env.agt.out_mon [AXI_OUT_MON] [WRITE OUTPUT COMPLETE] resp=0
UVM_INFO src/tb/env/axi_scoreboard.sv(126) @ 765: uvm_test_top.env.scb [AXI_SCOREBOARD] [WRITE RESP PASS] addr=0x00000000 resp=2'b00
UVM_INFO src/tb/sequences/axi_sanity_test.sv(23) @ 775: uvm_test_top.env.agt.wr_sqr@@wr_seq [AXI_SANITY_WR] WRITE addr=0x00000000 data=0xa60d76bd resp=0
UVM_INFO src/tb/agent/axi_input_monitor.sv(73) @ 795: uvm_test_top.env.agt.inp_mon [AXI_INP_MON] [WRITE INPUT COMPLETE] addr=0x00000014 data=0x9154b0da strb=0xf
UVM_INFO src/tb/agent/axi_out_monitor.sv(54) @ 815: uvm_test_top.env.agt.out_mon [AXI_OUT_MON] [WRITE OUTPUT COMPLETE] resp=0
UVM_INFO src/tb/env/axi_scoreboard.sv(126) @ 815: uvm_test_top.env.scb [AXI_SCOREBOARD] [WRITE RESP PASS] addr=0x00000014 resp=2'b00
UVM_INFO src/tb/sequences/axi_sanity_test.sv(23) @ 825: uvm_test_top.env.agt.wr_sqr@@wr_seq [AXI_SANITY_WR] WRITE addr=0x00000014 data=0x9154b0da resp=0
UVM_INFO src/tb/agent/axi_input_monitor.sv(73) @ 845: uvm_test_top.env.agt.inp_mon [AXI_INP_MON] [WRITE INPUT COMPLETE] addr=0x00000008 data=0x04857bd7 strb=0xf
UVM_INFO src/tb/agent/axi_out_monitor.sv(54) @ 865: uvm_test_top.env.agt.out_mon [AXI_OUT_MON] [WRITE OUTPUT COMPLETE] resp=0
UVM_INFO src/tb/env/axi_scoreboard.sv(126) @ 865: uvm_test_top.env.scb [AXI_SCOREBOARD] [WRITE RESP PASS] addr=0x00000008 resp=2'b00
UVM_INFO src/tb/sequences/axi_sanity_test.sv(23) @ 875: uvm_test_top.env.agt.wr_sqr@@wr_seq [AXI_SANITY_WR] WRITE addr=0x00000008 data=0x04857bd7 resp=0
UVM_INFO src/tb/agent/axi_input_monitor.sv(73) @ 895: uvm_test_top.env.agt.inp_mon [AXI_INP_MON] [WRITE INPUT COMPLETE] addr=0x00000018 data=0x4acbfed6 strb=0xf
UVM_INFO src/tb/agent/axi_out_monitor.sv(54) @ 915: uvm_test_top.env.agt.out_mon [AXI_OUT_MON] [WRITE OUTPUT COMPLETE] resp=0
UVM_INFO src/tb/env/axi_scoreboard.sv(126) @ 915: uvm_test_top.env.scb [AXI_SCOREBOARD] [WRITE RESP PASS] addr=0x00000018 resp=2'b00
UVM_INFO src/tb/sequences/axi_sanity_test.sv(23) @ 925: uvm_test_top.env.agt.wr_sqr@@wr_seq [AXI_SANITY_WR] WRITE addr=0x00000018 data=0x4acbfed6 resp=0
UVM_INFO src/tb/agent/axi_input_monitor.sv(73) @ 945: uvm_test_top.env.agt.inp_mon [AXI_INP_MON] [WRITE INPUT COMPLETE] addr=0x00000014 data=0x1a6a65a2 strb=0xf
UVM_INFO src/tb/agent/axi_out_monitor.sv(54) @ 965: uvm_test_top.env.agt.out_mon [AXI_OUT_MON] [WRITE OUTPUT COMPLETE] resp=0
UVM_INFO src/tb/env/axi_scoreboard.sv(126) @ 965: uvm_test_top.env.scb [AXI_SCOREBOARD] [WRITE RESP PASS] addr=0x00000014 resp=2'b00
UVM_INFO src/tb/sequences/axi_sanity_test.sv(23) @ 975: uvm_test_top.env.agt.wr_sqr@@wr_seq [AXI_SANITY_WR] WRITE addr=0x00000014 data=0x1a6a65a2 resp=0
UVM_INFO src/tb/agent/axi_input_monitor.sv(73) @ 995: uvm_test_top.env.agt.inp_mon [AXI_INP_MON] [WRITE INPUT COMPLETE] addr=0x00000010 data=0x3e2e30e7 strb=0xf
UVM_INFO src/tb/agent/axi_out_monitor.sv(54) @ 1015: uvm_test_top.env.agt.out_mon [AXI_OUT_MON] [WRITE OUTPUT COMPLETE] resp=0
UVM_INFO src/tb/env/axi_scoreboard.sv(126) @ 1015: uvm_test_top.env.scb [AXI_SCOREBOARD] [WRITE RESP PASS] addr=0x00000010 resp=2'b00
UVM_INFO src/tb/sequences/axi_sanity_test.sv(23) @ 1025: uvm_test_top.env.agt.wr_sqr@@wr_seq [AXI_SANITY_WR] WRITE addr=0x00000010 data=0x3e2e30e7 resp=0
UVM_INFO src/tb/agent/axi_input_monitor.sv(73) @ 1045: uvm_test_top.env.agt.inp_mon [AXI_INP_MON] [WRITE INPUT COMPLETE] addr=0x0000000c data=0x6693916d strb=0xf
UVM_INFO src/tb/agent/axi_out_monitor.sv(54) @ 1065: uvm_test_top.env.agt.out_mon [AXI_OUT_MON] [WRITE OUTPUT COMPLETE] resp=0
UVM_INFO src/tb/env/axi_scoreboard.sv(126) @ 1065: uvm_test_top.env.scb [AXI_SCOREBOARD] [WRITE RESP PASS] addr=0x0000000c resp=2'b00
UVM_INFO src/tb/sequences/axi_sanity_test.sv(23) @ 1075: uvm_test_top.env.agt.wr_sqr@@wr_seq [AXI_SANITY_WR] WRITE addr=0x0000000c data=0x6693916d resp=0
UVM_INFO src/tb/agent/axi_input_monitor.sv(73) @ 1095: uvm_test_top.env.agt.inp_mon [AXI_INP_MON] [WRITE INPUT COMPLETE] addr=0x00000008 data=0x38c3749b strb=0xf
UVM_INFO src/tb/agent/axi_out_monitor.sv(54) @ 1115: uvm_test_top.env.agt.out_mon [AXI_OUT_MON] [WRITE OUTPUT COMPLETE] resp=0
UVM_INFO src/tb/env/axi_scoreboard.sv(126) @ 1115: uvm_test_top.env.scb [AXI_SCOREBOARD] [WRITE RESP PASS] addr=0x00000008 resp=2'b00
UVM_INFO src/tb/sequences/axi_sanity_test.sv(23) @ 1125: uvm_test_top.env.agt.wr_sqr@@wr_seq [AXI_SANITY_WR] WRITE addr=0x00000008 data=0x38c3749b resp=0
UVM_INFO src/tb/agent/axi_input_monitor.sv(73) @ 1145: uvm_test_top.env.agt.inp_mon [AXI_INP_MON] [WRITE INPUT COMPLETE] addr=0x00000024 data=0xa3f360e8 strb=0xf
UVM_INFO src/tb/agent/axi_out_monitor.sv(54) @ 1165: uvm_test_top.env.agt.out_mon [AXI_OUT_MON] [WRITE OUTPUT COMPLETE] resp=0
UVM_INFO src/tb/env/axi_scoreboard.sv(126) @ 1165: uvm_test_top.env.scb [AXI_SCOREBOARD] [WRITE RESP PASS] addr=0x00000024 resp=2'b00
UVM_INFO src/tb/sequences/axi_sanity_test.sv(23) @ 1175: uvm_test_top.env.agt.wr_sqr@@wr_seq [AXI_SANITY_WR] WRITE addr=0x00000024 data=0xa3f360e8 resp=0
UVM_INFO src/tb/agent/axi_input_monitor.sv(73) @ 1195: uvm_test_top.env.agt.inp_mon [AXI_INP_MON] [WRITE INPUT COMPLETE] addr=0x0000001c data=0x5561aa25 strb=0xf
UVM_INFO src/tb/agent/axi_out_monitor.sv(54) @ 1215: uvm_test_top.env.agt.out_mon [AXI_OUT_MON] [WRITE OUTPUT COMPLETE] resp=0
UVM_INFO src/tb/env/axi_scoreboard.sv(126) @ 1215: uvm_test_top.env.scb [AXI_SCOREBOARD] [WRITE RESP PASS] addr=0x0000001c resp=2'b00
UVM_INFO src/tb/sequences/axi_sanity_test.sv(23) @ 1225: uvm_test_top.env.agt.wr_sqr@@wr_seq [AXI_SANITY_WR] WRITE addr=0x0000001c data=0x5561aa25 resp=0
UVM_INFO src/tb/agent/axi_input_monitor.sv(73) @ 1245: uvm_test_top.env.agt.inp_mon [AXI_INP_MON] [WRITE INPUT COMPLETE] addr=0x00000020 data=0x955ff555 strb=0xf
UVM_INFO src/tb/agent/axi_out_monitor.sv(54) @ 1265: uvm_test_top.env.agt.out_mon [AXI_OUT_MON] [WRITE OUTPUT COMPLETE] resp=0
UVM_INFO src/tb/env/axi_scoreboard.sv(126) @ 1265: uvm_test_top.env.scb [AXI_SCOREBOARD] [WRITE RESP PASS] addr=0x00000020 resp=2'b00
UVM_INFO src/tb/sequences/axi_sanity_test.sv(23) @ 1275: uvm_test_top.env.agt.wr_sqr@@wr_seq [AXI_SANITY_WR] WRITE addr=0x00000020 data=0x955ff555 resp=0
UVM_INFO src/tb/agent/axi_input_monitor.sv(73) @ 1295: uvm_test_top.env.agt.inp_mon [AXI_INP_MON] [WRITE INPUT COMPLETE] addr=0x00000024 data=0xfd7b6152 strb=0xf
UVM_INFO src/tb/agent/axi_out_monitor.sv(54) @ 1315: uvm_test_top.env.agt.out_mon [AXI_OUT_MON] [WRITE OUTPUT COMPLETE] resp=0
UVM_INFO src/tb/env/axi_scoreboard.sv(126) @ 1315: uvm_test_top.env.scb [AXI_SCOREBOARD] [WRITE RESP PASS] addr=0x00000024 resp=2'b00
UVM_INFO src/tb/sequences/axi_sanity_test.sv(23) @ 1325: uvm_test_top.env.agt.wr_sqr@@wr_seq [AXI_SANITY_WR] WRITE addr=0x00000024 data=0xfd7b6152 resp=0
UVM_INFO src/tb/agent/axi_input_monitor.sv(73) @ 1345: uvm_test_top.env.agt.inp_mon [AXI_INP_MON] [WRITE INPUT COMPLETE] addr=0x00000014 data=0x2b350cd2 strb=0xf
UVM_INFO src/tb/agent/axi_out_monitor.sv(54) @ 1365: uvm_test_top.env.agt.out_mon [AXI_OUT_MON] [WRITE OUTPUT COMPLETE] resp=0
UVM_INFO src/tb/env/axi_scoreboard.sv(126) @ 1365: uvm_test_top.env.scb [AXI_SCOREBOARD] [WRITE RESP PASS] addr=0x00000014 resp=2'b00
UVM_INFO src/tb/sequences/axi_sanity_test.sv(23) @ 1375: uvm_test_top.env.agt.wr_sqr@@wr_seq [AXI_SANITY_WR] WRITE addr=0x00000014 data=0x2b350cd2 resp=0
UVM_INFO src/tb/agent/axi_input_monitor.sv(73) @ 1395: uvm_test_top.env.agt.inp_mon [AXI_INP_MON] [WRITE INPUT COMPLETE] addr=0x00000020 data=0x94ca1ff0 strb=0xf
UVM_INFO src/tb/agent/axi_out_monitor.sv(54) @ 1415: uvm_test_top.env.agt.out_mon [AXI_OUT_MON] [WRITE OUTPUT COMPLETE] resp=0
UVM_INFO src/tb/env/axi_scoreboard.sv(126) @ 1415: uvm_test_top.env.scb [AXI_SCOREBOARD] [WRITE RESP PASS] addr=0x00000020 resp=2'b00
UVM_INFO src/tb/sequences/axi_sanity_test.sv(23) @ 1425: uvm_test_top.env.agt.wr_sqr@@wr_seq [AXI_SANITY_WR] WRITE addr=0x00000020 data=0x94ca1ff0 resp=0
UVM_INFO src/tb/agent/axi_input_monitor.sv(73) @ 1445: uvm_test_top.env.agt.inp_mon [AXI_INP_MON] [WRITE INPUT COMPLETE] addr=0x00000008 data=0x08d5f33f strb=0xf
UVM_INFO src/tb/agent/axi_out_monitor.sv(54) @ 1465: uvm_test_top.env.agt.out_mon [AXI_OUT_MON] [WRITE OUTPUT COMPLETE] resp=0
UVM_INFO src/tb/env/axi_scoreboard.sv(126) @ 1465: uvm_test_top.env.scb [AXI_SCOREBOARD] [WRITE RESP PASS] addr=0x00000008 resp=2'b00
UVM_INFO src/tb/sequences/axi_sanity_test.sv(23) @ 1475: uvm_test_top.env.agt.wr_sqr@@wr_seq [AXI_SANITY_WR] WRITE addr=0x00000008 data=0x08d5f33f resp=0
UVM_INFO src/tb/agent/axi_input_monitor.sv(73) @ 1495: uvm_test_top.env.agt.inp_mon [AXI_INP_MON] [WRITE INPUT COMPLETE] addr=0x00000024 data=0xfb92cbe8 strb=0xf
UVM_INFO src/tb/agent/axi_out_monitor.sv(54) @ 1515: uvm_test_top.env.agt.out_mon [AXI_OUT_MON] [WRITE OUTPUT COMPLETE] resp=0
UVM_INFO src/tb/env/axi_scoreboard.sv(126) @ 1515: uvm_test_top.env.scb [AXI_SCOREBOARD] [WRITE RESP PASS] addr=0x00000024 resp=2'b00
UVM_INFO src/tb/sequences/axi_sanity_test.sv(23) @ 1525: uvm_test_top.env.agt.wr_sqr@@wr_seq [AXI_SANITY_WR] WRITE addr=0x00000024 data=0xfb92cbe8 resp=0
UVM_INFO src/tb/agent/axi_input_monitor.sv(73) @ 1545: uvm_test_top.env.agt.inp_mon [AXI_INP_MON] [WRITE INPUT COMPLETE] addr=0x0000001c data=0x032e751f strb=0xf
UVM_INFO src/tb/agent/axi_out_monitor.sv(54) @ 1565: uvm_test_top.env.agt.out_mon [AXI_OUT_MON] [WRITE OUTPUT COMPLETE] resp=0
UVM_INFO src/tb/env/axi_scoreboard.sv(126) @ 1565: uvm_test_top.env.scb [AXI_SCOREBOARD] [WRITE RESP PASS] addr=0x0000001c resp=2'b00
UVM_INFO src/tb/sequences/axi_sanity_test.sv(23) @ 1575: uvm_test_top.env.agt.wr_sqr@@wr_seq [AXI_SANITY_WR] WRITE addr=0x0000001c data=0x032e751f resp=0
UVM_INFO src/tb/agent/axi_input_monitor.sv(73) @ 1595: uvm_test_top.env.agt.inp_mon [AXI_INP_MON] [WRITE INPUT COMPLETE] addr=0x0000001c data=0x0afaacf8 strb=0xf
UVM_INFO src/tb/agent/axi_out_monitor.sv(54) @ 1615: uvm_test_top.env.agt.out_mon [AXI_OUT_MON] [WRITE OUTPUT COMPLETE] resp=0
UVM_INFO src/tb/env/axi_scoreboard.sv(126) @ 1615: uvm_test_top.env.scb [AXI_SCOREBOARD] [WRITE RESP PASS] addr=0x0000001c resp=2'b00
UVM_INFO src/tb/sequences/axi_sanity_test.sv(23) @ 1625: uvm_test_top.env.agt.wr_sqr@@wr_seq [AXI_SANITY_WR] WRITE addr=0x0000001c data=0x0afaacf8 resp=0
UVM_INFO src/tb/agent/axi_input_monitor.sv(73) @ 1645: uvm_test_top.env.agt.inp_mon [AXI_INP_MON] [WRITE INPUT COMPLETE] addr=0x00000000 data=0x8cca55da strb=0xf
UVM_INFO src/tb/agent/axi_out_monitor.sv(54) @ 1665: uvm_test_top.env.agt.out_mon [AXI_OUT_MON] [WRITE OUTPUT COMPLETE] resp=0
UVM_INFO src/tb/env/axi_scoreboard.sv(126) @ 1665: uvm_test_top.env.scb [AXI_SCOREBOARD] [WRITE RESP PASS] addr=0x00000000 resp=2'b00
UVM_INFO src/tb/sequences/axi_sanity_test.sv(23) @ 1675: uvm_test_top.env.agt.wr_sqr@@wr_seq [AXI_SANITY_WR] WRITE addr=0x00000000 data=0x8cca55da resp=0
UVM_INFO src/tb/agent/axi_input_monitor.sv(73) @ 1695: uvm_test_top.env.agt.inp_mon [AXI_INP_MON] [WRITE INPUT COMPLETE] addr=0x00000020 data=0x732c5c4f strb=0xf
UVM_INFO src/tb/agent/axi_out_monitor.sv(54) @ 1715: uvm_test_top.env.agt.out_mon [AXI_OUT_MON] [WRITE OUTPUT COMPLETE] resp=0
UVM_INFO src/tb/env/axi_scoreboard.sv(126) @ 1715: uvm_test_top.env.scb [AXI_SCOREBOARD] [WRITE RESP PASS] addr=0x00000020 resp=2'b00
UVM_INFO src/tb/sequences/axi_sanity_test.sv(23) @ 1725: uvm_test_top.env.agt.wr_sqr@@wr_seq [AXI_SANITY_WR] WRITE addr=0x00000020 data=0x732c5c4f resp=0
UVM_INFO src/tb/agent/axi_input_monitor.sv(73) @ 1745: uvm_test_top.env.agt.inp_mon [AXI_INP_MON] [WRITE INPUT COMPLETE] addr=0x0000003c data=0x9b4e8336 strb=0xf
UVM_INFO src/tb/agent/axi_out_monitor.sv(54) @ 1765: uvm_test_top.env.agt.out_mon [AXI_OUT_MON] [WRITE OUTPUT COMPLETE] resp=0
UVM_INFO src/tb/env/axi_scoreboard.sv(126) @ 1765: uvm_test_top.env.scb [AXI_SCOREBOARD] [WRITE RESP PASS] addr=0x0000003c resp=2'b00
UVM_INFO src/tb/sequences/axi_sanity_test.sv(23) @ 1775: uvm_test_top.env.agt.wr_sqr@@wr_seq [AXI_SANITY_WR] WRITE addr=0x0000003c data=0x9b4e8336 resp=0
UVM_INFO src/tb/agent/axi_input_monitor.sv(73) @ 1795: uvm_test_top.env.agt.inp_mon [AXI_INP_MON] [WRITE INPUT COMPLETE] addr=0x00000010 data=0xdc87751e strb=0xf
UVM_INFO src/tb/agent/axi_out_monitor.sv(54) @ 1815: uvm_test_top.env.agt.out_mon [AXI_OUT_MON] [WRITE OUTPUT COMPLETE] resp=0
UVM_INFO src/tb/env/axi_scoreboard.sv(126) @ 1815: uvm_test_top.env.scb [AXI_SCOREBOARD] [WRITE RESP PASS] addr=0x00000010 resp=2'b00
UVM_INFO src/tb/sequences/axi_sanity_test.sv(23) @ 1825: uvm_test_top.env.agt.wr_sqr@@wr_seq [AXI_SANITY_WR] WRITE addr=0x00000010 data=0xdc87751e resp=0
UVM_INFO src/tb/agent/axi_input_monitor.sv(73) @ 1845: uvm_test_top.env.agt.inp_mon [AXI_INP_MON] [WRITE INPUT COMPLETE] addr=0x00000024 data=0x09c4d440 strb=0xf
UVM_INFO src/tb/agent/axi_out_monitor.sv(54) @ 1865: uvm_test_top.env.agt.out_mon [AXI_OUT_MON] [WRITE OUTPUT COMPLETE] resp=0
UVM_INFO src/tb/env/axi_scoreboard.sv(126) @ 1865: uvm_test_top.env.scb [AXI_SCOREBOARD] [WRITE RESP PASS] addr=0x00000024 resp=2'b00
UVM_INFO src/tb/sequences/axi_sanity_test.sv(23) @ 1875: uvm_test_top.env.agt.wr_sqr@@wr_seq [AXI_SANITY_WR] WRITE addr=0x00000024 data=0x09c4d440 resp=0
UVM_INFO src/tb/agent/axi_input_monitor.sv(73) @ 1895: uvm_test_top.env.agt.inp_mon [AXI_INP_MON] [WRITE INPUT COMPLETE] addr=0x00000000 data=0x42774583 strb=0xf
UVM_INFO src/tb/agent/axi_out_monitor.sv(54) @ 1915: uvm_test_top.env.agt.out_mon [AXI_OUT_MON] [WRITE OUTPUT COMPLETE] resp=0
UVM_INFO src/tb/env/axi_scoreboard.sv(126) @ 1915: uvm_test_top.env.scb [AXI_SCOREBOARD] [WRITE RESP PASS] addr=0x00000000 resp=2'b00
UVM_INFO src/tb/sequences/axi_sanity_test.sv(23) @ 1925: uvm_test_top.env.agt.wr_sqr@@wr_seq [AXI_SANITY_WR] WRITE addr=0x00000000 data=0x42774583 resp=0
UVM_INFO src/tb/agent/axi_input_monitor.sv(73) @ 1945: uvm_test_top.env.agt.inp_mon [AXI_INP_MON] [WRITE INPUT COMPLETE] addr=0x00000018 data=0xbf3895fe strb=0xf
UVM_INFO src/tb/agent/axi_out_monitor.sv(54) @ 1965: uvm_test_top.env.agt.out_mon [AXI_OUT_MON] [WRITE OUTPUT COMPLETE] resp=0
UVM_INFO src/tb/env/axi_scoreboard.sv(126) @ 1965: uvm_test_top.env.scb [AXI_SCOREBOARD] [WRITE RESP PASS] addr=0x00000018 resp=2'b00
UVM_INFO src/tb/sequences/axi_sanity_test.sv(23) @ 1975: uvm_test_top.env.agt.wr_sqr@@wr_seq [AXI_SANITY_WR] WRITE addr=0x00000018 data=0xbf3895fe resp=0
UVM_INFO src/tb/agent/axi_input_monitor.sv(73) @ 1995: uvm_test_top.env.agt.inp_mon [AXI_INP_MON] [WRITE INPUT COMPLETE] addr=0x00000018 data=0xd00f8b94 strb=0xf
UVM_INFO src/tb/agent/axi_out_monitor.sv(54) @ 2015: uvm_test_top.env.agt.out_mon [AXI_OUT_MON] [WRITE OUTPUT COMPLETE] resp=0
UVM_INFO src/tb/env/axi_scoreboard.sv(126) @ 2015: uvm_test_top.env.scb [AXI_SCOREBOARD] [WRITE RESP PASS] addr=0x00000018 resp=2'b00
UVM_INFO src/tb/sequences/axi_sanity_test.sv(23) @ 2025: uvm_test_top.env.agt.wr_sqr@@wr_seq [AXI_SANITY_WR] WRITE addr=0x00000018 data=0xd00f8b94 resp=0
UVM_INFO src/tb/agent/axi_input_monitor.sv(73) @ 2045: uvm_test_top.env.agt.inp_mon [AXI_INP_MON] [WRITE INPUT COMPLETE] addr=0x00000000 data=0x526164c9 strb=0xf
UVM_INFO src/tb/agent/axi_out_monitor.sv(54) @ 2065: uvm_test_top.env.agt.out_mon [AXI_OUT_MON] [WRITE OUTPUT COMPLETE] resp=0
UVM_INFO src/tb/env/axi_scoreboard.sv(126) @ 2065: uvm_test_top.env.scb [AXI_SCOREBOARD] [WRITE RESP PASS] addr=0x00000000 resp=2'b00
UVM_INFO src/tb/sequences/axi_sanity_test.sv(23) @ 2075: uvm_test_top.env.agt.wr_sqr@@wr_seq [AXI_SANITY_WR] WRITE addr=0x00000000 data=0x526164c9 resp=0
UVM_INFO src/tb/agent/axi_input_monitor.sv(73) @ 2095: uvm_test_top.env.agt.inp_mon [AXI_INP_MON] [WRITE INPUT COMPLETE] addr=0x00000020 data=0xcbc2db67 strb=0xf
UVM_INFO src/tb/agent/axi_out_monitor.sv(54) @ 2115: uvm_test_top.env.agt.out_mon [AXI_OUT_MON] [WRITE OUTPUT COMPLETE] resp=0
UVM_INFO src/tb/env/axi_scoreboard.sv(126) @ 2115: uvm_test_top.env.scb [AXI_SCOREBOARD] [WRITE RESP PASS] addr=0x00000020 resp=2'b00
UVM_INFO src/tb/sequences/axi_sanity_test.sv(23) @ 2125: uvm_test_top.env.agt.wr_sqr@@wr_seq [AXI_SANITY_WR] WRITE addr=0x00000020 data=0xcbc2db67 resp=0
UVM_INFO src/tb/agent/axi_input_monitor.sv(73) @ 2145: uvm_test_top.env.agt.inp_mon [AXI_INP_MON] [WRITE INPUT COMPLETE] addr=0x00000024 data=0x1028a089 strb=0xf
UVM_INFO src/tb/agent/axi_out_monitor.sv(54) @ 2165: uvm_test_top.env.agt.out_mon [AXI_OUT_MON] [WRITE OUTPUT COMPLETE] resp=0
UVM_INFO src/tb/env/axi_scoreboard.sv(126) @ 2165: uvm_test_top.env.scb [AXI_SCOREBOARD] [WRITE RESP PASS] addr=0x00000024 resp=2'b00
UVM_INFO src/tb/sequences/axi_sanity_test.sv(23) @ 2175: uvm_test_top.env.agt.wr_sqr@@wr_seq [AXI_SANITY_WR] WRITE addr=0x00000024 data=0x1028a089 resp=0
UVM_INFO src/tb/agent/axi_input_monitor.sv(73) @ 2195: uvm_test_top.env.agt.inp_mon [AXI_INP_MON] [WRITE INPUT COMPLETE] addr=0x00000024 data=0xf352e66b strb=0xf
UVM_INFO src/tb/agent/axi_out_monitor.sv(54) @ 2215: uvm_test_top.env.agt.out_mon [AXI_OUT_MON] [WRITE OUTPUT COMPLETE] resp=0
UVM_INFO src/tb/env/axi_scoreboard.sv(126) @ 2215: uvm_test_top.env.scb [AXI_SCOREBOARD] [WRITE RESP PASS] addr=0x00000024 resp=2'b00
UVM_INFO src/tb/sequences/axi_sanity_test.sv(23) @ 2225: uvm_test_top.env.agt.wr_sqr@@wr_seq [AXI_SANITY_WR] WRITE addr=0x00000024 data=0xf352e66b resp=0
UVM_INFO src/tb/agent/axi_input_monitor.sv(73) @ 2245: uvm_test_top.env.agt.inp_mon [AXI_INP_MON] [WRITE INPUT COMPLETE] addr=0x00000010 data=0xdd84453e strb=0xf
UVM_INFO src/tb/agent/axi_out_monitor.sv(54) @ 2265: uvm_test_top.env.agt.out_mon [AXI_OUT_MON] [WRITE OUTPUT COMPLETE] resp=0
UVM_INFO src/tb/env/axi_scoreboard.sv(126) @ 2265: uvm_test_top.env.scb [AXI_SCOREBOARD] [WRITE RESP PASS] addr=0x00000010 resp=2'b00
UVM_INFO src/tb/sequences/axi_sanity_test.sv(23) @ 2275: uvm_test_top.env.agt.wr_sqr@@wr_seq [AXI_SANITY_WR] WRITE addr=0x00000010 data=0xdd84453e resp=0
UVM_INFO src/tb/agent/axi_input_monitor.sv(73) @ 2295: uvm_test_top.env.agt.inp_mon [AXI_INP_MON] [WRITE INPUT COMPLETE] addr=0x00000014 data=0xcaa1d805 strb=0xf
UVM_INFO src/tb/agent/axi_out_monitor.sv(54) @ 2315: uvm_test_top.env.agt.out_mon [AXI_OUT_MON] [WRITE OUTPUT COMPLETE] resp=0
UVM_INFO src/tb/env/axi_scoreboard.sv(126) @ 2315: uvm_test_top.env.scb [AXI_SCOREBOARD] [WRITE RESP PASS] addr=0x00000014 resp=2'b00
UVM_INFO src/tb/sequences/axi_sanity_test.sv(23) @ 2325: uvm_test_top.env.agt.wr_sqr@@wr_seq [AXI_SANITY_WR] WRITE addr=0x00000014 data=0xcaa1d805 resp=0
UVM_INFO src/tb/agent/axi_input_monitor.sv(73) @ 2345: uvm_test_top.env.agt.inp_mon [AXI_INP_MON] [WRITE INPUT COMPLETE] addr=0x00000024 data=0xa50d36d2 strb=0xf
UVM_INFO src/tb/agent/axi_out_monitor.sv(54) @ 2365: uvm_test_top.env.agt.out_mon [AXI_OUT_MON] [WRITE OUTPUT COMPLETE] resp=0
UVM_INFO src/tb/env/axi_scoreboard.sv(126) @ 2365: uvm_test_top.env.scb [AXI_SCOREBOARD] [WRITE RESP PASS] addr=0x00000024 resp=2'b00
UVM_INFO src/tb/sequences/axi_sanity_test.sv(23) @ 2375: uvm_test_top.env.agt.wr_sqr@@wr_seq [AXI_SANITY_WR] WRITE addr=0x00000024 data=0xa50d36d2 resp=0
UVM_INFO src/tb/agent/axi_input_monitor.sv(73) @ 2395: uvm_test_top.env.agt.inp_mon [AXI_INP_MON] [WRITE INPUT COMPLETE] addr=0x00000008 data=0xa5293993 strb=0xf
UVM_INFO src/tb/agent/axi_out_monitor.sv(54) @ 2415: uvm_test_top.env.agt.out_mon [AXI_OUT_MON] [WRITE OUTPUT COMPLETE] resp=0
UVM_INFO src/tb/env/axi_scoreboard.sv(126) @ 2415: uvm_test_top.env.scb [AXI_SCOREBOARD] [WRITE RESP PASS] addr=0x00000008 resp=2'b00
UVM_INFO src/tb/sequences/axi_sanity_test.sv(23) @ 2425: uvm_test_top.env.agt.wr_sqr@@wr_seq [AXI_SANITY_WR] WRITE addr=0x00000008 data=0xa5293993 resp=0
UVM_INFO src/tb/agent/axi_input_monitor.sv(73) @ 2445: uvm_test_top.env.agt.inp_mon [AXI_INP_MON] [WRITE INPUT COMPLETE] addr=0x0000000c data=0x6abc780a strb=0xf
UVM_INFO src/tb/agent/axi_out_monitor.sv(54) @ 2465: uvm_test_top.env.agt.out_mon [AXI_OUT_MON] [WRITE OUTPUT COMPLETE] resp=0
UVM_INFO src/tb/env/axi_scoreboard.sv(126) @ 2465: uvm_test_top.env.scb [AXI_SCOREBOARD] [WRITE RESP PASS] addr=0x0000000c resp=2'b00
UVM_INFO src/tb/sequences/axi_sanity_test.sv(23) @ 2475: uvm_test_top.env.agt.wr_sqr@@wr_seq [AXI_SANITY_WR] WRITE addr=0x0000000c data=0x6abc780a resp=0
UVM_INFO src/tb/agent/axi_input_monitor.sv(73) @ 2495: uvm_test_top.env.agt.inp_mon [AXI_INP_MON] [WRITE INPUT COMPLETE] addr=0x00000018 data=0xc233b239 strb=0xf
UVM_INFO src/tb/agent/axi_out_monitor.sv(54) @ 2515: uvm_test_top.env.agt.out_mon [AXI_OUT_MON] [WRITE OUTPUT COMPLETE] resp=0
UVM_INFO src/tb/env/axi_scoreboard.sv(126) @ 2515: uvm_test_top.env.scb [AXI_SCOREBOARD] [WRITE RESP PASS] addr=0x00000018 resp=2'b00
UVM_INFO src/tb/sequences/axi_sanity_test.sv(23) @ 2525: uvm_test_top.env.agt.wr_sqr@@wr_seq [AXI_SANITY_WR] WRITE addr=0x00000018 data=0xc233b239 resp=0
UVM_INFO src/tb/agent/axi_input_monitor.sv(73) @ 2545: uvm_test_top.env.agt.inp_mon [AXI_INP_MON] [WRITE INPUT COMPLETE] addr=0x00000000 data=0x36a2ad0a strb=0xf
UVM_INFO src/tb/agent/axi_out_monitor.sv(54) @ 2565: uvm_test_top.env.agt.out_mon [AXI_OUT_MON] [WRITE OUTPUT COMPLETE] resp=0
UVM_INFO src/tb/env/axi_scoreboard.sv(126) @ 2565: uvm_test_top.env.scb [AXI_SCOREBOARD] [WRITE RESP PASS] addr=0x00000000 resp=2'b00
UVM_INFO src/tb/sequences/axi_sanity_test.sv(23) @ 2575: uvm_test_top.env.agt.wr_sqr@@wr_seq [AXI_SANITY_WR] WRITE addr=0x00000000 data=0x36a2ad0a resp=0
UVM_INFO src/tb/agent/axi_input_monitor.sv(73) @ 2595: uvm_test_top.env.agt.inp_mon [AXI_INP_MON] [WRITE INPUT COMPLETE] addr=0x00000010 data=0x9286ef0f strb=0xf
UVM_INFO src/tb/agent/axi_out_monitor.sv(54) @ 2615: uvm_test_top.env.agt.out_mon [AXI_OUT_MON] [WRITE OUTPUT COMPLETE] resp=0
UVM_INFO src/tb/env/axi_scoreboard.sv(126) @ 2615: uvm_test_top.env.scb [AXI_SCOREBOARD] [WRITE RESP PASS] addr=0x00000010 resp=2'b00
UVM_INFO src/tb/sequences/axi_sanity_test.sv(23) @ 2625: uvm_test_top.env.agt.wr_sqr@@wr_seq [AXI_SANITY_WR] WRITE addr=0x00000010 data=0x9286ef0f resp=0
UVM_INFO src/tb/agent/axi_input_monitor.sv(73) @ 2645: uvm_test_top.env.agt.inp_mon [AXI_INP_MON] [WRITE INPUT COMPLETE] addr=0x00000014 data=0x476be066 strb=0xf
UVM_INFO src/tb/agent/axi_out_monitor.sv(54) @ 2665: uvm_test_top.env.agt.out_mon [AXI_OUT_MON] [WRITE OUTPUT COMPLETE] resp=0
UVM_INFO src/tb/env/axi_scoreboard.sv(126) @ 2665: uvm_test_top.env.scb [AXI_SCOREBOARD] [WRITE RESP PASS] addr=0x00000014 resp=2'b00
UVM_INFO src/tb/sequences/axi_sanity_test.sv(23) @ 2675: uvm_test_top.env.agt.wr_sqr@@wr_seq [AXI_SANITY_WR] WRITE addr=0x00000014 data=0x476be066 resp=0
UVM_INFO src/tb/agent/axi_input_monitor.sv(73) @ 2695: uvm_test_top.env.agt.inp_mon [AXI_INP_MON] [WRITE INPUT COMPLETE] addr=0x00000020 data=0x33493183 strb=0xf
UVM_INFO src/tb/agent/axi_out_monitor.sv(54) @ 2715: uvm_test_top.env.agt.out_mon [AXI_OUT_MON] [WRITE OUTPUT COMPLETE] resp=0
UVM_INFO src/tb/env/axi_scoreboard.sv(126) @ 2715: uvm_test_top.env.scb [AXI_SCOREBOARD] [WRITE RESP PASS] addr=0x00000020 resp=2'b00
UVM_INFO src/tb/sequences/axi_sanity_test.sv(23) @ 2725: uvm_test_top.env.agt.wr_sqr@@wr_seq [AXI_SANITY_WR] WRITE addr=0x00000020 data=0x33493183 resp=0
UVM_INFO src/tb/agent/axi_input_monitor.sv(73) @ 2745: uvm_test_top.env.agt.inp_mon [AXI_INP_MON] [WRITE INPUT COMPLETE] addr=0x00000000 data=0xffc71686 strb=0xf
UVM_INFO src/tb/agent/axi_out_monitor.sv(54) @ 2765: uvm_test_top.env.agt.out_mon [AXI_OUT_MON] [WRITE OUTPUT COMPLETE] resp=0
UVM_INFO src/tb/env/axi_scoreboard.sv(126) @ 2765: uvm_test_top.env.scb [AXI_SCOREBOARD] [WRITE RESP PASS] addr=0x00000000 resp=2'b00
UVM_INFO src/tb/sequences/axi_sanity_test.sv(23) @ 2775: uvm_test_top.env.agt.wr_sqr@@wr_seq [AXI_SANITY_WR] WRITE addr=0x00000000 data=0xffc71686 resp=0
UVM_INFO src/tb/agent/axi_input_monitor.sv(73) @ 2795: uvm_test_top.env.agt.inp_mon [AXI_INP_MON] [WRITE INPUT COMPLETE] addr=0x0000001c data=0x3e53d055 strb=0xf
UVM_INFO src/tb/agent/axi_out_monitor.sv(54) @ 2815: uvm_test_top.env.agt.out_mon [AXI_OUT_MON] [WRITE OUTPUT COMPLETE] resp=0
UVM_INFO src/tb/env/axi_scoreboard.sv(126) @ 2815: uvm_test_top.env.scb [AXI_SCOREBOARD] [WRITE RESP PASS] addr=0x0000001c resp=2'b00
UVM_INFO src/tb/sequences/axi_sanity_test.sv(23) @ 2825: uvm_test_top.env.agt.wr_sqr@@wr_seq [AXI_SANITY_WR] WRITE addr=0x0000001c data=0x3e53d055 resp=0
UVM_INFO src/tb/agent/axi_input_monitor.sv(73) @ 2845: uvm_test_top.env.agt.inp_mon [AXI_INP_MON] [WRITE INPUT COMPLETE] addr=0x00000024 data=0x6b0911ac strb=0xf
UVM_INFO src/tb/agent/axi_out_monitor.sv(54) @ 2865: uvm_test_top.env.agt.out_mon [AXI_OUT_MON] [WRITE OUTPUT COMPLETE] resp=0
UVM_INFO src/tb/env/axi_scoreboard.sv(126) @ 2865: uvm_test_top.env.scb [AXI_SCOREBOARD] [WRITE RESP PASS] addr=0x00000024 resp=2'b00
UVM_INFO src/tb/sequences/axi_sanity_test.sv(23) @ 2875: uvm_test_top.env.agt.wr_sqr@@wr_seq [AXI_SANITY_WR] WRITE addr=0x00000024 data=0x6b0911ac resp=0
UVM_INFO src/tb/agent/axi_input_monitor.sv(73) @ 2895: uvm_test_top.env.agt.inp_mon [AXI_INP_MON] [WRITE INPUT COMPLETE] addr=0x00000000 data=0x835363c1 strb=0xf
UVM_INFO src/tb/agent/axi_out_monitor.sv(54) @ 2915: uvm_test_top.env.agt.out_mon [AXI_OUT_MON] [WRITE OUTPUT COMPLETE] resp=0
UVM_INFO src/tb/env/axi_scoreboard.sv(126) @ 2915: uvm_test_top.env.scb [AXI_SCOREBOARD] [WRITE RESP PASS] addr=0x00000000 resp=2'b00
UVM_INFO src/tb/sequences/axi_sanity_test.sv(23) @ 2925: uvm_test_top.env.agt.wr_sqr@@wr_seq [AXI_SANITY_WR] WRITE addr=0x00000000 data=0x835363c1 resp=0
UVM_INFO src/tb/agent/axi_input_monitor.sv(73) @ 2945: uvm_test_top.env.agt.inp_mon [AXI_INP_MON] [WRITE INPUT COMPLETE] addr=0x00000018 data=0x75af342e strb=0xf
UVM_INFO src/tb/agent/axi_out_monitor.sv(54) @ 2965: uvm_test_top.env.agt.out_mon [AXI_OUT_MON] [WRITE OUTPUT COMPLETE] resp=0
UVM_INFO src/tb/env/axi_scoreboard.sv(126) @ 2965: uvm_test_top.env.scb [AXI_SCOREBOARD] [WRITE RESP PASS] addr=0x00000018 resp=2'b00
UVM_INFO src/tb/sequences/axi_sanity_test.sv(23) @ 2975: uvm_test_top.env.agt.wr_sqr@@wr_seq [AXI_SANITY_WR] WRITE addr=0x00000018 data=0x75af342e resp=0
UVM_INFO src/tb/agent/axi_input_monitor.sv(73) @ 2995: uvm_test_top.env.agt.inp_mon [AXI_INP_MON] [WRITE INPUT COMPLETE] addr=0x00000018 data=0xdaf15669 strb=0xf
UVM_INFO src/tb/agent/axi_out_monitor.sv(54) @ 3015: uvm_test_top.env.agt.out_mon [AXI_OUT_MON] [WRITE OUTPUT COMPLETE] resp=0
UVM_INFO src/tb/env/axi_scoreboard.sv(126) @ 3015: uvm_test_top.env.scb [AXI_SCOREBOARD] [WRITE RESP PASS] addr=0x00000018 resp=2'b00
UVM_INFO src/tb/sequences/axi_sanity_test.sv(23) @ 3025: uvm_test_top.env.agt.wr_sqr@@wr_seq [AXI_SANITY_WR] WRITE addr=0x00000018 data=0xdaf15669 resp=0
UVM_INFO src/tb/agent/axi_input_monitor.sv(73) @ 3045: uvm_test_top.env.agt.inp_mon [AXI_INP_MON] [WRITE INPUT COMPLETE] addr=0x00000024 data=0x1781a52f strb=0xf
UVM_INFO src/tb/agent/axi_out_monitor.sv(54) @ 3065: uvm_test_top.env.agt.out_mon [AXI_OUT_MON] [WRITE OUTPUT COMPLETE] resp=0
UVM_INFO src/tb/env/axi_scoreboard.sv(126) @ 3065: uvm_test_top.env.scb [AXI_SCOREBOARD] [WRITE RESP PASS] addr=0x00000024 resp=2'b00
UVM_INFO src/tb/sequences/axi_sanity_test.sv(23) @ 3075: uvm_test_top.env.agt.wr_sqr@@wr_seq [AXI_SANITY_WR] WRITE addr=0x00000024 data=0x1781a52f resp=0
UVM_INFO src/tb/agent/axi_input_monitor.sv(73) @ 3095: uvm_test_top.env.agt.inp_mon [AXI_INP_MON] [WRITE INPUT COMPLETE] addr=0x00000020 data=0x0b454024 strb=0xf
UVM_INFO src/tb/agent/axi_out_monitor.sv(54) @ 3115: uvm_test_top.env.agt.out_mon [AXI_OUT_MON] [WRITE OUTPUT COMPLETE] resp=0
UVM_INFO src/tb/env/axi_scoreboard.sv(126) @ 3115: uvm_test_top.env.scb [AXI_SCOREBOARD] [WRITE RESP PASS] addr=0x00000020 resp=2'b00
UVM_INFO src/tb/sequences/axi_sanity_test.sv(23) @ 3125: uvm_test_top.env.agt.wr_sqr@@wr_seq [AXI_SANITY_WR] WRITE addr=0x00000020 data=0x0b454024 resp=0
UVM_INFO src/tb/agent/axi_input_monitor.sv(73) @ 3145: uvm_test_top.env.agt.inp_mon [AXI_INP_MON] [WRITE INPUT COMPLETE] addr=0x00000000 data=0x95d71e04 strb=0xf
UVM_INFO src/tb/agent/axi_out_monitor.sv(54) @ 3165: uvm_test_top.env.agt.out_mon [AXI_OUT_MON] [WRITE OUTPUT COMPLETE] resp=0
UVM_INFO src/tb/env/axi_scoreboard.sv(126) @ 3165: uvm_test_top.env.scb [AXI_SCOREBOARD] [WRITE RESP PASS] addr=0x00000000 resp=2'b00
UVM_INFO src/tb/sequences/axi_sanity_test.sv(23) @ 3175: uvm_test_top.env.agt.wr_sqr@@wr_seq [AXI_SANITY_WR] WRITE addr=0x00000000 data=0x95d71e04 resp=0
UVM_INFO src/tb/agent/axi_input_monitor.sv(73) @ 3195: uvm_test_top.env.agt.inp_mon [AXI_INP_MON] [WRITE INPUT COMPLETE] addr=0x00000018 data=0x088a3799 strb=0xf
UVM_INFO src/tb/agent/axi_out_monitor.sv(54) @ 3215: uvm_test_top.env.agt.out_mon [AXI_OUT_MON] [WRITE OUTPUT COMPLETE] resp=0
UVM_INFO src/tb/env/axi_scoreboard.sv(126) @ 3215: uvm_test_top.env.scb [AXI_SCOREBOARD] [WRITE RESP PASS] addr=0x00000018 resp=2'b00
UVM_INFO src/tb/sequences/axi_sanity_test.sv(23) @ 3225: uvm_test_top.env.agt.wr_sqr@@wr_seq [AXI_SANITY_WR] WRITE addr=0x00000018 data=0x088a3799 resp=0
UVM_INFO src/tb/agent/axi_input_monitor.sv(73) @ 3245: uvm_test_top.env.agt.inp_mon [AXI_INP_MON] [WRITE INPUT COMPLETE] addr=0x00000014 data=0x8d7c5eed strb=0xf
UVM_INFO src/tb/agent/axi_out_monitor.sv(54) @ 3265: uvm_test_top.env.agt.out_mon [AXI_OUT_MON] [WRITE OUTPUT COMPLETE] resp=0
UVM_INFO src/tb/env/axi_scoreboard.sv(126) @ 3265: uvm_test_top.env.scb [AXI_SCOREBOARD] [WRITE RESP PASS] addr=0x00000014 resp=2'b00
UVM_INFO src/tb/sequences/axi_sanity_test.sv(23) @ 3275: uvm_test_top.env.agt.wr_sqr@@wr_seq [AXI_SANITY_WR] WRITE addr=0x00000014 data=0x8d7c5eed resp=0
UVM_INFO src/tb/agent/axi_input_monitor.sv(73) @ 3295: uvm_test_top.env.agt.inp_mon [AXI_INP_MON] [WRITE INPUT COMPLETE] addr=0x00000014 data=0x03f3521c strb=0xf
UVM_INFO src/tb/agent/axi_out_monitor.sv(54) @ 3315: uvm_test_top.env.agt.out_mon [AXI_OUT_MON] [WRITE OUTPUT COMPLETE] resp=0
UVM_INFO src/tb/env/axi_scoreboard.sv(126) @ 3315: uvm_test_top.env.scb [AXI_SCOREBOARD] [WRITE RESP PASS] addr=0x00000014 resp=2'b00
UVM_INFO src/tb/sequences/axi_sanity_test.sv(23) @ 3325: uvm_test_top.env.agt.wr_sqr@@wr_seq [AXI_SANITY_WR] WRITE addr=0x00000014 data=0x03f3521c resp=0
UVM_INFO src/tb/agent/axi_input_monitor.sv(73) @ 3345: uvm_test_top.env.agt.inp_mon [AXI_INP_MON] [WRITE INPUT COMPLETE] addr=0x00000000 data=0xceded601 strb=0xf
UVM_INFO src/tb/agent/axi_out_monitor.sv(54) @ 3365: uvm_test_top.env.agt.out_mon [AXI_OUT_MON] [WRITE OUTPUT COMPLETE] resp=0
UVM_INFO src/tb/env/axi_scoreboard.sv(126) @ 3365: uvm_test_top.env.scb [AXI_SCOREBOARD] [WRITE RESP PASS] addr=0x00000000 resp=2'b00
UVM_INFO src/tb/sequences/axi_sanity_test.sv(23) @ 3375: uvm_test_top.env.agt.wr_sqr@@wr_seq [AXI_SANITY_WR] WRITE addr=0x00000000 data=0xceded601 resp=0
UVM_INFO src/tb/agent/axi_input_monitor.sv(73) @ 3395: uvm_test_top.env.agt.inp_mon [AXI_INP_MON] [WRITE INPUT COMPLETE] addr=0x00000008 data=0x275f4c5c strb=0xf
UVM_INFO src/tb/agent/axi_out_monitor.sv(54) @ 3415: uvm_test_top.env.agt.out_mon [AXI_OUT_MON] [WRITE OUTPUT COMPLETE] resp=0
UVM_INFO src/tb/env/axi_scoreboard.sv(126) @ 3415: uvm_test_top.env.scb [AXI_SCOREBOARD] [WRITE RESP PASS] addr=0x00000008 resp=2'b00
UVM_INFO src/tb/sequences/axi_sanity_test.sv(23) @ 3425: uvm_test_top.env.agt.wr_sqr@@wr_seq [AXI_SANITY_WR] WRITE addr=0x00000008 data=0x275f4c5c resp=0
UVM_INFO src/tb/agent/axi_input_monitor.sv(73) @ 3445: uvm_test_top.env.agt.inp_mon [AXI_INP_MON] [WRITE INPUT COMPLETE] addr=0x0000001c data=0xf288b213 strb=0xf
UVM_INFO src/tb/agent/axi_out_monitor.sv(54) @ 3465: uvm_test_top.env.agt.out_mon [AXI_OUT_MON] [WRITE OUTPUT COMPLETE] resp=0
UVM_INFO src/tb/env/axi_scoreboard.sv(126) @ 3465: uvm_test_top.env.scb [AXI_SCOREBOARD] [WRITE RESP PASS] addr=0x0000001c resp=2'b00
UVM_INFO src/tb/sequences/axi_sanity_test.sv(23) @ 3475: uvm_test_top.env.agt.wr_sqr@@wr_seq [AXI_SANITY_WR] WRITE addr=0x0000001c data=0xf288b213 resp=0
UVM_INFO src/tb/agent/axi_input_monitor.sv(73) @ 3495: uvm_test_top.env.agt.inp_mon [AXI_INP_MON] [WRITE INPUT COMPLETE] addr=0x00000000 data=0xf1026a79 strb=0xf
UVM_INFO src/tb/agent/axi_out_monitor.sv(54) @ 3515: uvm_test_top.env.agt.out_mon [AXI_OUT_MON] [WRITE OUTPUT COMPLETE] resp=0
UVM_INFO src/tb/env/axi_scoreboard.sv(126) @ 3515: uvm_test_top.env.scb [AXI_SCOREBOARD] [WRITE RESP PASS] addr=0x00000000 resp=2'b00
UVM_INFO src/tb/sequences/axi_sanity_test.sv(23) @ 3525: uvm_test_top.env.agt.wr_sqr@@wr_seq [AXI_SANITY_WR] WRITE addr=0x00000000 data=0xf1026a79 resp=0
UVM_INFO src/tb/sequences/axi_sanity_test.sv(27) @ 3525: uvm_test_top.env.agt.wr_sqr@@wr_seq [AXI_SANITY_WR] Sanity Write Sequence Complete
UVM_INFO src/tb/sequences/axi_sanity_test.sv(43) @ 3525: uvm_test_top.env.agt.rd_sqr@@rd_seq [AXI_SANITY_RD] Starting Sanity Read Sequence
UVM_INFO src/tb/agent/axi_input_monitor.sv(102) @ 3535: uvm_test_top.env.agt.inp_mon [AXI_INP_MON] [READ INPUT COMPLETE] addr=0x0000000c
UVM_INFO src/tb/agent/axi_out_monitor.sv(81) @ 3545: uvm_test_top.env.agt.out_mon [AXI_OUT_MON] [READ OUTPUT COMPLETE] data=0x6abc780a resp=0
UVM_INFO src/tb/env/axi_scoreboard.sv(174) @ 3545: uvm_test_top.env.scb [AXI_SCOREBOARD] [READ DATA PASS] addr=0x0000000c data=0x6abc780a
UVM_INFO src/tb/sequences/axi_sanity_test.sv(52) @ 3555: uvm_test_top.env.agt.rd_sqr@@rd_seq [AXI_SANITY_RD] READ addr=0x0000000c data=0x6abc780a resp=0
UVM_INFO src/tb/agent/axi_input_monitor.sv(102) @ 3565: uvm_test_top.env.agt.inp_mon [AXI_INP_MON] [READ INPUT COMPLETE] addr=0x00000018
UVM_INFO src/tb/agent/axi_out_monitor.sv(81) @ 3575: uvm_test_top.env.agt.out_mon [AXI_OUT_MON] [READ OUTPUT COMPLETE] data=0x088a3799 resp=0
UVM_INFO src/tb/env/axi_scoreboard.sv(174) @ 3575: uvm_test_top.env.scb [AXI_SCOREBOARD] [READ DATA PASS] addr=0x00000018 data=0x088a3799
UVM_INFO src/tb/sequences/axi_sanity_test.sv(52) @ 3585: uvm_test_top.env.agt.rd_sqr@@rd_seq [AXI_SANITY_RD] READ addr=0x00000018 data=0x088a3799 resp=0
UVM_INFO src/tb/agent/axi_input_monitor.sv(102) @ 3595: uvm_test_top.env.agt.inp_mon [AXI_INP_MON] [READ INPUT COMPLETE] addr=0x00000018
UVM_INFO src/tb/agent/axi_out_monitor.sv(81) @ 3605: uvm_test_top.env.agt.out_mon [AXI_OUT_MON] [READ OUTPUT COMPLETE] data=0x088a3799 resp=0
UVM_INFO src/tb/env/axi_scoreboard.sv(174) @ 3605: uvm_test_top.env.scb [AXI_SCOREBOARD] [READ DATA PASS] addr=0x00000018 data=0x088a3799
UVM_INFO src/tb/sequences/axi_sanity_test.sv(52) @ 3615: uvm_test_top.env.agt.rd_sqr@@rd_seq [AXI_SANITY_RD] READ addr=0x00000018 data=0x088a3799 resp=0
UVM_INFO src/tb/agent/axi_input_monitor.sv(102) @ 3625: uvm_test_top.env.agt.inp_mon [AXI_INP_MON] [READ INPUT COMPLETE] addr=0x00000028
UVM_INFO src/tb/agent/axi_out_monitor.sv(81) @ 3635: uvm_test_top.env.agt.out_mon [AXI_OUT_MON] [READ OUTPUT COMPLETE] data=0x00000000 resp=0
UVM_INFO src/tb/env/axi_scoreboard.sv(174) @ 3635: uvm_test_top.env.scb [AXI_SCOREBOARD] [READ DATA PASS] addr=0x00000028 data=0x00000000
UVM_INFO src/tb/sequences/axi_sanity_test.sv(52) @ 3645: uvm_test_top.env.agt.rd_sqr@@rd_seq [AXI_SANITY_RD] READ addr=0x00000028 data=0x00000000 resp=0
UVM_INFO src/tb/agent/axi_input_monitor.sv(102) @ 3655: uvm_test_top.env.agt.inp_mon [AXI_INP_MON] [READ INPUT COMPLETE] addr=0x0000003c
UVM_INFO src/tb/agent/axi_out_monitor.sv(81) @ 3665: uvm_test_top.env.agt.out_mon [AXI_OUT_MON] [READ OUTPUT COMPLETE] data=0x9b4e8336 resp=0
UVM_INFO src/tb/env/axi_scoreboard.sv(174) @ 3665: uvm_test_top.env.scb [AXI_SCOREBOARD] [READ DATA PASS] addr=0x0000003c data=0x9b4e8336
UVM_INFO src/tb/sequences/axi_sanity_test.sv(52) @ 3675: uvm_test_top.env.agt.rd_sqr@@rd_seq [AXI_SANITY_RD] READ addr=0x0000003c data=0x9b4e8336 resp=0
UVM_INFO src/tb/agent/axi_input_monitor.sv(102) @ 3685: uvm_test_top.env.agt.inp_mon [AXI_INP_MON] [READ INPUT COMPLETE] addr=0x00000028
UVM_INFO src/tb/agent/axi_out_monitor.sv(81) @ 3695: uvm_test_top.env.agt.out_mon [AXI_OUT_MON] [READ OUTPUT COMPLETE] data=0x00000000 resp=0
UVM_INFO src/tb/env/axi_scoreboard.sv(174) @ 3695: uvm_test_top.env.scb [AXI_SCOREBOARD] [READ DATA PASS] addr=0x00000028 data=0x00000000
UVM_INFO src/tb/sequences/axi_sanity_test.sv(52) @ 3705: uvm_test_top.env.agt.rd_sqr@@rd_seq [AXI_SANITY_RD] READ addr=0x00000028 data=0x00000000 resp=0
UVM_INFO src/tb/agent/axi_input_monitor.sv(102) @ 3715: uvm_test_top.env.agt.inp_mon [AXI_INP_MON] [READ INPUT COMPLETE] addr=0x00000020
UVM_INFO src/tb/agent/axi_out_monitor.sv(81) @ 3725: uvm_test_top.env.agt.out_mon [AXI_OUT_MON] [READ OUTPUT COMPLETE] data=0x0b454024 resp=0
UVM_INFO src/tb/env/axi_scoreboard.sv(174) @ 3725: uvm_test_top.env.scb [AXI_SCOREBOARD] [READ DATA PASS] addr=0x00000020 data=0x0b454024
UVM_INFO src/tb/sequences/axi_sanity_test.sv(52) @ 3735: uvm_test_top.env.agt.rd_sqr@@rd_seq [AXI_SANITY_RD] READ addr=0x00000020 data=0x0b454024 resp=0
UVM_INFO src/tb/agent/axi_input_monitor.sv(102) @ 3745: uvm_test_top.env.agt.inp_mon [AXI_INP_MON] [READ INPUT COMPLETE] addr=0x0000001c
UVM_INFO src/tb/agent/axi_out_monitor.sv(81) @ 3755: uvm_test_top.env.agt.out_mon [AXI_OUT_MON] [READ OUTPUT COMPLETE] data=0xf288b213 resp=0
UVM_INFO src/tb/env/axi_scoreboard.sv(174) @ 3755: uvm_test_top.env.scb [AXI_SCOREBOARD] [READ DATA PASS] addr=0x0000001c data=0xf288b213
UVM_INFO src/tb/sequences/axi_sanity_test.sv(52) @ 3765: uvm_test_top.env.agt.rd_sqr@@rd_seq [AXI_SANITY_RD] READ addr=0x0000001c data=0xf288b213 resp=0
UVM_INFO src/tb/agent/axi_input_monitor.sv(102) @ 3775: uvm_test_top.env.agt.inp_mon [AXI_INP_MON] [READ INPUT COMPLETE] addr=0x0000003c
UVM_INFO src/tb/agent/axi_out_monitor.sv(81) @ 3785: uvm_test_top.env.agt.out_mon [AXI_OUT_MON] [READ OUTPUT COMPLETE] data=0x9b4e8336 resp=0
UVM_INFO src/tb/env/axi_scoreboard.sv(174) @ 3785: uvm_test_top.env.scb [AXI_SCOREBOARD] [READ DATA PASS] addr=0x0000003c data=0x9b4e8336
UVM_INFO src/tb/sequences/axi_sanity_test.sv(52) @ 3795: uvm_test_top.env.agt.rd_sqr@@rd_seq [AXI_SANITY_RD] READ addr=0x0000003c data=0x9b4e8336 resp=0
UVM_INFO src/tb/agent/axi_input_monitor.sv(102) @ 3805: uvm_test_top.env.agt.inp_mon [AXI_INP_MON] [READ INPUT COMPLETE] addr=0x00000000
UVM_INFO src/tb/agent/axi_out_monitor.sv(81) @ 3815: uvm_test_top.env.agt.out_mon [AXI_OUT_MON] [READ OUTPUT COMPLETE] data=0xf1026a79 resp=0
UVM_INFO src/tb/env/axi_scoreboard.sv(174) @ 3815: uvm_test_top.env.scb [AXI_SCOREBOARD] [READ DATA PASS] addr=0x00000000 data=0xf1026a79
UVM_INFO src/tb/sequences/axi_sanity_test.sv(52) @ 3825: uvm_test_top.env.agt.rd_sqr@@rd_seq [AXI_SANITY_RD] READ addr=0x00000000 data=0xf1026a79 resp=0
UVM_INFO src/tb/agent/axi_input_monitor.sv(102) @ 3835: uvm_test_top.env.agt.inp_mon [AXI_INP_MON] [READ INPUT COMPLETE] addr=0x0000000c
UVM_INFO src/tb/agent/axi_out_monitor.sv(81) @ 3845: uvm_test_top.env.agt.out_mon [AXI_OUT_MON] [READ OUTPUT COMPLETE] data=0x6abc780a resp=0
UVM_INFO src/tb/env/axi_scoreboard.sv(174) @ 3845: uvm_test_top.env.scb [AXI_SCOREBOARD] [READ DATA PASS] addr=0x0000000c data=0x6abc780a
UVM_INFO src/tb/sequences/axi_sanity_test.sv(52) @ 3855: uvm_test_top.env.agt.rd_sqr@@rd_seq [AXI_SANITY_RD] READ addr=0x0000000c data=0x6abc780a resp=0
UVM_INFO src/tb/agent/axi_input_monitor.sv(102) @ 3865: uvm_test_top.env.agt.inp_mon [AXI_INP_MON] [READ INPUT COMPLETE] addr=0x0000003c
UVM_INFO src/tb/agent/axi_out_monitor.sv(81) @ 3875: uvm_test_top.env.agt.out_mon [AXI_OUT_MON] [READ OUTPUT COMPLETE] data=0x9b4e8336 resp=0
UVM_INFO src/tb/env/axi_scoreboard.sv(174) @ 3875: uvm_test_top.env.scb [AXI_SCOREBOARD] [READ DATA PASS] addr=0x0000003c data=0x9b4e8336
UVM_INFO src/tb/sequences/axi_sanity_test.sv(52) @ 3885: uvm_test_top.env.agt.rd_sqr@@rd_seq [AXI_SANITY_RD] READ addr=0x0000003c data=0x9b4e8336 resp=0
UVM_INFO src/tb/agent/axi_input_monitor.sv(102) @ 3895: uvm_test_top.env.agt.inp_mon [AXI_INP_MON] [READ INPUT COMPLETE] addr=0x00000024
UVM_INFO src/tb/agent/axi_out_monitor.sv(81) @ 3905: uvm_test_top.env.agt.out_mon [AXI_OUT_MON] [READ OUTPUT COMPLETE] data=0x1781a52f resp=0
UVM_INFO src/tb/env/axi_scoreboard.sv(174) @ 3905: uvm_test_top.env.scb [AXI_SCOREBOARD] [READ DATA PASS] addr=0x00000024 data=0x1781a52f
UVM_INFO src/tb/sequences/axi_sanity_test.sv(52) @ 3915: uvm_test_top.env.agt.rd_sqr@@rd_seq [AXI_SANITY_RD] READ addr=0x00000024 data=0x1781a52f resp=0
UVM_INFO src/tb/agent/axi_input_monitor.sv(102) @ 3925: uvm_test_top.env.agt.inp_mon [AXI_INP_MON] [READ INPUT COMPLETE] addr=0x00000000
UVM_INFO src/tb/agent/axi_out_monitor.sv(81) @ 3935: uvm_test_top.env.agt.out_mon [AXI_OUT_MON] [READ OUTPUT COMPLETE] data=0xf1026a79 resp=0
UVM_INFO src/tb/env/axi_scoreboard.sv(174) @ 3935: uvm_test_top.env.scb [AXI_SCOREBOARD] [READ DATA PASS] addr=0x00000000 data=0xf1026a79
UVM_INFO src/tb/sequences/axi_sanity_test.sv(52) @ 3945: uvm_test_top.env.agt.rd_sqr@@rd_seq [AXI_SANITY_RD] READ addr=0x00000000 data=0xf1026a79 resp=0
UVM_INFO src/tb/agent/axi_input_monitor.sv(102) @ 3955: uvm_test_top.env.agt.inp_mon [AXI_INP_MON] [READ INPUT COMPLETE] addr=0x0000002c
UVM_INFO src/tb/agent/axi_out_monitor.sv(81) @ 3965: uvm_test_top.env.agt.out_mon [AXI_OUT_MON] [READ OUTPUT COMPLETE] data=0x00000000 resp=0
UVM_INFO src/tb/env/axi_scoreboard.sv(174) @ 3965: uvm_test_top.env.scb [AXI_SCOREBOARD] [READ DATA PASS] addr=0x0000002c data=0x00000000
UVM_INFO src/tb/sequences/axi_sanity_test.sv(52) @ 3975: uvm_test_top.env.agt.rd_sqr@@rd_seq [AXI_SANITY_RD] READ addr=0x0000002c data=0x00000000 resp=0
UVM_INFO src/tb/agent/axi_input_monitor.sv(102) @ 3985: uvm_test_top.env.agt.inp_mon [AXI_INP_MON] [READ INPUT COMPLETE] addr=0x00000000
UVM_INFO src/tb/agent/axi_out_monitor.sv(81) @ 3995: uvm_test_top.env.agt.out_mon [AXI_OUT_MON] [READ OUTPUT COMPLETE] data=0xf1026a79 resp=0
UVM_INFO src/tb/env/axi_scoreboard.sv(174) @ 3995: uvm_test_top.env.scb [AXI_SCOREBOARD] [READ DATA PASS] addr=0x00000000 data=0xf1026a79
UVM_INFO src/tb/sequences/axi_sanity_test.sv(52) @ 4005: uvm_test_top.env.agt.rd_sqr@@rd_seq [AXI_SANITY_RD] READ addr=0x00000000 data=0xf1026a79 resp=0
UVM_INFO src/tb/agent/axi_input_monitor.sv(102) @ 4015: uvm_test_top.env.agt.inp_mon [AXI_INP_MON] [READ INPUT COMPLETE] addr=0x0000000c
UVM_INFO src/tb/agent/axi_out_monitor.sv(81) @ 4025: uvm_test_top.env.agt.out_mon [AXI_OUT_MON] [READ OUTPUT COMPLETE] data=0x6abc780a resp=0
UVM_INFO src/tb/env/axi_scoreboard.sv(174) @ 4025: uvm_test_top.env.scb [AXI_SCOREBOARD] [READ DATA PASS] addr=0x0000000c data=0x6abc780a
UVM_INFO src/tb/sequences/axi_sanity_test.sv(52) @ 4035: uvm_test_top.env.agt.rd_sqr@@rd_seq [AXI_SANITY_RD] READ addr=0x0000000c data=0x6abc780a resp=0
UVM_INFO src/tb/agent/axi_input_monitor.sv(102) @ 4045: uvm_test_top.env.agt.inp_mon [AXI_INP_MON] [READ INPUT COMPLETE] addr=0x00000008
UVM_INFO src/tb/agent/axi_out_monitor.sv(81) @ 4055: uvm_test_top.env.agt.out_mon [AXI_OUT_MON] [READ OUTPUT COMPLETE] data=0x275f4c5c resp=0
UVM_INFO src/tb/env/axi_scoreboard.sv(174) @ 4055: uvm_test_top.env.scb [AXI_SCOREBOARD] [READ DATA PASS] addr=0x00000008 data=0x275f4c5c
UVM_INFO src/tb/sequences/axi_sanity_test.sv(52) @ 4065: uvm_test_top.env.agt.rd_sqr@@rd_seq [AXI_SANITY_RD] READ addr=0x00000008 data=0x275f4c5c resp=0
UVM_INFO src/tb/agent/axi_input_monitor.sv(102) @ 4075: uvm_test_top.env.agt.inp_mon [AXI_INP_MON] [READ INPUT COMPLETE] addr=0x0000000c
UVM_INFO src/tb/agent/axi_out_monitor.sv(81) @ 4085: uvm_test_top.env.agt.out_mon [AXI_OUT_MON] [READ OUTPUT COMPLETE] data=0x6abc780a resp=0
UVM_INFO src/tb/env/axi_scoreboard.sv(174) @ 4085: uvm_test_top.env.scb [AXI_SCOREBOARD] [READ DATA PASS] addr=0x0000000c data=0x6abc780a
UVM_INFO src/tb/sequences/axi_sanity_test.sv(52) @ 4095: uvm_test_top.env.agt.rd_sqr@@rd_seq [AXI_SANITY_RD] READ addr=0x0000000c data=0x6abc780a resp=0
UVM_INFO src/tb/agent/axi_input_monitor.sv(102) @ 4105: uvm_test_top.env.agt.inp_mon [AXI_INP_MON] [READ INPUT COMPLETE] addr=0x00000028
UVM_INFO src/tb/agent/axi_out_monitor.sv(81) @ 4115: uvm_test_top.env.agt.out_mon [AXI_OUT_MON] [READ OUTPUT COMPLETE] data=0x00000000 resp=0
UVM_INFO src/tb/env/axi_scoreboard.sv(174) @ 4115: uvm_test_top.env.scb [AXI_SCOREBOARD] [READ DATA PASS] addr=0x00000028 data=0x00000000
UVM_INFO src/tb/sequences/axi_sanity_test.sv(52) @ 4125: uvm_test_top.env.agt.rd_sqr@@rd_seq [AXI_SANITY_RD] READ addr=0x00000028 data=0x00000000 resp=0
UVM_INFO src/tb/agent/axi_input_monitor.sv(102) @ 4135: uvm_test_top.env.agt.inp_mon [AXI_INP_MON] [READ INPUT COMPLETE] addr=0x0000002c
UVM_INFO src/tb/agent/axi_out_monitor.sv(81) @ 4145: uvm_test_top.env.agt.out_mon [AXI_OUT_MON] [READ OUTPUT COMPLETE] data=0x00000000 resp=0
UVM_INFO src/tb/env/axi_scoreboard.sv(174) @ 4145: uvm_test_top.env.scb [AXI_SCOREBOARD] [READ DATA PASS] addr=0x0000002c data=0x00000000
UVM_INFO src/tb/sequences/axi_sanity_test.sv(52) @ 4155: uvm_test_top.env.agt.rd_sqr@@rd_seq [AXI_SANITY_RD] READ addr=0x0000002c data=0x00000000 resp=0
UVM_INFO src/tb/agent/axi_input_monitor.sv(102) @ 4165: uvm_test_top.env.agt.inp_mon [AXI_INP_MON] [READ INPUT COMPLETE] addr=0x0000003c
UVM_INFO src/tb/agent/axi_out_monitor.sv(81) @ 4175: uvm_test_top.env.agt.out_mon [AXI_OUT_MON] [READ OUTPUT COMPLETE] data=0x9b4e8336 resp=0
UVM_INFO src/tb/env/axi_scoreboard.sv(174) @ 4175: uvm_test_top.env.scb [AXI_SCOREBOARD] [READ DATA PASS] addr=0x0000003c data=0x9b4e8336
UVM_INFO src/tb/sequences/axi_sanity_test.sv(52) @ 4185: uvm_test_top.env.agt.rd_sqr@@rd_seq [AXI_SANITY_RD] READ addr=0x0000003c data=0x9b4e8336 resp=0
UVM_INFO src/tb/agent/axi_input_monitor.sv(102) @ 4195: uvm_test_top.env.agt.inp_mon [AXI_INP_MON] [READ INPUT COMPLETE] addr=0x00000024
UVM_INFO src/tb/agent/axi_out_monitor.sv(81) @ 4205: uvm_test_top.env.agt.out_mon [AXI_OUT_MON] [READ OUTPUT COMPLETE] data=0x1781a52f resp=0
UVM_INFO src/tb/env/axi_scoreboard.sv(174) @ 4205: uvm_test_top.env.scb [AXI_SCOREBOARD] [READ DATA PASS] addr=0x00000024 data=0x1781a52f
UVM_INFO src/tb/sequences/axi_sanity_test.sv(52) @ 4215: uvm_test_top.env.agt.rd_sqr@@rd_seq [AXI_SANITY_RD] READ addr=0x00000024 data=0x1781a52f resp=0
UVM_INFO src/tb/agent/axi_input_monitor.sv(102) @ 4225: uvm_test_top.env.agt.inp_mon [AXI_INP_MON] [READ INPUT COMPLETE] addr=0x00000024
UVM_INFO src/tb/agent/axi_out_monitor.sv(81) @ 4235: uvm_test_top.env.agt.out_mon [AXI_OUT_MON] [READ OUTPUT COMPLETE] data=0x1781a52f resp=0
UVM_INFO src/tb/env/axi_scoreboard.sv(174) @ 4235: uvm_test_top.env.scb [AXI_SCOREBOARD] [READ DATA PASS] addr=0x00000024 data=0x1781a52f
UVM_INFO src/tb/sequences/axi_sanity_test.sv(52) @ 4245: uvm_test_top.env.agt.rd_sqr@@rd_seq [AXI_SANITY_RD] READ addr=0x00000024 data=0x1781a52f resp=0
UVM_INFO src/tb/agent/axi_input_monitor.sv(102) @ 4255: uvm_test_top.env.agt.inp_mon [AXI_INP_MON] [READ INPUT COMPLETE] addr=0x00000000
UVM_INFO src/tb/agent/axi_out_monitor.sv(81) @ 4265: uvm_test_top.env.agt.out_mon [AXI_OUT_MON] [READ OUTPUT COMPLETE] data=0xf1026a79 resp=0
UVM_INFO src/tb/env/axi_scoreboard.sv(174) @ 4265: uvm_test_top.env.scb [AXI_SCOREBOARD] [READ DATA PASS] addr=0x00000000 data=0xf1026a79
UVM_INFO src/tb/sequences/axi_sanity_test.sv(52) @ 4275: uvm_test_top.env.agt.rd_sqr@@rd_seq [AXI_SANITY_RD] READ addr=0x00000000 data=0xf1026a79 resp=0
UVM_INFO src/tb/agent/axi_input_monitor.sv(102) @ 4285: uvm_test_top.env.agt.inp_mon [AXI_INP_MON] [READ INPUT COMPLETE] addr=0x0000002c
UVM_INFO src/tb/agent/axi_out_monitor.sv(81) @ 4295: uvm_test_top.env.agt.out_mon [AXI_OUT_MON] [READ OUTPUT COMPLETE] data=0x00000000 resp=0
UVM_INFO src/tb/env/axi_scoreboard.sv(174) @ 4295: uvm_test_top.env.scb [AXI_SCOREBOARD] [READ DATA PASS] addr=0x0000002c data=0x00000000
UVM_INFO src/tb/sequences/axi_sanity_test.sv(52) @ 4305: uvm_test_top.env.agt.rd_sqr@@rd_seq [AXI_SANITY_RD] READ addr=0x0000002c data=0x00000000 resp=0
UVM_INFO src/tb/agent/axi_input_monitor.sv(102) @ 4315: uvm_test_top.env.agt.inp_mon [AXI_INP_MON] [READ INPUT COMPLETE] addr=0x00000018
UVM_INFO src/tb/agent/axi_out_monitor.sv(81) @ 4325: uvm_test_top.env.agt.out_mon [AXI_OUT_MON] [READ OUTPUT COMPLETE] data=0x088a3799 resp=0
UVM_INFO src/tb/env/axi_scoreboard.sv(174) @ 4325: uvm_test_top.env.scb [AXI_SCOREBOARD] [READ DATA PASS] addr=0x00000018 data=0x088a3799
UVM_INFO src/tb/sequences/axi_sanity_test.sv(52) @ 4335: uvm_test_top.env.agt.rd_sqr@@rd_seq [AXI_SANITY_RD] READ addr=0x00000018 data=0x088a3799 resp=0
UVM_INFO src/tb/agent/axi_input_monitor.sv(102) @ 4345: uvm_test_top.env.agt.inp_mon [AXI_INP_MON] [READ INPUT COMPLETE] addr=0x00000024
UVM_INFO src/tb/agent/axi_out_monitor.sv(81) @ 4355: uvm_test_top.env.agt.out_mon [AXI_OUT_MON] [READ OUTPUT COMPLETE] data=0x1781a52f resp=0
UVM_INFO src/tb/env/axi_scoreboard.sv(174) @ 4355: uvm_test_top.env.scb [AXI_SCOREBOARD] [READ DATA PASS] addr=0x00000024 data=0x1781a52f
UVM_INFO src/tb/sequences/axi_sanity_test.sv(52) @ 4365: uvm_test_top.env.agt.rd_sqr@@rd_seq [AXI_SANITY_RD] READ addr=0x00000024 data=0x1781a52f resp=0
UVM_INFO src/tb/agent/axi_input_monitor.sv(102) @ 4375: uvm_test_top.env.agt.inp_mon [AXI_INP_MON] [READ INPUT COMPLETE] addr=0x00000028
UVM_INFO src/tb/agent/axi_out_monitor.sv(81) @ 4385: uvm_test_top.env.agt.out_mon [AXI_OUT_MON] [READ OUTPUT COMPLETE] data=0x00000000 resp=0
UVM_INFO src/tb/env/axi_scoreboard.sv(174) @ 4385: uvm_test_top.env.scb [AXI_SCOREBOARD] [READ DATA PASS] addr=0x00000028 data=0x00000000
UVM_INFO src/tb/sequences/axi_sanity_test.sv(52) @ 4395: uvm_test_top.env.agt.rd_sqr@@rd_seq [AXI_SANITY_RD] READ addr=0x00000028 data=0x00000000 resp=0
UVM_INFO src/tb/agent/axi_input_monitor.sv(102) @ 4405: uvm_test_top.env.agt.inp_mon [AXI_INP_MON] [READ INPUT COMPLETE] addr=0x0000002c
UVM_INFO src/tb/agent/axi_out_monitor.sv(81) @ 4415: uvm_test_top.env.agt.out_mon [AXI_OUT_MON] [READ OUTPUT COMPLETE] data=0x00000000 resp=0
UVM_INFO src/tb/env/axi_scoreboard.sv(174) @ 4415: uvm_test_top.env.scb [AXI_SCOREBOARD] [READ DATA PASS] addr=0x0000002c data=0x00000000
UVM_INFO src/tb/sequences/axi_sanity_test.sv(52) @ 4425: uvm_test_top.env.agt.rd_sqr@@rd_seq [AXI_SANITY_RD] READ addr=0x0000002c data=0x00000000 resp=0
UVM_INFO src/tb/agent/axi_input_monitor.sv(102) @ 4435: uvm_test_top.env.agt.inp_mon [AXI_INP_MON] [READ INPUT COMPLETE] addr=0x0000003c
UVM_INFO src/tb/agent/axi_out_monitor.sv(81) @ 4445: uvm_test_top.env.agt.out_mon [AXI_OUT_MON] [READ OUTPUT COMPLETE] data=0x9b4e8336 resp=0
UVM_INFO src/tb/env/axi_scoreboard.sv(174) @ 4445: uvm_test_top.env.scb [AXI_SCOREBOARD] [READ DATA PASS] addr=0x0000003c data=0x9b4e8336
UVM_INFO src/tb/sequences/axi_sanity_test.sv(52) @ 4455: uvm_test_top.env.agt.rd_sqr@@rd_seq [AXI_SANITY_RD] READ addr=0x0000003c data=0x9b4e8336 resp=0
UVM_INFO src/tb/agent/axi_input_monitor.sv(102) @ 4465: uvm_test_top.env.agt.inp_mon [AXI_INP_MON] [READ INPUT COMPLETE] addr=0x0000002c
UVM_INFO src/tb/agent/axi_out_monitor.sv(81) @ 4475: uvm_test_top.env.agt.out_mon [AXI_OUT_MON] [READ OUTPUT COMPLETE] data=0x00000000 resp=0
UVM_INFO src/tb/env/axi_scoreboard.sv(174) @ 4475: uvm_test_top.env.scb [AXI_SCOREBOARD] [READ DATA PASS] addr=0x0000002c data=0x00000000
UVM_INFO src/tb/sequences/axi_sanity_test.sv(52) @ 4485: uvm_test_top.env.agt.rd_sqr@@rd_seq [AXI_SANITY_RD] READ addr=0x0000002c data=0x00000000 resp=0
UVM_INFO src/tb/agent/axi_input_monitor.sv(102) @ 4495: uvm_test_top.env.agt.inp_mon [AXI_INP_MON] [READ INPUT COMPLETE] addr=0x00000020
UVM_INFO src/tb/agent/axi_out_monitor.sv(81) @ 4505: uvm_test_top.env.agt.out_mon [AXI_OUT_MON] [READ OUTPUT COMPLETE] data=0x0b454024 resp=0
UVM_INFO src/tb/env/axi_scoreboard.sv(174) @ 4505: uvm_test_top.env.scb [AXI_SCOREBOARD] [READ DATA PASS] addr=0x00000020 data=0x0b454024
UVM_INFO src/tb/sequences/axi_sanity_test.sv(52) @ 4515: uvm_test_top.env.agt.rd_sqr@@rd_seq [AXI_SANITY_RD] READ addr=0x00000020 data=0x0b454024 resp=0
UVM_INFO src/tb/agent/axi_input_monitor.sv(102) @ 4525: uvm_test_top.env.agt.inp_mon [AXI_INP_MON] [READ INPUT COMPLETE] addr=0x00000008
UVM_INFO src/tb/agent/axi_out_monitor.sv(81) @ 4535: uvm_test_top.env.agt.out_mon [AXI_OUT_MON] [READ OUTPUT COMPLETE] data=0x275f4c5c resp=0
UVM_INFO src/tb/env/axi_scoreboard.sv(174) @ 4535: uvm_test_top.env.scb [AXI_SCOREBOARD] [READ DATA PASS] addr=0x00000008 data=0x275f4c5c
UVM_INFO src/tb/sequences/axi_sanity_test.sv(52) @ 4545: uvm_test_top.env.agt.rd_sqr@@rd_seq [AXI_SANITY_RD] READ addr=0x00000008 data=0x275f4c5c resp=0
UVM_INFO src/tb/agent/axi_input_monitor.sv(102) @ 4555: uvm_test_top.env.agt.inp_mon [AXI_INP_MON] [READ INPUT COMPLETE] addr=0x0000000c
UVM_INFO src/tb/agent/axi_out_monitor.sv(81) @ 4565: uvm_test_top.env.agt.out_mon [AXI_OUT_MON] [READ OUTPUT COMPLETE] data=0x6abc780a resp=0
UVM_INFO src/tb/env/axi_scoreboard.sv(174) @ 4565: uvm_test_top.env.scb [AXI_SCOREBOARD] [READ DATA PASS] addr=0x0000000c data=0x6abc780a
UVM_INFO src/tb/sequences/axi_sanity_test.sv(52) @ 4575: uvm_test_top.env.agt.rd_sqr@@rd_seq [AXI_SANITY_RD] READ addr=0x0000000c data=0x6abc780a resp=0
UVM_INFO src/tb/agent/axi_input_monitor.sv(102) @ 4585: uvm_test_top.env.agt.inp_mon [AXI_INP_MON] [READ INPUT COMPLETE] addr=0x00000028
UVM_INFO src/tb/agent/axi_out_monitor.sv(81) @ 4595: uvm_test_top.env.agt.out_mon [AXI_OUT_MON] [READ OUTPUT COMPLETE] data=0x00000000 resp=0
UVM_INFO src/tb/env/axi_scoreboard.sv(174) @ 4595: uvm_test_top.env.scb [AXI_SCOREBOARD] [READ DATA PASS] addr=0x00000028 data=0x00000000
UVM_INFO src/tb/sequences/axi_sanity_test.sv(52) @ 4605: uvm_test_top.env.agt.rd_sqr@@rd_seq [AXI_SANITY_RD] READ addr=0x00000028 data=0x00000000 resp=0
UVM_INFO src/tb/agent/axi_input_monitor.sv(102) @ 4615: uvm_test_top.env.agt.inp_mon [AXI_INP_MON] [READ INPUT COMPLETE] addr=0x00000010
UVM_INFO src/tb/agent/axi_out_monitor.sv(81) @ 4625: uvm_test_top.env.agt.out_mon [AXI_OUT_MON] [READ OUTPUT COMPLETE] data=0x9286ef0f resp=0
UVM_INFO src/tb/env/axi_scoreboard.sv(174) @ 4625: uvm_test_top.env.scb [AXI_SCOREBOARD] [READ DATA PASS] addr=0x00000010 data=0x9286ef0f
UVM_INFO src/tb/sequences/axi_sanity_test.sv(52) @ 4635: uvm_test_top.env.agt.rd_sqr@@rd_seq [AXI_SANITY_RD] READ addr=0x00000010 data=0x9286ef0f resp=0
UVM_INFO src/tb/agent/axi_input_monitor.sv(102) @ 4645: uvm_test_top.env.agt.inp_mon [AXI_INP_MON] [READ INPUT COMPLETE] addr=0x00000010
UVM_INFO src/tb/agent/axi_out_monitor.sv(81) @ 4655: uvm_test_top.env.agt.out_mon [AXI_OUT_MON] [READ OUTPUT COMPLETE] data=0x9286ef0f resp=0
UVM_INFO src/tb/env/axi_scoreboard.sv(174) @ 4655: uvm_test_top.env.scb [AXI_SCOREBOARD] [READ DATA PASS] addr=0x00000010 data=0x9286ef0f
UVM_INFO src/tb/sequences/axi_sanity_test.sv(52) @ 4665: uvm_test_top.env.agt.rd_sqr@@rd_seq [AXI_SANITY_RD] READ addr=0x00000010 data=0x9286ef0f resp=0
UVM_INFO src/tb/agent/axi_input_monitor.sv(102) @ 4675: uvm_test_top.env.agt.inp_mon [AXI_INP_MON] [READ INPUT COMPLETE] addr=0x0000000c
UVM_INFO src/tb/agent/axi_out_monitor.sv(81) @ 4685: uvm_test_top.env.agt.out_mon [AXI_OUT_MON] [READ OUTPUT COMPLETE] data=0x6abc780a resp=0
UVM_INFO src/tb/env/axi_scoreboard.sv(174) @ 4685: uvm_test_top.env.scb [AXI_SCOREBOARD] [READ DATA PASS] addr=0x0000000c data=0x6abc780a
UVM_INFO src/tb/sequences/axi_sanity_test.sv(52) @ 4695: uvm_test_top.env.agt.rd_sqr@@rd_seq [AXI_SANITY_RD] READ addr=0x0000000c data=0x6abc780a resp=0
UVM_INFO src/tb/agent/axi_input_monitor.sv(102) @ 4705: uvm_test_top.env.agt.inp_mon [AXI_INP_MON] [READ INPUT COMPLETE] addr=0x00000030
UVM_INFO src/tb/agent/axi_out_monitor.sv(81) @ 4715: uvm_test_top.env.agt.out_mon [AXI_OUT_MON] [READ OUTPUT COMPLETE] data=0x00000000 resp=0
UVM_INFO src/tb/env/axi_scoreboard.sv(174) @ 4715: uvm_test_top.env.scb [AXI_SCOREBOARD] [READ DATA PASS] addr=0x00000030 data=0x00000000
UVM_INFO src/tb/sequences/axi_sanity_test.sv(52) @ 4725: uvm_test_top.env.agt.rd_sqr@@rd_seq [AXI_SANITY_RD] READ addr=0x00000030 data=0x00000000 resp=0
UVM_INFO src/tb/agent/axi_input_monitor.sv(102) @ 4735: uvm_test_top.env.agt.inp_mon [AXI_INP_MON] [READ INPUT COMPLETE] addr=0x00000030
UVM_INFO src/tb/agent/axi_out_monitor.sv(81) @ 4745: uvm_test_top.env.agt.out_mon [AXI_OUT_MON] [READ OUTPUT COMPLETE] data=0x00000000 resp=0
UVM_INFO src/tb/env/axi_scoreboard.sv(174) @ 4745: uvm_test_top.env.scb [AXI_SCOREBOARD] [READ DATA PASS] addr=0x00000030 data=0x00000000
UVM_INFO src/tb/sequences/axi_sanity_test.sv(52) @ 4755: uvm_test_top.env.agt.rd_sqr@@rd_seq [AXI_SANITY_RD] READ addr=0x00000030 data=0x00000000 resp=0
UVM_INFO src/tb/agent/axi_input_monitor.sv(102) @ 4765: uvm_test_top.env.agt.inp_mon [AXI_INP_MON] [READ INPUT COMPLETE] addr=0x00000008
UVM_INFO src/tb/agent/axi_out_monitor.sv(81) @ 4775: uvm_test_top.env.agt.out_mon [AXI_OUT_MON] [READ OUTPUT COMPLETE] data=0x275f4c5c resp=0
UVM_INFO src/tb/env/axi_scoreboard.sv(174) @ 4775: uvm_test_top.env.scb [AXI_SCOREBOARD] [READ DATA PASS] addr=0x00000008 data=0x275f4c5c
UVM_INFO src/tb/sequences/axi_sanity_test.sv(52) @ 4785: uvm_test_top.env.agt.rd_sqr@@rd_seq [AXI_SANITY_RD] READ addr=0x00000008 data=0x275f4c5c resp=0
UVM_INFO src/tb/agent/axi_input_monitor.sv(102) @ 4795: uvm_test_top.env.agt.inp_mon [AXI_INP_MON] [READ INPUT COMPLETE] addr=0x00000020
UVM_INFO src/tb/agent/axi_out_monitor.sv(81) @ 4805: uvm_test_top.env.agt.out_mon [AXI_OUT_MON] [READ OUTPUT COMPLETE] data=0x0b454024 resp=0
UVM_INFO src/tb/env/axi_scoreboard.sv(174) @ 4805: uvm_test_top.env.scb [AXI_SCOREBOARD] [READ DATA PASS] addr=0x00000020 data=0x0b454024
UVM_INFO src/tb/sequences/axi_sanity_test.sv(52) @ 4815: uvm_test_top.env.agt.rd_sqr@@rd_seq [AXI_SANITY_RD] READ addr=0x00000020 data=0x0b454024 resp=0
UVM_INFO src/tb/agent/axi_input_monitor.sv(102) @ 4825: uvm_test_top.env.agt.inp_mon [AXI_INP_MON] [READ INPUT COMPLETE] addr=0x0000003c
UVM_INFO src/tb/agent/axi_out_monitor.sv(81) @ 4835: uvm_test_top.env.agt.out_mon [AXI_OUT_MON] [READ OUTPUT COMPLETE] data=0x9b4e8336 resp=0
UVM_INFO src/tb/env/axi_scoreboard.sv(174) @ 4835: uvm_test_top.env.scb [AXI_SCOREBOARD] [READ DATA PASS] addr=0x0000003c data=0x9b4e8336
UVM_INFO src/tb/sequences/axi_sanity_test.sv(52) @ 4845: uvm_test_top.env.agt.rd_sqr@@rd_seq [AXI_SANITY_RD] READ addr=0x0000003c data=0x9b4e8336 resp=0
UVM_INFO src/tb/agent/axi_input_monitor.sv(102) @ 4855: uvm_test_top.env.agt.inp_mon [AXI_INP_MON] [READ INPUT COMPLETE] addr=0x00000028
UVM_INFO src/tb/agent/axi_out_monitor.sv(81) @ 4865: uvm_test_top.env.agt.out_mon [AXI_OUT_MON] [READ OUTPUT COMPLETE] data=0x00000000 resp=0
UVM_INFO src/tb/env/axi_scoreboard.sv(174) @ 4865: uvm_test_top.env.scb [AXI_SCOREBOARD] [READ DATA PASS] addr=0x00000028 data=0x00000000
UVM_INFO src/tb/sequences/axi_sanity_test.sv(52) @ 4875: uvm_test_top.env.agt.rd_sqr@@rd_seq [AXI_SANITY_RD] READ addr=0x00000028 data=0x00000000 resp=0
UVM_INFO src/tb/agent/axi_input_monitor.sv(102) @ 4885: uvm_test_top.env.agt.inp_mon [AXI_INP_MON] [READ INPUT COMPLETE] addr=0x0000002c
UVM_INFO src/tb/agent/axi_out_monitor.sv(81) @ 4895: uvm_test_top.env.agt.out_mon [AXI_OUT_MON] [READ OUTPUT COMPLETE] data=0x00000000 resp=0
UVM_INFO src/tb/env/axi_scoreboard.sv(174) @ 4895: uvm_test_top.env.scb [AXI_SCOREBOARD] [READ DATA PASS] addr=0x0000002c data=0x00000000
UVM_INFO src/tb/sequences/axi_sanity_test.sv(52) @ 4905: uvm_test_top.env.agt.rd_sqr@@rd_seq [AXI_SANITY_RD] READ addr=0x0000002c data=0x00000000 resp=0
UVM_INFO src/tb/agent/axi_input_monitor.sv(102) @ 4915: uvm_test_top.env.agt.inp_mon [AXI_INP_MON] [READ INPUT COMPLETE] addr=0x0000003c
UVM_INFO src/tb/agent/axi_out_monitor.sv(81) @ 4925: uvm_test_top.env.agt.out_mon [AXI_OUT_MON] [READ OUTPUT COMPLETE] data=0x9b4e8336 resp=0
UVM_INFO src/tb/env/axi_scoreboard.sv(174) @ 4925: uvm_test_top.env.scb [AXI_SCOREBOARD] [READ DATA PASS] addr=0x0000003c data=0x9b4e8336
UVM_INFO src/tb/sequences/axi_sanity_test.sv(52) @ 4935: uvm_test_top.env.agt.rd_sqr@@rd_seq [AXI_SANITY_RD] READ addr=0x0000003c data=0x9b4e8336 resp=0
UVM_INFO src/tb/agent/axi_input_monitor.sv(102) @ 4945: uvm_test_top.env.agt.inp_mon [AXI_INP_MON] [READ INPUT COMPLETE] addr=0x00000004
UVM_INFO src/tb/agent/axi_out_monitor.sv(81) @ 4955: uvm_test_top.env.agt.out_mon [AXI_OUT_MON] [READ OUTPUT COMPLETE] data=0x6bcec946 resp=0
UVM_INFO src/tb/env/axi_scoreboard.sv(174) @ 4955: uvm_test_top.env.scb [AXI_SCOREBOARD] [READ DATA PASS] addr=0x00000004 data=0x6bcec946
UVM_INFO src/tb/sequences/axi_sanity_test.sv(52) @ 4965: uvm_test_top.env.agt.rd_sqr@@rd_seq [AXI_SANITY_RD] READ addr=0x00000004 data=0x6bcec946 resp=0
UVM_INFO src/tb/agent/axi_input_monitor.sv(102) @ 4975: uvm_test_top.env.agt.inp_mon [AXI_INP_MON] [READ INPUT COMPLETE] addr=0x00000028
UVM_INFO src/tb/agent/axi_out_monitor.sv(81) @ 4985: uvm_test_top.env.agt.out_mon [AXI_OUT_MON] [READ OUTPUT COMPLETE] data=0x00000000 resp=0
UVM_INFO src/tb/env/axi_scoreboard.sv(174) @ 4985: uvm_test_top.env.scb [AXI_SCOREBOARD] [READ DATA PASS] addr=0x00000028 data=0x00000000
UVM_INFO src/tb/sequences/axi_sanity_test.sv(52) @ 4995: uvm_test_top.env.agt.rd_sqr@@rd_seq [AXI_SANITY_RD] READ addr=0x00000028 data=0x00000000 resp=0
UVM_INFO src/tb/agent/axi_input_monitor.sv(102) @ 5005: uvm_test_top.env.agt.inp_mon [AXI_INP_MON] [READ INPUT COMPLETE] addr=0x00000000
UVM_INFO src/tb/agent/axi_out_monitor.sv(81) @ 5015: uvm_test_top.env.agt.out_mon [AXI_OUT_MON] [READ OUTPUT COMPLETE] data=0xf1026a79 resp=0
UVM_INFO src/tb/env/axi_scoreboard.sv(174) @ 5015: uvm_test_top.env.scb [AXI_SCOREBOARD] [READ DATA PASS] addr=0x00000000 data=0xf1026a79
UVM_INFO src/tb/sequences/axi_sanity_test.sv(52) @ 5025: uvm_test_top.env.agt.rd_sqr@@rd_seq [AXI_SANITY_RD] READ addr=0x00000000 data=0xf1026a79 resp=0
UVM_INFO src/tb/agent/axi_input_monitor.sv(102) @ 5035: uvm_test_top.env.agt.inp_mon [AXI_INP_MON] [READ INPUT COMPLETE] addr=0x00000004
UVM_INFO src/tb/agent/axi_out_monitor.sv(81) @ 5045: uvm_test_top.env.agt.out_mon [AXI_OUT_MON] [READ OUTPUT COMPLETE] data=0x6bcec946 resp=0
UVM_INFO src/tb/env/axi_scoreboard.sv(174) @ 5045: uvm_test_top.env.scb [AXI_SCOREBOARD] [READ DATA PASS] addr=0x00000004 data=0x6bcec946
UVM_INFO src/tb/sequences/axi_sanity_test.sv(52) @ 5055: uvm_test_top.env.agt.rd_sqr@@rd_seq [AXI_SANITY_RD] READ addr=0x00000004 data=0x6bcec946 resp=0
UVM_INFO src/tb/agent/axi_input_monitor.sv(102) @ 5065: uvm_test_top.env.agt.inp_mon [AXI_INP_MON] [READ INPUT COMPLETE] addr=0x00000024
UVM_INFO src/tb/agent/axi_out_monitor.sv(81) @ 5075: uvm_test_top.env.agt.out_mon [AXI_OUT_MON] [READ OUTPUT COMPLETE] data=0x1781a52f resp=0
UVM_INFO src/tb/env/axi_scoreboard.sv(174) @ 5075: uvm_test_top.env.scb [AXI_SCOREBOARD] [READ DATA PASS] addr=0x00000024 data=0x1781a52f
UVM_INFO src/tb/sequences/axi_sanity_test.sv(52) @ 5085: uvm_test_top.env.agt.rd_sqr@@rd_seq [AXI_SANITY_RD] READ addr=0x00000024 data=0x1781a52f resp=0
UVM_INFO src/tb/agent/axi_input_monitor.sv(102) @ 5095: uvm_test_top.env.agt.inp_mon [AXI_INP_MON] [READ INPUT COMPLETE] addr=0x0000000c
UVM_INFO src/tb/agent/axi_out_monitor.sv(81) @ 5105: uvm_test_top.env.agt.out_mon [AXI_OUT_MON] [READ OUTPUT COMPLETE] data=0x6abc780a resp=0
UVM_INFO src/tb/env/axi_scoreboard.sv(174) @ 5105: uvm_test_top.env.scb [AXI_SCOREBOARD] [READ DATA PASS] addr=0x0000000c data=0x6abc780a
UVM_INFO src/tb/sequences/axi_sanity_test.sv(52) @ 5115: uvm_test_top.env.agt.rd_sqr@@rd_seq [AXI_SANITY_RD] READ addr=0x0000000c data=0x6abc780a resp=0
UVM_INFO src/tb/agent/axi_input_monitor.sv(102) @ 5125: uvm_test_top.env.agt.inp_mon [AXI_INP_MON] [READ INPUT COMPLETE] addr=0x00000010
UVM_INFO src/tb/agent/axi_out_monitor.sv(81) @ 5135: uvm_test_top.env.agt.out_mon [AXI_OUT_MON] [READ OUTPUT COMPLETE] data=0x9286ef0f resp=0
UVM_INFO src/tb/env/axi_scoreboard.sv(174) @ 5135: uvm_test_top.env.scb [AXI_SCOREBOARD] [READ DATA PASS] addr=0x00000010 data=0x9286ef0f
UVM_INFO src/tb/sequences/axi_sanity_test.sv(52) @ 5145: uvm_test_top.env.agt.rd_sqr@@rd_seq [AXI_SANITY_RD] READ addr=0x00000010 data=0x9286ef0f resp=0
UVM_INFO src/tb/agent/axi_input_monitor.sv(102) @ 5155: uvm_test_top.env.agt.inp_mon [AXI_INP_MON] [READ INPUT COMPLETE] addr=0x0000003c
UVM_INFO src/tb/agent/axi_out_monitor.sv(81) @ 5165: uvm_test_top.env.agt.out_mon [AXI_OUT_MON] [READ OUTPUT COMPLETE] data=0x9b4e8336 resp=0
UVM_INFO src/tb/env/axi_scoreboard.sv(174) @ 5165: uvm_test_top.env.scb [AXI_SCOREBOARD] [READ DATA PASS] addr=0x0000003c data=0x9b4e8336
UVM_INFO src/tb/sequences/axi_sanity_test.sv(52) @ 5175: uvm_test_top.env.agt.rd_sqr@@rd_seq [AXI_SANITY_RD] READ addr=0x0000003c data=0x9b4e8336 resp=0
UVM_INFO src/tb/agent/axi_input_monitor.sv(102) @ 5185: uvm_test_top.env.agt.inp_mon [AXI_INP_MON] [READ INPUT COMPLETE] addr=0x00000010
UVM_INFO src/tb/agent/axi_out_monitor.sv(81) @ 5195: uvm_test_top.env.agt.out_mon [AXI_OUT_MON] [READ OUTPUT COMPLETE] data=0x9286ef0f resp=0
UVM_INFO src/tb/env/axi_scoreboard.sv(174) @ 5195: uvm_test_top.env.scb [AXI_SCOREBOARD] [READ DATA PASS] addr=0x00000010 data=0x9286ef0f
UVM_INFO src/tb/sequences/axi_sanity_test.sv(52) @ 5205: uvm_test_top.env.agt.rd_sqr@@rd_seq [AXI_SANITY_RD] READ addr=0x00000010 data=0x9286ef0f resp=0
UVM_INFO src/tb/agent/axi_input_monitor.sv(102) @ 5215: uvm_test_top.env.agt.inp_mon [AXI_INP_MON] [READ INPUT COMPLETE] addr=0x00000018
UVM_INFO src/tb/agent/axi_out_monitor.sv(81) @ 5225: uvm_test_top.env.agt.out_mon [AXI_OUT_MON] [READ OUTPUT COMPLETE] data=0x088a3799 resp=0
UVM_INFO src/tb/env/axi_scoreboard.sv(174) @ 5225: uvm_test_top.env.scb [AXI_SCOREBOARD] [READ DATA PASS] addr=0x00000018 data=0x088a3799
UVM_INFO src/tb/sequences/axi_sanity_test.sv(52) @ 5235: uvm_test_top.env.agt.rd_sqr@@rd_seq [AXI_SANITY_RD] READ addr=0x00000018 data=0x088a3799 resp=0
UVM_INFO src/tb/agent/axi_input_monitor.sv(102) @ 5245: uvm_test_top.env.agt.inp_mon [AXI_INP_MON] [READ INPUT COMPLETE] addr=0x00000010
UVM_INFO src/tb/agent/axi_out_monitor.sv(81) @ 5255: uvm_test_top.env.agt.out_mon [AXI_OUT_MON] [READ OUTPUT COMPLETE] data=0x9286ef0f resp=0
UVM_INFO src/tb/env/axi_scoreboard.sv(174) @ 5255: uvm_test_top.env.scb [AXI_SCOREBOARD] [READ DATA PASS] addr=0x00000010 data=0x9286ef0f
UVM_INFO src/tb/sequences/axi_sanity_test.sv(52) @ 5265: uvm_test_top.env.agt.rd_sqr@@rd_seq [AXI_SANITY_RD] READ addr=0x00000010 data=0x9286ef0f resp=0
UVM_INFO src/tb/agent/axi_input_monitor.sv(102) @ 5275: uvm_test_top.env.agt.inp_mon [AXI_INP_MON] [READ INPUT COMPLETE] addr=0x0000002c
UVM_INFO src/tb/agent/axi_out_monitor.sv(81) @ 5285: uvm_test_top.env.agt.out_mon [AXI_OUT_MON] [READ OUTPUT COMPLETE] data=0x00000000 resp=0
UVM_INFO src/tb/env/axi_scoreboard.sv(174) @ 5285: uvm_test_top.env.scb [AXI_SCOREBOARD] [READ DATA PASS] addr=0x0000002c data=0x00000000
UVM_INFO src/tb/sequences/axi_sanity_test.sv(52) @ 5295: uvm_test_top.env.agt.rd_sqr@@rd_seq [AXI_SANITY_RD] READ addr=0x0000002c data=0x00000000 resp=0
UVM_INFO src/tb/agent/axi_input_monitor.sv(102) @ 5305: uvm_test_top.env.agt.inp_mon [AXI_INP_MON] [READ INPUT COMPLETE] addr=0x00000018
UVM_INFO src/tb/agent/axi_out_monitor.sv(81) @ 5315: uvm_test_top.env.agt.out_mon [AXI_OUT_MON] [READ OUTPUT COMPLETE] data=0x088a3799 resp=0
UVM_INFO src/tb/env/axi_scoreboard.sv(174) @ 5315: uvm_test_top.env.scb [AXI_SCOREBOARD] [READ DATA PASS] addr=0x00000018 data=0x088a3799
UVM_INFO src/tb/sequences/axi_sanity_test.sv(52) @ 5325: uvm_test_top.env.agt.rd_sqr@@rd_seq [AXI_SANITY_RD] READ addr=0x00000018 data=0x088a3799 resp=0
UVM_INFO src/tb/agent/axi_input_monitor.sv(102) @ 5335: uvm_test_top.env.agt.inp_mon [AXI_INP_MON] [READ INPUT COMPLETE] addr=0x00000000
UVM_INFO src/tb/agent/axi_out_monitor.sv(81) @ 5345: uvm_test_top.env.agt.out_mon [AXI_OUT_MON] [READ OUTPUT COMPLETE] data=0xf1026a79 resp=0
UVM_INFO src/tb/env/axi_scoreboard.sv(174) @ 5345: uvm_test_top.env.scb [AXI_SCOREBOARD] [READ DATA PASS] addr=0x00000000 data=0xf1026a79
UVM_INFO src/tb/sequences/axi_sanity_test.sv(52) @ 5355: uvm_test_top.env.agt.rd_sqr@@rd_seq [AXI_SANITY_RD] READ addr=0x00000000 data=0xf1026a79 resp=0
UVM_INFO src/tb/agent/axi_input_monitor.sv(102) @ 5365: uvm_test_top.env.agt.inp_mon [AXI_INP_MON] [READ INPUT COMPLETE] addr=0x0000001c
UVM_INFO src/tb/agent/axi_out_monitor.sv(81) @ 5375: uvm_test_top.env.agt.out_mon [AXI_OUT_MON] [READ OUTPUT COMPLETE] data=0xf288b213 resp=0
UVM_INFO src/tb/env/axi_scoreboard.sv(174) @ 5375: uvm_test_top.env.scb [AXI_SCOREBOARD] [READ DATA PASS] addr=0x0000001c data=0xf288b213
UVM_INFO src/tb/sequences/axi_sanity_test.sv(52) @ 5385: uvm_test_top.env.agt.rd_sqr@@rd_seq [AXI_SANITY_RD] READ addr=0x0000001c data=0xf288b213 resp=0
UVM_INFO src/tb/agent/axi_input_monitor.sv(102) @ 5395: uvm_test_top.env.agt.inp_mon [AXI_INP_MON] [READ INPUT COMPLETE] addr=0x0000002c
UVM_INFO src/tb/agent/axi_out_monitor.sv(81) @ 5405: uvm_test_top.env.agt.out_mon [AXI_OUT_MON] [READ OUTPUT COMPLETE] data=0x00000000 resp=0
UVM_INFO src/tb/env/axi_scoreboard.sv(174) @ 5405: uvm_test_top.env.scb [AXI_SCOREBOARD] [READ DATA PASS] addr=0x0000002c data=0x00000000
UVM_INFO src/tb/sequences/axi_sanity_test.sv(52) @ 5415: uvm_test_top.env.agt.rd_sqr@@rd_seq [AXI_SANITY_RD] READ addr=0x0000002c data=0x00000000 resp=0
UVM_INFO src/tb/agent/axi_input_monitor.sv(102) @ 5425: uvm_test_top.env.agt.inp_mon [AXI_INP_MON] [READ INPUT COMPLETE] addr=0x00000008
UVM_INFO src/tb/agent/axi_out_monitor.sv(81) @ 5435: uvm_test_top.env.agt.out_mon [AXI_OUT_MON] [READ OUTPUT COMPLETE] data=0x275f4c5c resp=0
UVM_INFO src/tb/env/axi_scoreboard.sv(174) @ 5435: uvm_test_top.env.scb [AXI_SCOREBOARD] [READ DATA PASS] addr=0x00000008 data=0x275f4c5c
UVM_INFO src/tb/sequences/axi_sanity_test.sv(52) @ 5445: uvm_test_top.env.agt.rd_sqr@@rd_seq [AXI_SANITY_RD] READ addr=0x00000008 data=0x275f4c5c resp=0
UVM_INFO src/tb/agent/axi_input_monitor.sv(102) @ 5455: uvm_test_top.env.agt.inp_mon [AXI_INP_MON] [READ INPUT COMPLETE] addr=0x00000020
UVM_INFO src/tb/agent/axi_out_monitor.sv(81) @ 5465: uvm_test_top.env.agt.out_mon [AXI_OUT_MON] [READ OUTPUT COMPLETE] data=0x0b454024 resp=0
UVM_INFO src/tb/env/axi_scoreboard.sv(174) @ 5465: uvm_test_top.env.scb [AXI_SCOREBOARD] [READ DATA PASS] addr=0x00000020 data=0x0b454024
UVM_INFO src/tb/sequences/axi_sanity_test.sv(52) @ 5475: uvm_test_top.env.agt.rd_sqr@@rd_seq [AXI_SANITY_RD] READ addr=0x00000020 data=0x0b454024 resp=0
UVM_INFO src/tb/agent/axi_input_monitor.sv(102) @ 5485: uvm_test_top.env.agt.inp_mon [AXI_INP_MON] [READ INPUT COMPLETE] addr=0x00000018
UVM_INFO src/tb/agent/axi_out_monitor.sv(81) @ 5495: uvm_test_top.env.agt.out_mon [AXI_OUT_MON] [READ OUTPUT COMPLETE] data=0x088a3799 resp=0
UVM_INFO src/tb/env/axi_scoreboard.sv(174) @ 5495: uvm_test_top.env.scb [AXI_SCOREBOARD] [READ DATA PASS] addr=0x00000018 data=0x088a3799
UVM_INFO src/tb/sequences/axi_sanity_test.sv(52) @ 5505: uvm_test_top.env.agt.rd_sqr@@rd_seq [AXI_SANITY_RD] READ addr=0x00000018 data=0x088a3799 resp=0
UVM_INFO src/tb/agent/axi_input_monitor.sv(102) @ 5515: uvm_test_top.env.agt.inp_mon [AXI_INP_MON] [READ INPUT COMPLETE] addr=0x00000024
UVM_INFO src/tb/agent/axi_out_monitor.sv(81) @ 5525: uvm_test_top.env.agt.out_mon [AXI_OUT_MON] [READ OUTPUT COMPLETE] data=0x1781a52f resp=0
UVM_INFO src/tb/env/axi_scoreboard.sv(174) @ 5525: uvm_test_top.env.scb [AXI_SCOREBOARD] [READ DATA PASS] addr=0x00000024 data=0x1781a52f
UVM_INFO src/tb/sequences/axi_sanity_test.sv(52) @ 5535: uvm_test_top.env.agt.rd_sqr@@rd_seq [AXI_SANITY_RD] READ addr=0x00000024 data=0x1781a52f resp=0
UVM_INFO src/tb/agent/axi_input_monitor.sv(102) @ 5545: uvm_test_top.env.agt.inp_mon [AXI_INP_MON] [READ INPUT COMPLETE] addr=0x00000030
UVM_INFO src/tb/agent/axi_out_monitor.sv(81) @ 5555: uvm_test_top.env.agt.out_mon [AXI_OUT_MON] [READ OUTPUT COMPLETE] data=0x00000000 resp=0
UVM_INFO src/tb/env/axi_scoreboard.sv(174) @ 5555: uvm_test_top.env.scb [AXI_SCOREBOARD] [READ DATA PASS] addr=0x00000030 data=0x00000000
UVM_INFO src/tb/sequences/axi_sanity_test.sv(52) @ 5565: uvm_test_top.env.agt.rd_sqr@@rd_seq [AXI_SANITY_RD] READ addr=0x00000030 data=0x00000000 resp=0
UVM_INFO src/tb/agent/axi_input_monitor.sv(102) @ 5575: uvm_test_top.env.agt.inp_mon [AXI_INP_MON] [READ INPUT COMPLETE] addr=0x00000004
UVM_INFO src/tb/agent/axi_out_monitor.sv(81) @ 5585: uvm_test_top.env.agt.out_mon [AXI_OUT_MON] [READ OUTPUT COMPLETE] data=0x6bcec946 resp=0
UVM_INFO src/tb/env/axi_scoreboard.sv(174) @ 5585: uvm_test_top.env.scb [AXI_SCOREBOARD] [READ DATA PASS] addr=0x00000004 data=0x6bcec946
UVM_INFO src/tb/sequences/axi_sanity_test.sv(52) @ 5595: uvm_test_top.env.agt.rd_sqr@@rd_seq [AXI_SANITY_RD] READ addr=0x00000004 data=0x6bcec946 resp=0
UVM_INFO src/tb/agent/axi_input_monitor.sv(102) @ 5605: uvm_test_top.env.agt.inp_mon [AXI_INP_MON] [READ INPUT COMPLETE] addr=0x00000030
UVM_INFO src/tb/agent/axi_out_monitor.sv(81) @ 5615: uvm_test_top.env.agt.out_mon [AXI_OUT_MON] [READ OUTPUT COMPLETE] data=0x00000000 resp=0
UVM_INFO src/tb/env/axi_scoreboard.sv(174) @ 5615: uvm_test_top.env.scb [AXI_SCOREBOARD] [READ DATA PASS] addr=0x00000030 data=0x00000000
UVM_INFO src/tb/sequences/axi_sanity_test.sv(52) @ 5625: uvm_test_top.env.agt.rd_sqr@@rd_seq [AXI_SANITY_RD] READ addr=0x00000030 data=0x00000000 resp=0
UVM_INFO src/tb/sequences/axi_sanity_test.sv(56) @ 5625: uvm_test_top.env.agt.rd_sqr@@rd_seq [AXI_SANITY_RD] Sanity Read Sequence Complete
UVM_INFO /fetools/synopsys/installed_tools/vcs/vcs/Q-2020.03-SP2-8/etc/uvm/base/uvm_objection.svh(1274) @ 5625: reporter [TEST_DONE] 'run' phase is ready to proceed to the 'extract' phase
UVM_INFO src/tb/env/axi_subscriber.sv(140) @ 5625: uvm_test_top.env.cov [AXI_COVERAGE] 
============ COVERAGE SUMMARY ============
  Write Coverage : 52.08%
  Read  Coverage : 71.53%
=============================================
UVM_INFO src/tb/env/axi_scoreboard.sv(195) @ 5625: uvm_test_top.env.scb [AXI_SCOREBOARD] 
============ SCOREBOARD SUMMARY ============
  Total Writes  : 70
  Total Reads   : 70
  Total Pass    : 140
  Total Fail    : 0
=============================================
UVM_INFO src/tb/env/axi_scoreboard.sv(201) @ 5625: uvm_test_top.env.scb [AXI_SCOREBOARD] ALL CHECKS PASSED
UVM_INFO src/tb/tests/axi_test.sv(39) @ 5625: uvm_test_top [AXI_TEST] 
*** TEST PASSED ***

--- UVM Report Summary ---

** Report counts by severity
UVM_INFO :  572
UVM_WARNING :    0
UVM_ERROR :    0
UVM_FATAL :    0
** Report counts by id
[AXI_COVERAGE]     1
[AXI_INP_MON]   140
[AXI_OUT_MON]   140
[AXI_SANITY_RD]    72
[AXI_SANITY_WR]    72
[AXI_SCOREBOARD]   142
[AXI_TEST]     1
[RNTST]     1
[TESTBENCH]     1
[TEST_DONE]     1
[UVMTOP]     1
$finish called from file "/fetools/synopsys/installed_tools/vcs/vcs/Q-2020.03-SP2-8/etc/uvm/base/uvm_root.svh", line 437.
$finish at simulation time                 5625

---------------------------------------------------------------------------
VCS Coverage Metrics: during simulation line, cond, FSM, branch, tgl was monitored
---------------------------------------------------------------------------
           V C S   S i m u l a t i o n   R e p o r t 
Time: 5625 ns
CPU Time:      0.680 seconds;       Data structure size:   0.6Mb
Mon Sep 21 15:50:26 2026
