Command: /fetools/work_area/frontend/Batch_11/Kittu_Patel/UVM/Project/AXI/./simv +UVM_TESTNAME=axi_dec_err_test +ntb_random_seed=2 +UVM_VERBOSITY=UVM_MEDIUM -cm line+cond+fsm+tgl+branch -cm_name axi_dec_err_test_seed_2 -cm_dir simv.vdb -l regression_logs/axi_dec_err_test_seed_2.log
Chronologic VCS simulator copyright 1991-2020
Contains Synopsys proprietary information.
Compiler version Q-2020.03-SP2-8_Full64; Runtime version Q-2020.03-SP2-8_Full64;  Sep 18 01:24 2026
----------------------------------------------------------------
UVM-1.1d.Synopsys
(C) 2007-2013 Mentor Graphics Corporation
(C) 2007-2013 Cadence Design Systems, Inc.
(C) 2006-2013 Synopsys, Inc.
(C) 2011-2013 Cypress Semiconductor Corp.
----------------------------------------------------------------

  ***********       IMPORTANT RELEASE NOTES         ************

  You are using a version of the UVM library that has been compiled
  with `UVM_NO_DEPRECATED undefined.
  See http://www.eda.org/svdb/view.php?id=3313 for more details.

  You are using a version of the UVM library that has been compiled
  with `UVM_OBJECT_MUST_HAVE_CONSTRUCTOR undefined.
  See http://www.eda.org/svdb/view.php?id=3770 for more details.

      (Specify +UVM_NO_RELNOTES to turn off this notice)

UVM_INFO @ 0: reporter [RNTST] Running test axi_dec_err_test...
UVM_INFO @ 0: reporter [UVMTOP] UVM testbench topology:
------------------------------------------------------------------
Name                       Type                        Size  Value
------------------------------------------------------------------
uvm_test_top               axi_dec_err_test            -     @461 
  env                      axi_env                     -     @469 
    agt                    axi_act_agent               -     @477 
      drv                  axi_override_driver         -     @751 
        rd_item_port       uvm_seq_item_pull_port      -     @777 
        rsp_port           uvm_analysis_port           -     @768 
        seq_item_port      uvm_seq_item_pull_port      -     @759 
      mon                  axi_monitor                 -     @786 
        read_ap            uvm_analysis_port           -     @804 
        write_ap           uvm_analysis_port           -     @795 
      rd_sqr               axi_sequencer               -     @628 
        rsp_export         uvm_analysis_export         -     @636 
        seq_item_export    uvm_seq_item_pull_imp       -     @742 
        arbitration_queue  array                       0     -    
        lock_queue         array                       0     -    
        num_last_reqs      integral                    32    'd1  
        num_last_rsps      integral                    32    'd1  
      wr_sqr               axi_sequencer               -     @505 
        rsp_export         uvm_analysis_export         -     @513 
        seq_item_export    uvm_seq_item_pull_imp       -     @619 
        arbitration_queue  array                       0     -    
        lock_queue         array                       0     -    
        num_last_reqs      integral                    32    'd1  
        num_last_rsps      integral                    32    'd1  
    cov                    axi_sub                     -     @493 
      read_export          uvm_analysis_imp_cov_read   -     @833 
      write_export         uvm_analysis_imp_cov_write  -     @824 
    scb                    axi_scb                     -     @485 
      read_export          uvm_analysis_imp_read_txn   -     @851 
      write_export         uvm_analysis_imp_write_txn  -     @842 
------------------------------------------------------------------

UVM_INFO axi_dec_err.sv(13) @ 0: uvm_test_top.env.agt.wr_sqr@@wr_seq [AXI_DEC_ERR] Starting Decode Error Sequence
UVM_INFO axi_dec_err.sv(13) @ 0: uvm_test_top.env.agt.rd_sqr@@rd_seq [AXI_DEC_ERR] Starting Decode Error Sequence
UVM_INFO axi_top.sv(25) @ 15: reporter [TESTBENCH] Reset released
UVM_INFO axi_input_monitor.sv(117) @ 45: uvm_test_top.env.agt.mon [AXI_MONITOR] [READ COMPLETE] addr=0x000000c0 data=0x00000000 resp=3
UVM_INFO axi_scoreboard.sv(136) @ 45: uvm_test_top.env.scb [AXI_SCOREBOARD] [READ ERR PASS] addr=0x000000c0 resp=2'b11 data=0x00000000
UVM_INFO axi_dec_err.sv(28) @ 55: uvm_test_top.env.agt.rd_sqr@@rd_seq [AXI_DEC_ERR] WRITE out-of-range addr=0x00000090 resp=0 (expected DECERR=3)
UVM_INFO axi_input_monitor.sv(78) @ 65: uvm_test_top.env.agt.mon [AXI_MONITOR] [WRITE COMPLETE] addr=0x00000060 data=0x2d3e8a2f strb=0xf resp=3
UVM_INFO axi_scoreboard.sv(85) @ 65: uvm_test_top.env.scb [AXI_SCOREBOARD] [WRITE RESP PASS] addr=0x00000060 resp=2'b11
UVM_INFO axi_input_monitor.sv(117) @ 75: uvm_test_top.env.agt.mon [AXI_MONITOR] [READ COMPLETE] addr=0x000000b4 data=0x00000000 resp=3
UVM_INFO axi_scoreboard.sv(136) @ 75: uvm_test_top.env.scb [AXI_SCOREBOARD] [READ ERR PASS] addr=0x000000b4 resp=2'b11 data=0x00000000
UVM_INFO axi_dec_err.sv(28) @ 75: uvm_test_top.env.agt.wr_sqr@@wr_seq [AXI_DEC_ERR] WRITE out-of-range addr=0x00000060 resp=3 (expected DECERR=3)
UVM_INFO axi_dec_err.sv(28) @ 85: uvm_test_top.env.agt.rd_sqr@@rd_seq [AXI_DEC_ERR] WRITE out-of-range addr=0x00000058 resp=0 (expected DECERR=3)
UVM_INFO axi_input_monitor.sv(117) @ 105: uvm_test_top.env.agt.mon [AXI_MONITOR] [READ COMPLETE] addr=0x00000094 data=0x00000000 resp=3
UVM_INFO axi_scoreboard.sv(136) @ 105: uvm_test_top.env.scb [AXI_SCOREBOARD] [READ ERR PASS] addr=0x00000094 resp=2'b11 data=0x00000000
UVM_INFO axi_dec_err.sv(28) @ 115: uvm_test_top.env.agt.rd_sqr@@rd_seq [AXI_DEC_ERR] WRITE out-of-range addr=0x000000e4 resp=0 (expected DECERR=3)
UVM_INFO axi_dec_err.sv(28) @ 125: uvm_test_top.env.agt.wr_sqr@@wr_seq [AXI_DEC_ERR] WRITE out-of-range addr=0x000000d0 resp=3 (expected DECERR=3)
UVM_INFO axi_top.sv(25) @ 135: reporter [TESTBENCH] Reset released
UVM_INFO axi_input_monitor.sv(117) @ 155: uvm_test_top.env.agt.mon [AXI_MONITOR] [READ COMPLETE] addr=0x00000040 data=0x00000000 resp=3
UVM_INFO axi_scoreboard.sv(136) @ 155: uvm_test_top.env.scb [AXI_SCOREBOARD] [READ ERR PASS] addr=0x00000040 resp=2'b11 data=0x00000000
UVM_INFO axi_dec_err.sv(28) @ 165: uvm_test_top.env.agt.rd_sqr@@rd_seq [AXI_DEC_ERR] WRITE out-of-range addr=0x000000f8 resp=0 (expected DECERR=3)
UVM_INFO axi_input_monitor.sv(78) @ 175: uvm_test_top.env.agt.mon [AXI_MONITOR] [WRITE COMPLETE] addr=0x00000090 data=0x8b9b9979 strb=0xf resp=3
UVM_INFO axi_scoreboard.sv(85) @ 175: uvm_test_top.env.scb [AXI_SCOREBOARD] [WRITE RESP PASS] addr=0x00000090 resp=2'b11
UVM_INFO axi_input_monitor.sv(117) @ 185: uvm_test_top.env.agt.mon [AXI_MONITOR] [READ COMPLETE] addr=0x000000f8 data=0x00000000 resp=3
UVM_INFO axi_scoreboard.sv(136) @ 185: uvm_test_top.env.scb [AXI_SCOREBOARD] [READ ERR PASS] addr=0x000000f8 resp=2'b11 data=0x00000000
UVM_INFO axi_dec_err.sv(28) @ 185: uvm_test_top.env.agt.wr_sqr@@wr_seq [AXI_DEC_ERR] WRITE out-of-range addr=0x00000090 resp=3 (expected DECERR=3)
UVM_INFO axi_dec_err.sv(28) @ 195: uvm_test_top.env.agt.rd_sqr@@rd_seq [AXI_DEC_ERR] WRITE out-of-range addr=0x00000054 resp=0 (expected DECERR=3)
UVM_INFO axi_input_monitor.sv(117) @ 215: uvm_test_top.env.agt.mon [AXI_MONITOR] [READ COMPLETE] addr=0x000000f8 data=0x00000000 resp=3
UVM_INFO axi_scoreboard.sv(136) @ 215: uvm_test_top.env.scb [AXI_SCOREBOARD] [READ ERR PASS] addr=0x000000f8 resp=2'b11 data=0x00000000
UVM_INFO axi_input_monitor.sv(78) @ 225: uvm_test_top.env.agt.mon [AXI_MONITOR] [WRITE COMPLETE] addr=0x00000058 data=0x69907d50 strb=0xf resp=3
UVM_INFO axi_scoreboard.sv(85) @ 225: uvm_test_top.env.scb [AXI_SCOREBOARD] [WRITE RESP PASS] addr=0x00000058 resp=2'b11
UVM_INFO axi_dec_err.sv(45) @ 225: uvm_test_top.env.agt.rd_sqr@@rd_seq [AXI_DEC_ERR] READ out-of-range addr=0x000000f8 resp=3 (expected DECERR=3)
UVM_INFO axi_dec_err.sv(28) @ 235: uvm_test_top.env.agt.wr_sqr@@wr_seq [AXI_DEC_ERR] WRITE out-of-range addr=0x00000058 resp=3 (expected DECERR=3)
UVM_INFO axi_input_monitor.sv(117) @ 245: uvm_test_top.env.agt.mon [AXI_MONITOR] [READ COMPLETE] addr=0x00000064 data=0x00000000 resp=3
UVM_INFO axi_scoreboard.sv(136) @ 245: uvm_test_top.env.scb [AXI_SCOREBOARD] [READ ERR PASS] addr=0x00000064 resp=2'b11 data=0x00000000
UVM_INFO axi_dec_err.sv(45) @ 255: uvm_test_top.env.agt.rd_sqr@@rd_seq [AXI_DEC_ERR] READ out-of-range addr=0x00000064 resp=3 (expected DECERR=3)
UVM_INFO axi_input_monitor.sv(117) @ 275: uvm_test_top.env.agt.mon [AXI_MONITOR] [READ COMPLETE] addr=0x000000ac data=0x00000000 resp=3
UVM_INFO axi_scoreboard.sv(136) @ 275: uvm_test_top.env.scb [AXI_SCOREBOARD] [READ ERR PASS] addr=0x000000ac resp=2'b11 data=0x00000000
UVM_INFO axi_input_monitor.sv(78) @ 275: uvm_test_top.env.agt.mon [AXI_MONITOR] [WRITE COMPLETE] addr=0x0000004c data=0x44ba4b38 strb=0xf resp=3
UVM_INFO axi_scoreboard.sv(85) @ 275: uvm_test_top.env.scb [AXI_SCOREBOARD] [WRITE RESP PASS] addr=0x0000004c resp=2'b11
UVM_INFO axi_dec_err.sv(28) @ 285: uvm_test_top.env.agt.wr_sqr@@wr_seq [AXI_DEC_ERR] WRITE out-of-range addr=0x0000004c resp=3 (expected DECERR=3)
UVM_INFO axi_dec_err.sv(45) @ 285: uvm_test_top.env.agt.rd_sqr@@rd_seq [AXI_DEC_ERR] READ out-of-range addr=0x000000ac resp=3 (expected DECERR=3)
UVM_INFO axi_input_monitor.sv(117) @ 305: uvm_test_top.env.agt.mon [AXI_MONITOR] [READ COMPLETE] addr=0x000000c4 data=0x00000000 resp=3
UVM_INFO axi_scoreboard.sv(136) @ 305: uvm_test_top.env.scb [AXI_SCOREBOARD] [READ ERR PASS] addr=0x000000c4 resp=2'b11 data=0x00000000
UVM_INFO axi_dec_err.sv(45) @ 315: uvm_test_top.env.agt.rd_sqr@@rd_seq [AXI_DEC_ERR] READ out-of-range addr=0x000000c4 resp=3 (expected DECERR=3)
UVM_INFO axi_input_monitor.sv(78) @ 325: uvm_test_top.env.agt.mon [AXI_MONITOR] [WRITE COMPLETE] addr=0x000000b0 data=0xc5b2708e strb=0xf resp=3
UVM_INFO axi_scoreboard.sv(85) @ 325: uvm_test_top.env.scb [AXI_SCOREBOARD] [WRITE RESP PASS] addr=0x000000b0 resp=2'b11
UVM_INFO axi_input_monitor.sv(117) @ 335: uvm_test_top.env.agt.mon [AXI_MONITOR] [READ COMPLETE] addr=0x0000004c data=0x00000000 resp=3
UVM_INFO axi_scoreboard.sv(136) @ 335: uvm_test_top.env.scb [AXI_SCOREBOARD] [READ ERR PASS] addr=0x0000004c resp=2'b11 data=0x00000000
UVM_INFO axi_dec_err.sv(45) @ 335: uvm_test_top.env.agt.wr_sqr@@wr_seq [AXI_DEC_ERR] READ out-of-range addr=0x0000005c resp=0 (expected DECERR=3)
UVM_INFO axi_dec_err.sv(45) @ 345: uvm_test_top.env.agt.rd_sqr@@rd_seq [AXI_DEC_ERR] READ out-of-range addr=0x0000004c resp=3 (expected DECERR=3)
UVM_INFO axi_dec_err.sv(49) @ 345: uvm_test_top.env.agt.rd_sqr@@rd_seq [AXI_DEC_ERR] Decode Error Sequence Complete
UVM_INFO axi_input_monitor.sv(78) @ 375: uvm_test_top.env.agt.mon [AXI_MONITOR] [WRITE COMPLETE] addr=0x000000bc data=0xd99b0290 strb=0xf resp=3
UVM_INFO axi_scoreboard.sv(85) @ 375: uvm_test_top.env.scb [AXI_SCOREBOARD] [WRITE RESP PASS] addr=0x000000bc resp=2'b11
UVM_INFO axi_dec_err.sv(45) @ 385: uvm_test_top.env.agt.wr_sqr@@wr_seq [AXI_DEC_ERR] READ out-of-range addr=0x00000064 resp=0 (expected DECERR=3)
UVM_INFO axi_input_monitor.sv(78) @ 425: uvm_test_top.env.agt.mon [AXI_MONITOR] [WRITE COMPLETE] addr=0x000000d0 data=0x4df53027 strb=0xf resp=3
UVM_INFO axi_scoreboard.sv(85) @ 425: uvm_test_top.env.scb [AXI_SCOREBOARD] [WRITE RESP PASS] addr=0x000000d0 resp=2'b11
UVM_INFO axi_dec_err.sv(45) @ 435: uvm_test_top.env.agt.wr_sqr@@wr_seq [AXI_DEC_ERR] READ out-of-range addr=0x00000068 resp=0 (expected DECERR=3)
UVM_INFO axi_input_monitor.sv(78) @ 475: uvm_test_top.env.agt.mon [AXI_MONITOR] [WRITE COMPLETE] addr=0x0000007c data=0x8f88a99f strb=0xf resp=3
UVM_INFO axi_scoreboard.sv(85) @ 475: uvm_test_top.env.scb [AXI_SCOREBOARD] [WRITE RESP PASS] addr=0x0000007c resp=2'b11
UVM_INFO axi_dec_err.sv(45) @ 485: uvm_test_top.env.agt.wr_sqr@@wr_seq [AXI_DEC_ERR] READ out-of-range addr=0x0000007c resp=0 (expected DECERR=3)
UVM_INFO axi_input_monitor.sv(78) @ 525: uvm_test_top.env.agt.mon [AXI_MONITOR] [WRITE COMPLETE] addr=0x0000005c data=0xbcbbb20d strb=0xf resp=3
UVM_INFO axi_scoreboard.sv(85) @ 525: uvm_test_top.env.scb [AXI_SCOREBOARD] [WRITE RESP PASS] addr=0x0000005c resp=2'b11
UVM_INFO axi_dec_err.sv(45) @ 535: uvm_test_top.env.agt.wr_sqr@@wr_seq [AXI_DEC_ERR] READ out-of-range addr=0x000000e0 resp=0 (expected DECERR=3)
UVM_INFO axi_dec_err.sv(49) @ 535: uvm_test_top.env.agt.wr_sqr@@wr_seq [AXI_DEC_ERR] Decode Error Sequence Complete
UVM_INFO /fetools/synopsys/installed_tools/vcs/vcs/Q-2020.03-SP2-8/etc/uvm/base/uvm_objection.svh(1274) @ 535: reporter [TEST_DONE] 'run' phase is ready to proceed to the 'extract' phase
UVM_INFO axi_subscriber.sv(117) @ 535: uvm_test_top.env.cov [AXI_COVERAGE] 
============ COVERAGE SUMMARY ============
  Write Coverage : 21.52%
  Read  Coverage : 40.00%
=============================================
UVM_INFO axi_scoreboard.sv(145) @ 535: uvm_test_top.env.scb [AXI_SCOREBOARD] 
============ SCOREBOARD SUMMARY ============
  Total Writes  : 9
  Total Reads   : 10
  Total Pass    : 19
  Total Fail    : 0
=============================================
UVM_INFO axi_scoreboard.sv(151) @ 535: uvm_test_top.env.scb [AXI_SCOREBOARD] ALL CHECKS PASSED
UVM_INFO axi_test.sv(37) @ 535: uvm_test_top [AXI_TEST] 
*** TEST PASSED ***

--- UVM Report Summary ---

** Report counts by severity
UVM_INFO :   71
UVM_WARNING :    0
UVM_ERROR :    0
UVM_FATAL :    0
** Report counts by id
[AXI_COVERAGE]     1
[AXI_DEC_ERR]    24
[AXI_MONITOR]    19
[AXI_SCOREBOARD]    21
[AXI_TEST]     1
[RNTST]     1
[TESTBENCH]     2
[TEST_DONE]     1
[UVMTOP]     1
$finish called from file "/fetools/synopsys/installed_tools/vcs/vcs/Q-2020.03-SP2-8/etc/uvm/base/uvm_root.svh", line 437.
$finish at simulation time                  535

---------------------------------------------------------------------------
VCS Coverage Metrics: during simulation line, cond, FSM, branch, tgl was monitored
---------------------------------------------------------------------------
           V C S   S i m u l a t i o n   R e p o r t 
Time: 535
CPU Time:      0.670 seconds;       Data structure size:   0.6Mb
Fri Sep 18 01:25:00 2026
