Command: /fetools/work_area/frontend/Batch_11/Kittu_Patel/UVM/Project/AXI/./simv +UVM_TESTNAME=axi_dec_err_test +ntb_random_seed=2 -cm line+cond+fsm+tgl+branch -cm_name axi_dec_err_test_seed_2 -cm_dir simv.vdb -l regression_logs/axi_dec_err_test_seed_2.log
Chronologic VCS simulator copyright 1991-2020
Contains Synopsys proprietary information.
Compiler version Q-2020.03-SP2-8_Full64; Runtime version Q-2020.03-SP2-8_Full64;  Sep 21 14:31 2026
----------------------------------------------------------------
UVM-1.1d.Synopsys
(C) 2007-2013 Mentor Graphics Corporation
(C) 2007-2013 Cadence Design Systems, Inc.
(C) 2006-2013 Synopsys, Inc.
(C) 2011-2013 Cypress Semiconductor Corp.
----------------------------------------------------------------

  ***********       IMPORTANT RELEASE NOTES         ************

  You are using a version of the UVM library that has been compiled
  with `UVM_NO_DEPRECATED undefined.
  See http://www.eda.org/svdb/view.php?id=3313 for more details.

  You are using a version of the UVM library that has been compiled
  with `UVM_OBJECT_MUST_HAVE_CONSTRUCTOR undefined.
  See http://www.eda.org/svdb/view.php?id=3770 for more details.

      (Specify +UVM_NO_RELNOTES to turn off this notice)

UVM_INFO @ 0: reporter [RNTST] Running test axi_dec_err_test...
UVM_INFO @ 0: reporter [UVMTOP] UVM testbench topology:
------------------------------------------------------------------
Name                       Type                        Size  Value
------------------------------------------------------------------
uvm_test_top               axi_dec_err_test            -     @461 
  env                      axi_env                     -     @469 
    agt                    axi_act_agent               -     @477 
      drv                  axi_override_driver         -     @751 
        rd_item_port       uvm_seq_item_pull_port      -     @777 
        rsp_port           uvm_analysis_port           -     @768 
        seq_item_port      uvm_seq_item_pull_port      -     @759 
      inp_mon              axi_input_monitor           -     @786 
        read_ap            uvm_analysis_port           -     @812 
        write_ap           uvm_analysis_port           -     @803 
      out_mon              axi_out_monitor             -     @794 
        read_ap            uvm_analysis_port           -     @831 
        write_ap           uvm_analysis_port           -     @822 
      rd_sqr               axi_sequencer               -     @628 
        rsp_export         uvm_analysis_export         -     @636 
        seq_item_export    uvm_seq_item_pull_imp       -     @742 
        arbitration_queue  array                       0     -    
        lock_queue         array                       0     -    
        num_last_reqs      integral                    32    'd1  
        num_last_rsps      integral                    32    'd1  
      wr_sqr               axi_sequencer               -     @505 
        rsp_export         uvm_analysis_export         -     @513 
        seq_item_export    uvm_seq_item_pull_imp       -     @619 
        arbitration_queue  array                       0     -    
        lock_queue         array                       0     -    
        num_last_reqs      integral                    32    'd1  
        num_last_rsps      integral                    32    'd1  
    cov                    axi_sub                     -     @493 
      rd_inp_fifo          uvm_tlm_analysis_fifo #(T)  -     @957 
        analysis_export    uvm_analysis_imp            -     @1001
        get_ap             uvm_analysis_port           -     @992 
        get_peek_export    uvm_get_peek_imp            -     @974 
        put_ap             uvm_analysis_port           -     @983 
        put_export         uvm_put_imp                 -     @965 
      rd_out_fifo          uvm_tlm_analysis_fifo #(T)  -     @1010
        analysis_export    uvm_analysis_imp            -     @1054
        get_ap             uvm_analysis_port           -     @1045
        get_peek_export    uvm_get_peek_imp            -     @1027
        put_ap             uvm_analysis_port           -     @1036
        put_export         uvm_put_imp                 -     @1018
      wr_inp_fifo          uvm_tlm_analysis_fifo #(T)  -     @851 
        analysis_export    uvm_analysis_imp            -     @895 
        get_ap             uvm_analysis_port           -     @886 
        get_peek_export    uvm_get_peek_imp            -     @868 
        put_ap             uvm_analysis_port           -     @877 
        put_export         uvm_put_imp                 -     @859 
      wr_out_fifo          uvm_tlm_analysis_fifo #(T)  -     @904 
        analysis_export    uvm_analysis_imp            -     @948 
        get_ap             uvm_analysis_port           -     @939 
        get_peek_export    uvm_get_peek_imp            -     @921 
        put_ap             uvm_analysis_port           -     @930 
        put_export         uvm_put_imp                 -     @912 
    scb                    axi_scb                     -     @485 
      rd_inp_fifo          uvm_tlm_analysis_fifo #(T)  -     @1170
        analysis_export    uvm_analysis_imp            -     @1214
        get_ap             uvm_analysis_port           -     @1205
        get_peek_export    uvm_get_peek_imp            -     @1187
        put_ap             uvm_analysis_port           -     @1196
        put_export         uvm_put_imp                 -     @1178
      rd_out_fifo          uvm_tlm_analysis_fifo #(T)  -     @1223
        analysis_export    uvm_analysis_imp            -     @1267
        get_ap             uvm_analysis_port           -     @1258
        get_peek_export    uvm_get_peek_imp            -     @1240
        put_ap             uvm_analysis_port           -     @1249
        put_export         uvm_put_imp                 -     @1231
      wr_inp_fifo          uvm_tlm_analysis_fifo #(T)  -     @1064
        analysis_export    uvm_analysis_imp            -     @1108
        get_ap             uvm_analysis_port           -     @1099
        get_peek_export    uvm_get_peek_imp            -     @1081
        put_ap             uvm_analysis_port           -     @1090
        put_export         uvm_put_imp                 -     @1072
      wr_out_fifo          uvm_tlm_analysis_fifo #(T)  -     @1117
        analysis_export    uvm_analysis_imp            -     @1161
        get_ap             uvm_analysis_port           -     @1152
        get_peek_export    uvm_get_peek_imp            -     @1134
        put_ap             uvm_analysis_port           -     @1143
        put_export         uvm_put_imp                 -     @1125
------------------------------------------------------------------

UVM_INFO src/tb/sequences/axi_dec_err.sv(13) @ 0: uvm_test_top.env.agt.wr_sqr@@wr_seq [AXI_DEC_ERR] Starting Decode Error Sequence
UVM_INFO src/tb/sequences/axi_dec_err.sv(13) @ 0: uvm_test_top.env.agt.rd_sqr@@rd_seq [AXI_DEC_ERR] Starting Decode Error Sequence
UVM_INFO src/tb/top/axi_top.sv(24) @ 15: reporter [TESTBENCH] Reset released
UVM_INFO src/tb/agent/axi_input_monitor.sv(102) @ 35: uvm_test_top.env.agt.inp_mon [AXI_INP_MON] [READ INPUT COMPLETE] addr=0x000000c0
UVM_INFO src/tb/agent/axi_input_monitor.sv(73) @ 45: uvm_test_top.env.agt.inp_mon [AXI_INP_MON] [WRITE INPUT COMPLETE] addr=0x00000060 data=0x2d3e8a2f strb=0xf
UVM_INFO src/tb/agent/axi_out_monitor.sv(81) @ 45: uvm_test_top.env.agt.out_mon [AXI_OUT_MON] [READ OUTPUT COMPLETE] data=0x00000000 resp=3
UVM_INFO src/tb/env/axi_scoreboard.sv(185) @ 45: uvm_test_top.env.scb [AXI_SCOREBOARD] [READ ERR PASS] addr=0x000000c0 resp=2'b11 data=0x00000000
UVM_INFO src/tb/sequences/axi_dec_err.sv(28) @ 55: uvm_test_top.env.agt.rd_sqr@@rd_seq [AXI_DEC_ERR] WRITE out-of-range addr=0x00000090 resp=0 (expected DECERR=3)
UVM_INFO src/tb/agent/axi_input_monitor.sv(102) @ 65: uvm_test_top.env.agt.inp_mon [AXI_INP_MON] [READ INPUT COMPLETE] addr=0x000000b4
UVM_INFO src/tb/agent/axi_out_monitor.sv(54) @ 65: uvm_test_top.env.agt.out_mon [AXI_OUT_MON] [WRITE OUTPUT COMPLETE] resp=3
UVM_INFO src/tb/env/axi_scoreboard.sv(126) @ 65: uvm_test_top.env.scb [AXI_SCOREBOARD] [WRITE RESP PASS] addr=0x00000060 resp=2'b11
UVM_INFO src/tb/agent/axi_out_monitor.sv(81) @ 75: uvm_test_top.env.agt.out_mon [AXI_OUT_MON] [READ OUTPUT COMPLETE] data=0x00000000 resp=3
UVM_INFO src/tb/env/axi_scoreboard.sv(185) @ 75: uvm_test_top.env.scb [AXI_SCOREBOARD] [READ ERR PASS] addr=0x000000b4 resp=2'b11 data=0x00000000
UVM_INFO src/tb/sequences/axi_dec_err.sv(28) @ 75: uvm_test_top.env.agt.wr_sqr@@wr_seq [AXI_DEC_ERR] WRITE out-of-range addr=0x00000060 resp=3 (expected DECERR=3)
UVM_INFO src/tb/sequences/axi_dec_err.sv(28) @ 85: uvm_test_top.env.agt.rd_sqr@@rd_seq [AXI_DEC_ERR] WRITE out-of-range addr=0x00000058 resp=0 (expected DECERR=3)
UVM_INFO src/tb/agent/axi_input_monitor.sv(73) @ 95: uvm_test_top.env.agt.inp_mon [AXI_INP_MON] [WRITE INPUT COMPLETE] addr=0x000000d0 data=0x9d90878c strb=0xf
UVM_INFO src/tb/agent/axi_input_monitor.sv(102) @ 95: uvm_test_top.env.agt.inp_mon [AXI_INP_MON] [READ INPUT COMPLETE] addr=0x00000094
UVM_INFO src/tb/agent/axi_out_monitor.sv(81) @ 105: uvm_test_top.env.agt.out_mon [AXI_OUT_MON] [READ OUTPUT COMPLETE] data=0x00000000 resp=3
UVM_INFO src/tb/env/axi_scoreboard.sv(185) @ 105: uvm_test_top.env.scb [AXI_SCOREBOARD] [READ ERR PASS] addr=0x00000094 resp=2'b11 data=0x00000000
UVM_INFO src/tb/agent/axi_out_monitor.sv(54) @ 115: uvm_test_top.env.agt.out_mon [AXI_OUT_MON] [WRITE OUTPUT COMPLETE] resp=3
UVM_INFO src/tb/env/axi_scoreboard.sv(126) @ 115: uvm_test_top.env.scb [AXI_SCOREBOARD] [WRITE RESP PASS] addr=0x000000d0 resp=2'b11
UVM_INFO src/tb/sequences/axi_dec_err.sv(28) @ 115: uvm_test_top.env.agt.rd_sqr@@rd_seq [AXI_DEC_ERR] WRITE out-of-range addr=0x000000e4 resp=0 (expected DECERR=3)
UVM_INFO src/tb/agent/axi_input_monitor.sv(102) @ 125: uvm_test_top.env.agt.inp_mon [AXI_INP_MON] [READ INPUT COMPLETE] addr=0x00000040
UVM_INFO src/tb/sequences/axi_dec_err.sv(28) @ 125: uvm_test_top.env.agt.wr_sqr@@wr_seq [AXI_DEC_ERR] WRITE out-of-range addr=0x000000d0 resp=3 (expected DECERR=3)
UVM_INFO src/tb/agent/axi_out_monitor.sv(81) @ 135: uvm_test_top.env.agt.out_mon [AXI_OUT_MON] [READ OUTPUT COMPLETE] data=0x00000000 resp=3
UVM_INFO src/tb/env/axi_scoreboard.sv(185) @ 135: uvm_test_top.env.scb [AXI_SCOREBOARD] [READ ERR PASS] addr=0x00000040 resp=2'b11 data=0x00000000
UVM_INFO src/tb/agent/axi_input_monitor.sv(73) @ 145: uvm_test_top.env.agt.inp_mon [AXI_INP_MON] [WRITE INPUT COMPLETE] addr=0x00000090 data=0x8b9b9979 strb=0xf
UVM_INFO src/tb/sequences/axi_dec_err.sv(28) @ 145: uvm_test_top.env.agt.rd_sqr@@rd_seq [AXI_DEC_ERR] WRITE out-of-range addr=0x000000f8 resp=0 (expected DECERR=3)
UVM_INFO src/tb/agent/axi_input_monitor.sv(102) @ 155: uvm_test_top.env.agt.inp_mon [AXI_INP_MON] [READ INPUT COMPLETE] addr=0x000000f8
UVM_INFO src/tb/agent/axi_out_monitor.sv(54) @ 165: uvm_test_top.env.agt.out_mon [AXI_OUT_MON] [WRITE OUTPUT COMPLETE] resp=3
UVM_INFO src/tb/agent/axi_out_monitor.sv(81) @ 165: uvm_test_top.env.agt.out_mon [AXI_OUT_MON] [READ OUTPUT COMPLETE] data=0x00000000 resp=3
UVM_INFO src/tb/env/axi_scoreboard.sv(126) @ 165: uvm_test_top.env.scb [AXI_SCOREBOARD] [WRITE RESP PASS] addr=0x00000090 resp=2'b11
UVM_INFO src/tb/env/axi_scoreboard.sv(185) @ 165: uvm_test_top.env.scb [AXI_SCOREBOARD] [READ ERR PASS] addr=0x000000f8 resp=2'b11 data=0x00000000
UVM_INFO src/tb/sequences/axi_dec_err.sv(28) @ 175: uvm_test_top.env.agt.wr_sqr@@wr_seq [AXI_DEC_ERR] WRITE out-of-range addr=0x00000090 resp=3 (expected DECERR=3)
UVM_INFO src/tb/sequences/axi_dec_err.sv(28) @ 175: uvm_test_top.env.agt.rd_sqr@@rd_seq [AXI_DEC_ERR] WRITE out-of-range addr=0x00000054 resp=0 (expected DECERR=3)
UVM_INFO src/tb/agent/axi_input_monitor.sv(102) @ 185: uvm_test_top.env.agt.inp_mon [AXI_INP_MON] [READ INPUT COMPLETE] addr=0x000000f8
UVM_INFO src/tb/agent/axi_input_monitor.sv(73) @ 195: uvm_test_top.env.agt.inp_mon [AXI_INP_MON] [WRITE INPUT COMPLETE] addr=0x00000058 data=0x69907d50 strb=0xf
UVM_INFO src/tb/agent/axi_out_monitor.sv(81) @ 195: uvm_test_top.env.agt.out_mon [AXI_OUT_MON] [READ OUTPUT COMPLETE] data=0x00000000 resp=3
UVM_INFO src/tb/env/axi_scoreboard.sv(185) @ 195: uvm_test_top.env.scb [AXI_SCOREBOARD] [READ ERR PASS] addr=0x000000f8 resp=2'b11 data=0x00000000
UVM_INFO src/tb/sequences/axi_dec_err.sv(45) @ 205: uvm_test_top.env.agt.rd_sqr@@rd_seq [AXI_DEC_ERR] READ out-of-range addr=0x000000f8 resp=3 (expected DECERR=3)
UVM_INFO src/tb/agent/axi_input_monitor.sv(102) @ 215: uvm_test_top.env.agt.inp_mon [AXI_INP_MON] [READ INPUT COMPLETE] addr=0x00000064
UVM_INFO src/tb/agent/axi_out_monitor.sv(54) @ 215: uvm_test_top.env.agt.out_mon [AXI_OUT_MON] [WRITE OUTPUT COMPLETE] resp=3
UVM_INFO src/tb/env/axi_scoreboard.sv(126) @ 215: uvm_test_top.env.scb [AXI_SCOREBOARD] [WRITE RESP PASS] addr=0x00000058 resp=2'b11
UVM_INFO src/tb/agent/axi_out_monitor.sv(81) @ 225: uvm_test_top.env.agt.out_mon [AXI_OUT_MON] [READ OUTPUT COMPLETE] data=0x00000000 resp=3
UVM_INFO src/tb/env/axi_scoreboard.sv(185) @ 225: uvm_test_top.env.scb [AXI_SCOREBOARD] [READ ERR PASS] addr=0x00000064 resp=2'b11 data=0x00000000
UVM_INFO src/tb/sequences/axi_dec_err.sv(28) @ 225: uvm_test_top.env.agt.wr_sqr@@wr_seq [AXI_DEC_ERR] WRITE out-of-range addr=0x00000058 resp=3 (expected DECERR=3)
UVM_INFO src/tb/sequences/axi_dec_err.sv(45) @ 235: uvm_test_top.env.agt.rd_sqr@@rd_seq [AXI_DEC_ERR] READ out-of-range addr=0x00000064 resp=3 (expected DECERR=3)
UVM_INFO src/tb/agent/axi_input_monitor.sv(73) @ 245: uvm_test_top.env.agt.inp_mon [AXI_INP_MON] [WRITE INPUT COMPLETE] addr=0x0000004c data=0x44ba4b38 strb=0xf
UVM_INFO src/tb/agent/axi_input_monitor.sv(102) @ 245: uvm_test_top.env.agt.inp_mon [AXI_INP_MON] [READ INPUT COMPLETE] addr=0x000000ac
UVM_INFO src/tb/agent/axi_out_monitor.sv(81) @ 255: uvm_test_top.env.agt.out_mon [AXI_OUT_MON] [READ OUTPUT COMPLETE] data=0x00000000 resp=3
UVM_INFO src/tb/env/axi_scoreboard.sv(185) @ 255: uvm_test_top.env.scb [AXI_SCOREBOARD] [READ ERR PASS] addr=0x000000ac resp=2'b11 data=0x00000000
UVM_INFO src/tb/agent/axi_out_monitor.sv(54) @ 265: uvm_test_top.env.agt.out_mon [AXI_OUT_MON] [WRITE OUTPUT COMPLETE] resp=3
UVM_INFO src/tb/env/axi_scoreboard.sv(126) @ 265: uvm_test_top.env.scb [AXI_SCOREBOARD] [WRITE RESP PASS] addr=0x0000004c resp=2'b11
UVM_INFO src/tb/sequences/axi_dec_err.sv(45) @ 265: uvm_test_top.env.agt.rd_sqr@@rd_seq [AXI_DEC_ERR] READ out-of-range addr=0x000000ac resp=3 (expected DECERR=3)
UVM_INFO src/tb/agent/axi_input_monitor.sv(102) @ 275: uvm_test_top.env.agt.inp_mon [AXI_INP_MON] [READ INPUT COMPLETE] addr=0x000000c4
UVM_INFO src/tb/sequences/axi_dec_err.sv(28) @ 275: uvm_test_top.env.agt.wr_sqr@@wr_seq [AXI_DEC_ERR] WRITE out-of-range addr=0x0000004c resp=3 (expected DECERR=3)
UVM_INFO src/tb/agent/axi_out_monitor.sv(81) @ 285: uvm_test_top.env.agt.out_mon [AXI_OUT_MON] [READ OUTPUT COMPLETE] data=0x00000000 resp=3
UVM_INFO src/tb/env/axi_scoreboard.sv(185) @ 285: uvm_test_top.env.scb [AXI_SCOREBOARD] [READ ERR PASS] addr=0x000000c4 resp=2'b11 data=0x00000000
UVM_INFO src/tb/agent/axi_input_monitor.sv(73) @ 295: uvm_test_top.env.agt.inp_mon [AXI_INP_MON] [WRITE INPUT COMPLETE] addr=0x000000b0 data=0xc5b2708e strb=0xf
UVM_INFO src/tb/sequences/axi_dec_err.sv(45) @ 295: uvm_test_top.env.agt.rd_sqr@@rd_seq [AXI_DEC_ERR] READ out-of-range addr=0x000000c4 resp=3 (expected DECERR=3)
UVM_INFO src/tb/agent/axi_input_monitor.sv(102) @ 305: uvm_test_top.env.agt.inp_mon [AXI_INP_MON] [READ INPUT COMPLETE] addr=0x0000004c
UVM_INFO src/tb/agent/axi_out_monitor.sv(54) @ 315: uvm_test_top.env.agt.out_mon [AXI_OUT_MON] [WRITE OUTPUT COMPLETE] resp=3
UVM_INFO src/tb/agent/axi_out_monitor.sv(81) @ 315: uvm_test_top.env.agt.out_mon [AXI_OUT_MON] [READ OUTPUT COMPLETE] data=0x00000000 resp=3
UVM_INFO src/tb/env/axi_scoreboard.sv(126) @ 315: uvm_test_top.env.scb [AXI_SCOREBOARD] [WRITE RESP PASS] addr=0x000000b0 resp=2'b11
UVM_INFO src/tb/env/axi_scoreboard.sv(185) @ 315: uvm_test_top.env.scb [AXI_SCOREBOARD] [READ ERR PASS] addr=0x0000004c resp=2'b11 data=0x00000000
UVM_INFO src/tb/sequences/axi_dec_err.sv(45) @ 325: uvm_test_top.env.agt.wr_sqr@@wr_seq [AXI_DEC_ERR] READ out-of-range addr=0x0000005c resp=0 (expected DECERR=3)
UVM_INFO src/tb/sequences/axi_dec_err.sv(45) @ 325: uvm_test_top.env.agt.rd_sqr@@rd_seq [AXI_DEC_ERR] READ out-of-range addr=0x0000004c resp=3 (expected DECERR=3)
UVM_INFO src/tb/sequences/axi_dec_err.sv(49) @ 325: uvm_test_top.env.agt.rd_sqr@@rd_seq [AXI_DEC_ERR] Decode Error Sequence Complete
UVM_INFO src/tb/agent/axi_input_monitor.sv(73) @ 345: uvm_test_top.env.agt.inp_mon [AXI_INP_MON] [WRITE INPUT COMPLETE] addr=0x000000bc data=0xd99b0290 strb=0xf
UVM_INFO src/tb/agent/axi_out_monitor.sv(54) @ 365: uvm_test_top.env.agt.out_mon [AXI_OUT_MON] [WRITE OUTPUT COMPLETE] resp=3
UVM_INFO src/tb/env/axi_scoreboard.sv(126) @ 365: uvm_test_top.env.scb [AXI_SCOREBOARD] [WRITE RESP PASS] addr=0x000000bc resp=2'b11
UVM_INFO src/tb/sequences/axi_dec_err.sv(45) @ 375: uvm_test_top.env.agt.wr_sqr@@wr_seq [AXI_DEC_ERR] READ out-of-range addr=0x00000064 resp=0 (expected DECERR=3)
UVM_INFO src/tb/agent/axi_input_monitor.sv(73) @ 395: uvm_test_top.env.agt.inp_mon [AXI_INP_MON] [WRITE INPUT COMPLETE] addr=0x000000d0 data=0x4df53027 strb=0xf
UVM_INFO src/tb/agent/axi_out_monitor.sv(54) @ 415: uvm_test_top.env.agt.out_mon [AXI_OUT_MON] [WRITE OUTPUT COMPLETE] resp=3
UVM_INFO src/tb/env/axi_scoreboard.sv(126) @ 415: uvm_test_top.env.scb [AXI_SCOREBOARD] [WRITE RESP PASS] addr=0x000000d0 resp=2'b11
UVM_INFO src/tb/sequences/axi_dec_err.sv(45) @ 425: uvm_test_top.env.agt.wr_sqr@@wr_seq [AXI_DEC_ERR] READ out-of-range addr=0x00000068 resp=0 (expected DECERR=3)
UVM_INFO src/tb/agent/axi_input_monitor.sv(73) @ 445: uvm_test_top.env.agt.inp_mon [AXI_INP_MON] [WRITE INPUT COMPLETE] addr=0x0000007c data=0x8f88a99f strb=0xf
UVM_INFO src/tb/agent/axi_out_monitor.sv(54) @ 465: uvm_test_top.env.agt.out_mon [AXI_OUT_MON] [WRITE OUTPUT COMPLETE] resp=3
UVM_INFO src/tb/env/axi_scoreboard.sv(126) @ 465: uvm_test_top.env.scb [AXI_SCOREBOARD] [WRITE RESP PASS] addr=0x0000007c resp=2'b11
UVM_INFO src/tb/sequences/axi_dec_err.sv(45) @ 475: uvm_test_top.env.agt.wr_sqr@@wr_seq [AXI_DEC_ERR] READ out-of-range addr=0x0000007c resp=0 (expected DECERR=3)
UVM_INFO src/tb/agent/axi_input_monitor.sv(73) @ 495: uvm_test_top.env.agt.inp_mon [AXI_INP_MON] [WRITE INPUT COMPLETE] addr=0x0000005c data=0xbcbbb20d strb=0xf
UVM_INFO src/tb/agent/axi_out_monitor.sv(54) @ 515: uvm_test_top.env.agt.out_mon [AXI_OUT_MON] [WRITE OUTPUT COMPLETE] resp=3
UVM_INFO src/tb/env/axi_scoreboard.sv(126) @ 515: uvm_test_top.env.scb [AXI_SCOREBOARD] [WRITE RESP PASS] addr=0x0000005c resp=2'b11
UVM_INFO src/tb/sequences/axi_dec_err.sv(45) @ 525: uvm_test_top.env.agt.wr_sqr@@wr_seq [AXI_DEC_ERR] READ out-of-range addr=0x000000e0 resp=0 (expected DECERR=3)
UVM_INFO src/tb/sequences/axi_dec_err.sv(49) @ 525: uvm_test_top.env.agt.wr_sqr@@wr_seq [AXI_DEC_ERR] Decode Error Sequence Complete
UVM_INFO /fetools/synopsys/installed_tools/vcs/vcs/Q-2020.03-SP2-8/etc/uvm/base/uvm_objection.svh(1274) @ 525: reporter [TEST_DONE] 'run' phase is ready to proceed to the 'extract' phase
UVM_INFO src/tb/env/axi_subscriber.sv(140) @ 525: uvm_test_top.env.cov [AXI_COVERAGE] 
============ COVERAGE SUMMARY ============
  Write Coverage : 33.33%
  Read  Coverage : 44.44%
=============================================
UVM_INFO src/tb/env/axi_scoreboard.sv(195) @ 525: uvm_test_top.env.scb [AXI_SCOREBOARD] 
============ SCOREBOARD SUMMARY ============
  Total Writes  : 10
  Total Reads   : 10
  Total Pass    : 20
  Total Fail    : 0
=============================================
UVM_INFO src/tb/env/axi_scoreboard.sv(201) @ 525: uvm_test_top.env.scb [AXI_SCOREBOARD] ALL CHECKS PASSED
UVM_INFO src/tb/tests/axi_test.sv(39) @ 525: uvm_test_top [AXI_TEST] 
*** TEST PASSED ***

--- UVM Report Summary ---

** Report counts by severity
UVM_INFO :   92
UVM_WARNING :    0
UVM_ERROR :    0
UVM_FATAL :    0
** Report counts by id
[AXI_COVERAGE]     1
[AXI_DEC_ERR]    24
[AXI_INP_MON]    20
[AXI_OUT_MON]    20
[AXI_SCOREBOARD]    22
[AXI_TEST]     1
[RNTST]     1
[TESTBENCH]     1
[TEST_DONE]     1
[UVMTOP]     1
$finish called from file "/fetools/synopsys/installed_tools/vcs/vcs/Q-2020.03-SP2-8/etc/uvm/base/uvm_root.svh", line 437.
$finish at simulation time                  525

---------------------------------------------------------------------------
VCS Coverage Metrics: during simulation line, cond, FSM, branch, tgl was monitored
---------------------------------------------------------------------------
           V C S   S i m u l a t i o n   R e p o r t 
Time: 525 ns
CPU Time:      0.660 seconds;       Data structure size:   0.7Mb
Mon Sep 21 14:31:02 2026
