Command: /fetools/work_area/frontend/Batch_11/Kittu_Patel/UVM/Project/AXI/./simv +UVM_TESTNAME=axi_wstrb_test +ntb_random_seed=2 -cm line+cond+fsm+tgl+branch -cm_name axi_wstrb_test_seed_2 -cm_dir simv.vdb -l regression_logs/axi_wstrb_test_seed_2.log
Chronologic VCS simulator copyright 1991-2020
Contains Synopsys proprietary information.
Compiler version Q-2020.03-SP2-8_Full64; Runtime version Q-2020.03-SP2-8_Full64;  Sep 18 13:21 2026
----------------------------------------------------------------
UVM-1.1d.Synopsys
(C) 2007-2013 Mentor Graphics Corporation
(C) 2007-2013 Cadence Design Systems, Inc.
(C) 2006-2013 Synopsys, Inc.
(C) 2011-2013 Cypress Semiconductor Corp.
----------------------------------------------------------------

  ***********       IMPORTANT RELEASE NOTES         ************

  You are using a version of the UVM library that has been compiled
  with `UVM_NO_DEPRECATED undefined.
  See http://www.eda.org/svdb/view.php?id=3313 for more details.

  You are using a version of the UVM library that has been compiled
  with `UVM_OBJECT_MUST_HAVE_CONSTRUCTOR undefined.
  See http://www.eda.org/svdb/view.php?id=3770 for more details.

      (Specify +UVM_NO_RELNOTES to turn off this notice)

UVM_INFO @ 0: reporter [RNTST] Running test axi_wstrb_test...
UVM_INFO @ 0: reporter [UVMTOP] UVM testbench topology:
------------------------------------------------------------------
Name                       Type                        Size  Value
------------------------------------------------------------------
uvm_test_top               axi_wstrb_test              -     @461 
  env                      axi_env                     -     @469 
    agt                    axi_act_agent               -     @477 
      drv                  axi_override_driver         -     @751 
        rd_item_port       uvm_seq_item_pull_port      -     @777 
        rsp_port           uvm_analysis_port           -     @768 
        seq_item_port      uvm_seq_item_pull_port      -     @759 
      mon                  axi_monitor                 -     @786 
        read_ap            uvm_analysis_port           -     @804 
        write_ap           uvm_analysis_port           -     @795 
      rd_sqr               axi_sequencer               -     @628 
        rsp_export         uvm_analysis_export         -     @636 
        seq_item_export    uvm_seq_item_pull_imp       -     @742 
        arbitration_queue  array                       0     -    
        lock_queue         array                       0     -    
        num_last_reqs      integral                    32    'd1  
        num_last_rsps      integral                    32    'd1  
      wr_sqr               axi_sequencer               -     @505 
        rsp_export         uvm_analysis_export         -     @513 
        seq_item_export    uvm_seq_item_pull_imp       -     @619 
        arbitration_queue  array                       0     -    
        lock_queue         array                       0     -    
        num_last_reqs      integral                    32    'd1  
        num_last_rsps      integral                    32    'd1  
    cov                    axi_sub                     -     @493 
      read_export          uvm_analysis_imp_cov_read   -     @833 
      write_export         uvm_analysis_imp_cov_write  -     @824 
    scb                    axi_scb                     -     @485 
      read_export          uvm_analysis_imp_read_txn   -     @851 
      write_export         uvm_analysis_imp_write_txn  -     @842 
------------------------------------------------------------------

UVM_INFO src/tb/sequences/axi_wstrb_seq.sv(15) @ 0: uvm_test_top.env.agt.wr_sqr@@wr_seq [AXI_WSTRB_WR] Starting WSTRB Write Sequence across all 16 strobe patterns
UVM_INFO src/tb/top/axi_top.sv(25) @ 15: reporter [TESTBENCH] Reset released
UVM_INFO src/tb/agent/axi_input_monitor.sv(78) @ 65: uvm_test_top.env.agt.mon [AXI_MONITOR] [WRITE COMPLETE] addr=0x0000001c data=0x6bd94db2 strb=0x0 resp=0
UVM_INFO src/tb/env/axi_scoreboard.sv(85) @ 65: uvm_test_top.env.scb [AXI_SCOREBOARD] [WRITE RESP PASS] addr=0x0000001c resp=2'b00
UVM_INFO src/tb/top/axi_top.sv(25) @ 135: reporter [TESTBENCH] Reset released
UVM_INFO src/tb/agent/axi_input_monitor.sv(78) @ 175: uvm_test_top.env.agt.mon [AXI_MONITOR] [WRITE COMPLETE] addr=0x00000010 data=0xd72cac75 strb=0x2 resp=0
UVM_INFO src/tb/env/axi_scoreboard.sv(85) @ 175: uvm_test_top.env.scb [AXI_SCOREBOARD] [WRITE RESP PASS] addr=0x00000010 resp=2'b00
UVM_INFO src/tb/agent/axi_input_monitor.sv(78) @ 225: uvm_test_top.env.agt.mon [AXI_MONITOR] [WRITE COMPLETE] addr=0x0000001c data=0xa7770285 strb=0x3 resp=0
UVM_INFO src/tb/env/axi_scoreboard.sv(85) @ 225: uvm_test_top.env.scb [AXI_SCOREBOARD] [WRITE RESP PASS] addr=0x0000001c resp=2'b00
UVM_INFO src/tb/agent/axi_input_monitor.sv(78) @ 275: uvm_test_top.env.agt.mon [AXI_MONITOR] [WRITE COMPLETE] addr=0x00000000 data=0x864a1e22 strb=0x4 resp=0
UVM_INFO src/tb/env/axi_scoreboard.sv(85) @ 275: uvm_test_top.env.scb [AXI_SCOREBOARD] [WRITE RESP PASS] addr=0x00000000 resp=2'b00
UVM_INFO src/tb/agent/axi_input_monitor.sv(78) @ 325: uvm_test_top.env.agt.mon [AXI_MONITOR] [WRITE COMPLETE] addr=0x00000010 data=0xda2a4096 strb=0x5 resp=0
UVM_INFO src/tb/env/axi_scoreboard.sv(85) @ 325: uvm_test_top.env.scb [AXI_SCOREBOARD] [WRITE RESP PASS] addr=0x00000010 resp=2'b00
UVM_INFO src/tb/agent/axi_input_monitor.sv(78) @ 375: uvm_test_top.env.agt.mon [AXI_MONITOR] [WRITE COMPLETE] addr=0x00000020 data=0x8707eedc strb=0x6 resp=0
UVM_INFO src/tb/env/axi_scoreboard.sv(85) @ 375: uvm_test_top.env.scb [AXI_SCOREBOARD] [WRITE RESP PASS] addr=0x00000020 resp=2'b00
UVM_INFO src/tb/agent/axi_input_monitor.sv(78) @ 425: uvm_test_top.env.agt.mon [AXI_MONITOR] [WRITE COMPLETE] addr=0x0000000c data=0xb747a410 strb=0x7 resp=0
UVM_INFO src/tb/env/axi_scoreboard.sv(85) @ 425: uvm_test_top.env.scb [AXI_SCOREBOARD] [WRITE RESP PASS] addr=0x0000000c resp=2'b00
UVM_INFO src/tb/agent/axi_input_monitor.sv(78) @ 475: uvm_test_top.env.agt.mon [AXI_MONITOR] [WRITE COMPLETE] addr=0x00000004 data=0xf6279f58 strb=0x8 resp=0
UVM_INFO src/tb/env/axi_scoreboard.sv(85) @ 475: uvm_test_top.env.scb [AXI_SCOREBOARD] [WRITE RESP PASS] addr=0x00000004 resp=2'b00
UVM_INFO src/tb/agent/axi_input_monitor.sv(78) @ 525: uvm_test_top.env.agt.mon [AXI_MONITOR] [WRITE COMPLETE] addr=0x00000018 data=0x9765bd1c strb=0x9 resp=0
UVM_INFO src/tb/env/axi_scoreboard.sv(85) @ 525: uvm_test_top.env.scb [AXI_SCOREBOARD] [WRITE RESP PASS] addr=0x00000018 resp=2'b00
UVM_INFO src/tb/agent/axi_input_monitor.sv(78) @ 575: uvm_test_top.env.agt.mon [AXI_MONITOR] [WRITE COMPLETE] addr=0x00000024 data=0x8148192e strb=0xa resp=0
UVM_INFO src/tb/env/axi_scoreboard.sv(85) @ 575: uvm_test_top.env.scb [AXI_SCOREBOARD] [WRITE RESP PASS] addr=0x00000024 resp=2'b00
UVM_INFO src/tb/agent/axi_input_monitor.sv(78) @ 625: uvm_test_top.env.agt.mon [AXI_MONITOR] [WRITE COMPLETE] addr=0x0000000c data=0x5a74cebf strb=0xb resp=0
UVM_INFO src/tb/env/axi_scoreboard.sv(85) @ 625: uvm_test_top.env.scb [AXI_SCOREBOARD] [WRITE RESP PASS] addr=0x0000000c resp=2'b00
UVM_INFO src/tb/agent/axi_input_monitor.sv(78) @ 675: uvm_test_top.env.agt.mon [AXI_MONITOR] [WRITE COMPLETE] addr=0x00000020 data=0x00569a6e strb=0xc resp=0
UVM_INFO src/tb/env/axi_scoreboard.sv(85) @ 675: uvm_test_top.env.scb [AXI_SCOREBOARD] [WRITE RESP PASS] addr=0x00000020 resp=2'b00
UVM_INFO src/tb/agent/axi_input_monitor.sv(78) @ 725: uvm_test_top.env.agt.mon [AXI_MONITOR] [WRITE COMPLETE] addr=0x00000018 data=0xbbee3a15 strb=0xd resp=0
UVM_INFO src/tb/env/axi_scoreboard.sv(85) @ 725: uvm_test_top.env.scb [AXI_SCOREBOARD] [WRITE RESP PASS] addr=0x00000018 resp=2'b00
UVM_INFO src/tb/agent/axi_input_monitor.sv(78) @ 775: uvm_test_top.env.agt.mon [AXI_MONITOR] [WRITE COMPLETE] addr=0x0000000c data=0xd557c5cf strb=0xe resp=0
UVM_INFO src/tb/env/axi_scoreboard.sv(85) @ 775: uvm_test_top.env.scb [AXI_SCOREBOARD] [WRITE RESP PASS] addr=0x0000000c resp=2'b00
UVM_INFO src/tb/agent/axi_input_monitor.sv(78) @ 825: uvm_test_top.env.agt.mon [AXI_MONITOR] [WRITE COMPLETE] addr=0x00000008 data=0x6954dc97 strb=0xf resp=0
UVM_INFO src/tb/env/axi_scoreboard.sv(85) @ 825: uvm_test_top.env.scb [AXI_SCOREBOARD] [WRITE RESP PASS] addr=0x00000008 resp=2'b00
UVM_INFO src/tb/sequences/axi_wstrb_seq.sv(43) @ 835: uvm_test_top.env.agt.rd_sqr@@rd_seq [AXI_WSTRB_RD] Starting WSTRB Read Verification Sequence
UVM_INFO src/tb/agent/axi_input_monitor.sv(117) @ 855: uvm_test_top.env.agt.mon [AXI_MONITOR] [READ COMPLETE] addr=0x00000000 data=0x004a0000 resp=0
UVM_INFO src/tb/env/axi_scoreboard.sv(125) @ 855: uvm_test_top.env.scb [AXI_SCOREBOARD] [READ DATA PASS] addr=0x00000000 data=0x004a0000
UVM_INFO src/tb/sequences/axi_wstrb_seq.sv(55) @ 865: uvm_test_top.env.agt.rd_sqr@@rd_seq [AXI_WSTRB_RD] READ addr=0x0 data=0x004a0000 resp=0
UVM_INFO src/tb/agent/axi_input_monitor.sv(117) @ 885: uvm_test_top.env.agt.mon [AXI_MONITOR] [READ COMPLETE] addr=0x00000000 data=0x004a0000 resp=0
UVM_INFO src/tb/env/axi_scoreboard.sv(125) @ 885: uvm_test_top.env.scb [AXI_SCOREBOARD] [READ DATA PASS] addr=0x00000000 data=0x004a0000
UVM_INFO src/tb/sequences/axi_wstrb_seq.sv(55) @ 895: uvm_test_top.env.agt.rd_sqr@@rd_seq [AXI_WSTRB_RD] READ addr=0x0 data=0x004a0000 resp=0
UVM_INFO src/tb/agent/axi_input_monitor.sv(117) @ 915: uvm_test_top.env.agt.mon [AXI_MONITOR] [READ COMPLETE] addr=0x00000000 data=0x004a0000 resp=0
UVM_INFO src/tb/env/axi_scoreboard.sv(125) @ 915: uvm_test_top.env.scb [AXI_SCOREBOARD] [READ DATA PASS] addr=0x00000000 data=0x004a0000
UVM_INFO src/tb/sequences/axi_wstrb_seq.sv(55) @ 925: uvm_test_top.env.agt.rd_sqr@@rd_seq [AXI_WSTRB_RD] READ addr=0x0 data=0x004a0000 resp=0
UVM_INFO src/tb/agent/axi_input_monitor.sv(117) @ 945: uvm_test_top.env.agt.mon [AXI_MONITOR] [READ COMPLETE] addr=0x00000000 data=0x004a0000 resp=0
UVM_INFO src/tb/env/axi_scoreboard.sv(125) @ 945: uvm_test_top.env.scb [AXI_SCOREBOARD] [READ DATA PASS] addr=0x00000000 data=0x004a0000
UVM_INFO src/tb/sequences/axi_wstrb_seq.sv(55) @ 955: uvm_test_top.env.agt.rd_sqr@@rd_seq [AXI_WSTRB_RD] READ addr=0x0 data=0x004a0000 resp=0
UVM_INFO src/tb/agent/axi_input_monitor.sv(117) @ 975: uvm_test_top.env.agt.mon [AXI_MONITOR] [READ COMPLETE] addr=0x00000000 data=0x004a0000 resp=0
UVM_INFO src/tb/env/axi_scoreboard.sv(125) @ 975: uvm_test_top.env.scb [AXI_SCOREBOARD] [READ DATA PASS] addr=0x00000000 data=0x004a0000
UVM_INFO src/tb/sequences/axi_wstrb_seq.sv(55) @ 985: uvm_test_top.env.agt.rd_sqr@@rd_seq [AXI_WSTRB_RD] READ addr=0x0 data=0x004a0000 resp=0
UVM_INFO src/tb/agent/axi_input_monitor.sv(117) @ 1005: uvm_test_top.env.agt.mon [AXI_MONITOR] [READ COMPLETE] addr=0x00000000 data=0x004a0000 resp=0
UVM_INFO src/tb/env/axi_scoreboard.sv(125) @ 1005: uvm_test_top.env.scb [AXI_SCOREBOARD] [READ DATA PASS] addr=0x00000000 data=0x004a0000
UVM_INFO src/tb/sequences/axi_wstrb_seq.sv(55) @ 1015: uvm_test_top.env.agt.rd_sqr@@rd_seq [AXI_WSTRB_RD] READ addr=0x0 data=0x004a0000 resp=0
UVM_INFO src/tb/agent/axi_input_monitor.sv(117) @ 1035: uvm_test_top.env.agt.mon [AXI_MONITOR] [READ COMPLETE] addr=0x00000000 data=0x004a0000 resp=0
UVM_INFO src/tb/env/axi_scoreboard.sv(125) @ 1035: uvm_test_top.env.scb [AXI_SCOREBOARD] [READ DATA PASS] addr=0x00000000 data=0x004a0000
UVM_INFO src/tb/sequences/axi_wstrb_seq.sv(55) @ 1045: uvm_test_top.env.agt.rd_sqr@@rd_seq [AXI_WSTRB_RD] READ addr=0x0 data=0x004a0000 resp=0
UVM_INFO src/tb/agent/axi_input_monitor.sv(117) @ 1065: uvm_test_top.env.agt.mon [AXI_MONITOR] [READ COMPLETE] addr=0x00000000 data=0x004a0000 resp=0
UVM_INFO src/tb/env/axi_scoreboard.sv(125) @ 1065: uvm_test_top.env.scb [AXI_SCOREBOARD] [READ DATA PASS] addr=0x00000000 data=0x004a0000
UVM_INFO src/tb/sequences/axi_wstrb_seq.sv(55) @ 1075: uvm_test_top.env.agt.rd_sqr@@rd_seq [AXI_WSTRB_RD] READ addr=0x0 data=0x004a0000 resp=0
UVM_INFO src/tb/agent/axi_input_monitor.sv(117) @ 1095: uvm_test_top.env.agt.mon [AXI_MONITOR] [READ COMPLETE] addr=0x00000000 data=0x004a0000 resp=0
UVM_INFO src/tb/env/axi_scoreboard.sv(125) @ 1095: uvm_test_top.env.scb [AXI_SCOREBOARD] [READ DATA PASS] addr=0x00000000 data=0x004a0000
UVM_INFO src/tb/sequences/axi_wstrb_seq.sv(55) @ 1105: uvm_test_top.env.agt.rd_sqr@@rd_seq [AXI_WSTRB_RD] READ addr=0x0 data=0x004a0000 resp=0
UVM_INFO src/tb/agent/axi_input_monitor.sv(117) @ 1125: uvm_test_top.env.agt.mon [AXI_MONITOR] [READ COMPLETE] addr=0x00000000 data=0x004a0000 resp=0
UVM_INFO src/tb/env/axi_scoreboard.sv(125) @ 1125: uvm_test_top.env.scb [AXI_SCOREBOARD] [READ DATA PASS] addr=0x00000000 data=0x004a0000
UVM_INFO src/tb/sequences/axi_wstrb_seq.sv(55) @ 1135: uvm_test_top.env.agt.rd_sqr@@rd_seq [AXI_WSTRB_RD] READ addr=0x0 data=0x004a0000 resp=0
UVM_INFO src/tb/agent/axi_input_monitor.sv(117) @ 1155: uvm_test_top.env.agt.mon [AXI_MONITOR] [READ COMPLETE] addr=0x00000000 data=0x004a0000 resp=0
UVM_INFO src/tb/env/axi_scoreboard.sv(125) @ 1155: uvm_test_top.env.scb [AXI_SCOREBOARD] [READ DATA PASS] addr=0x00000000 data=0x004a0000
UVM_INFO src/tb/sequences/axi_wstrb_seq.sv(55) @ 1165: uvm_test_top.env.agt.rd_sqr@@rd_seq [AXI_WSTRB_RD] READ addr=0x0 data=0x004a0000 resp=0
UVM_INFO src/tb/agent/axi_input_monitor.sv(117) @ 1185: uvm_test_top.env.agt.mon [AXI_MONITOR] [READ COMPLETE] addr=0x00000000 data=0x004a0000 resp=0
UVM_INFO src/tb/env/axi_scoreboard.sv(125) @ 1185: uvm_test_top.env.scb [AXI_SCOREBOARD] [READ DATA PASS] addr=0x00000000 data=0x004a0000
UVM_INFO src/tb/sequences/axi_wstrb_seq.sv(55) @ 1195: uvm_test_top.env.agt.rd_sqr@@rd_seq [AXI_WSTRB_RD] READ addr=0x0 data=0x004a0000 resp=0
UVM_INFO src/tb/agent/axi_input_monitor.sv(117) @ 1215: uvm_test_top.env.agt.mon [AXI_MONITOR] [READ COMPLETE] addr=0x00000000 data=0x004a0000 resp=0
UVM_INFO src/tb/env/axi_scoreboard.sv(125) @ 1215: uvm_test_top.env.scb [AXI_SCOREBOARD] [READ DATA PASS] addr=0x00000000 data=0x004a0000
UVM_INFO src/tb/sequences/axi_wstrb_seq.sv(55) @ 1225: uvm_test_top.env.agt.rd_sqr@@rd_seq [AXI_WSTRB_RD] READ addr=0x0 data=0x004a0000 resp=0
UVM_INFO src/tb/agent/axi_input_monitor.sv(117) @ 1245: uvm_test_top.env.agt.mon [AXI_MONITOR] [READ COMPLETE] addr=0x00000000 data=0x004a0000 resp=0
UVM_INFO src/tb/env/axi_scoreboard.sv(125) @ 1245: uvm_test_top.env.scb [AXI_SCOREBOARD] [READ DATA PASS] addr=0x00000000 data=0x004a0000
UVM_INFO src/tb/sequences/axi_wstrb_seq.sv(55) @ 1255: uvm_test_top.env.agt.rd_sqr@@rd_seq [AXI_WSTRB_RD] READ addr=0x0 data=0x004a0000 resp=0
UVM_INFO src/tb/agent/axi_input_monitor.sv(117) @ 1275: uvm_test_top.env.agt.mon [AXI_MONITOR] [READ COMPLETE] addr=0x00000000 data=0x004a0000 resp=0
UVM_INFO src/tb/env/axi_scoreboard.sv(125) @ 1275: uvm_test_top.env.scb [AXI_SCOREBOARD] [READ DATA PASS] addr=0x00000000 data=0x004a0000
UVM_INFO src/tb/sequences/axi_wstrb_seq.sv(55) @ 1285: uvm_test_top.env.agt.rd_sqr@@rd_seq [AXI_WSTRB_RD] READ addr=0x0 data=0x004a0000 resp=0
UVM_INFO src/tb/agent/axi_input_monitor.sv(117) @ 1305: uvm_test_top.env.agt.mon [AXI_MONITOR] [READ COMPLETE] addr=0x00000000 data=0x004a0000 resp=0
UVM_INFO src/tb/env/axi_scoreboard.sv(125) @ 1305: uvm_test_top.env.scb [AXI_SCOREBOARD] [READ DATA PASS] addr=0x00000000 data=0x004a0000
UVM_INFO src/tb/sequences/axi_wstrb_seq.sv(55) @ 1315: uvm_test_top.env.agt.rd_sqr@@rd_seq [AXI_WSTRB_RD] READ addr=0x0 data=0x004a0000 resp=0
UVM_INFO src/tb/sequences/axi_wstrb_seq.sv(58) @ 1315: uvm_test_top.env.agt.rd_sqr@@rd_seq [AXI_WSTRB_RD] WSTRB Read Verification Sequence Complete
UVM_INFO /fetools/synopsys/installed_tools/vcs/vcs/Q-2020.03-SP2-8/etc/uvm/base/uvm_objection.svh(1274) @ 1315: reporter [TEST_DONE] 'run' phase is ready to proceed to the 'extract' phase
UVM_INFO src/tb/env/axi_subscriber.sv(112) @ 1315: uvm_test_top.env.cov [AXI_COVERAGE] 
============ COVERAGE SUMMARY ============
  Write Coverage : 46.67%
  Read  Coverage : 22.40%
=============================================
UVM_INFO src/tb/env/axi_scoreboard.sv(145) @ 1315: uvm_test_top.env.scb [AXI_SCOREBOARD] 
============ SCOREBOARD SUMMARY ============
  Total Writes  : 15
  Total Reads   : 16
  Total Pass    : 31
  Total Fail    : 0
=============================================
UVM_INFO src/tb/env/axi_scoreboard.sv(151) @ 1315: uvm_test_top.env.scb [AXI_SCOREBOARD] ALL CHECKS PASSED
UVM_INFO src/tb/tests/axi_test.sv(39) @ 1315: uvm_test_top [AXI_TEST] 
*** TEST PASSED ***

--- UVM Report Summary ---

** Report counts by severity
UVM_INFO :   90
UVM_WARNING :    0
UVM_ERROR :    0
UVM_FATAL :    0
** Report counts by id
[AXI_COVERAGE]     1
[AXI_MONITOR]    31
[AXI_SCOREBOARD]    33
[AXI_TEST]     1
[AXI_WSTRB_RD]    18
[AXI_WSTRB_WR]     1
[RNTST]     1
[TESTBENCH]     2
[TEST_DONE]     1
[UVMTOP]     1
$finish called from file "/fetools/synopsys/installed_tools/vcs/vcs/Q-2020.03-SP2-8/etc/uvm/base/uvm_root.svh", line 437.
$finish at simulation time                 1315

---------------------------------------------------------------------------
VCS Coverage Metrics: during simulation line, cond, FSM, branch, tgl was monitored
---------------------------------------------------------------------------
           V C S   S i m u l a t i o n   R e p o r t 
Time: 1315 ns
CPU Time:      0.670 seconds;       Data structure size:   0.6Mb
Fri Sep 18 13:21:18 2026
