Command: /fetools/work_area/frontend/Batch_11/Kittu_Patel/UVM/Project/AXI/./simv +UVM_TESTNAME=axi_sanity_test +ntb_random_seed=2 -cm line+cond+fsm+tgl+branch -cm_name axi_sanity_test_seed_2 -cm_dir simv.vdb -l regression_logs/axi_sanity_test_seed_2.log
Chronologic VCS simulator copyright 1991-2020
Contains Synopsys proprietary information.
Compiler version Q-2020.03-SP2-8_Full64; Runtime version Q-2020.03-SP2-8_Full64;  Sep 21 14:30 2026
----------------------------------------------------------------
UVM-1.1d.Synopsys
(C) 2007-2013 Mentor Graphics Corporation
(C) 2007-2013 Cadence Design Systems, Inc.
(C) 2006-2013 Synopsys, Inc.
(C) 2011-2013 Cypress Semiconductor Corp.
----------------------------------------------------------------

  ***********       IMPORTANT RELEASE NOTES         ************

  You are using a version of the UVM library that has been compiled
  with `UVM_NO_DEPRECATED undefined.
  See http://www.eda.org/svdb/view.php?id=3313 for more details.

  You are using a version of the UVM library that has been compiled
  with `UVM_OBJECT_MUST_HAVE_CONSTRUCTOR undefined.
  See http://www.eda.org/svdb/view.php?id=3770 for more details.

      (Specify +UVM_NO_RELNOTES to turn off this notice)

UVM_INFO @ 0: reporter [RNTST] Running test axi_sanity_test...
UVM_INFO @ 0: reporter [UVMTOP] UVM testbench topology:
------------------------------------------------------------------
Name                       Type                        Size  Value
------------------------------------------------------------------
uvm_test_top               axi_sanity_test             -     @461 
  env                      axi_env                     -     @469 
    agt                    axi_act_agent               -     @477 
      drv                  axi_override_driver         -     @751 
        rd_item_port       uvm_seq_item_pull_port      -     @777 
        rsp_port           uvm_analysis_port           -     @768 
        seq_item_port      uvm_seq_item_pull_port      -     @759 
      inp_mon              axi_input_monitor           -     @786 
        read_ap            uvm_analysis_port           -     @812 
        write_ap           uvm_analysis_port           -     @803 
      out_mon              axi_out_monitor             -     @794 
        read_ap            uvm_analysis_port           -     @831 
        write_ap           uvm_analysis_port           -     @822 
      rd_sqr               axi_sequencer               -     @628 
        rsp_export         uvm_analysis_export         -     @636 
        seq_item_export    uvm_seq_item_pull_imp       -     @742 
        arbitration_queue  array                       0     -    
        lock_queue         array                       0     -    
        num_last_reqs      integral                    32    'd1  
        num_last_rsps      integral                    32    'd1  
      wr_sqr               axi_sequencer               -     @505 
        rsp_export         uvm_analysis_export         -     @513 
        seq_item_export    uvm_seq_item_pull_imp       -     @619 
        arbitration_queue  array                       0     -    
        lock_queue         array                       0     -    
        num_last_reqs      integral                    32    'd1  
        num_last_rsps      integral                    32    'd1  
    cov                    axi_sub                     -     @493 
      rd_inp_fifo          uvm_tlm_analysis_fifo #(T)  -     @957 
        analysis_export    uvm_analysis_imp            -     @1001
        get_ap             uvm_analysis_port           -     @992 
        get_peek_export    uvm_get_peek_imp            -     @974 
        put_ap             uvm_analysis_port           -     @983 
        put_export         uvm_put_imp                 -     @965 
      rd_out_fifo          uvm_tlm_analysis_fifo #(T)  -     @1010
        analysis_export    uvm_analysis_imp            -     @1054
        get_ap             uvm_analysis_port           -     @1045
        get_peek_export    uvm_get_peek_imp            -     @1027
        put_ap             uvm_analysis_port           -     @1036
        put_export         uvm_put_imp                 -     @1018
      wr_inp_fifo          uvm_tlm_analysis_fifo #(T)  -     @851 
        analysis_export    uvm_analysis_imp            -     @895 
        get_ap             uvm_analysis_port           -     @886 
        get_peek_export    uvm_get_peek_imp            -     @868 
        put_ap             uvm_analysis_port           -     @877 
        put_export         uvm_put_imp                 -     @859 
      wr_out_fifo          uvm_tlm_analysis_fifo #(T)  -     @904 
        analysis_export    uvm_analysis_imp            -     @948 
        get_ap             uvm_analysis_port           -     @939 
        get_peek_export    uvm_get_peek_imp            -     @921 
        put_ap             uvm_analysis_port           -     @930 
        put_export         uvm_put_imp                 -     @912 
    scb                    axi_scb                     -     @485 
      rd_inp_fifo          uvm_tlm_analysis_fifo #(T)  -     @1170
        analysis_export    uvm_analysis_imp            -     @1214
        get_ap             uvm_analysis_port           -     @1205
        get_peek_export    uvm_get_peek_imp            -     @1187
        put_ap             uvm_analysis_port           -     @1196
        put_export         uvm_put_imp                 -     @1178
      rd_out_fifo          uvm_tlm_analysis_fifo #(T)  -     @1223
        analysis_export    uvm_analysis_imp            -     @1267
        get_ap             uvm_analysis_port           -     @1258
        get_peek_export    uvm_get_peek_imp            -     @1240
        put_ap             uvm_analysis_port           -     @1249
        put_export         uvm_put_imp                 -     @1231
      wr_inp_fifo          uvm_tlm_analysis_fifo #(T)  -     @1064
        analysis_export    uvm_analysis_imp            -     @1108
        get_ap             uvm_analysis_port           -     @1099
        get_peek_export    uvm_get_peek_imp            -     @1081
        put_ap             uvm_analysis_port           -     @1090
        put_export         uvm_put_imp                 -     @1072
      wr_out_fifo          uvm_tlm_analysis_fifo #(T)  -     @1117
        analysis_export    uvm_analysis_imp            -     @1161
        get_ap             uvm_analysis_port           -     @1152
        get_peek_export    uvm_get_peek_imp            -     @1134
        put_ap             uvm_analysis_port           -     @1143
        put_export         uvm_put_imp                 -     @1125
------------------------------------------------------------------

UVM_INFO src/tb/sequences/axi_sanity_test.sv(14) @ 0: uvm_test_top.env.agt.wr_sqr@@wr_seq [AXI_SANITY_WR] Starting Sanity Write Sequence
UVM_INFO src/tb/top/axi_top.sv(24) @ 15: reporter [TESTBENCH] Reset released
UVM_INFO src/tb/agent/axi_input_monitor.sv(73) @ 45: uvm_test_top.env.agt.inp_mon [AXI_INP_MON] [WRITE INPUT COMPLETE] addr=0x0000001c data=0x6bd94db2 strb=0xf
UVM_INFO src/tb/agent/axi_out_monitor.sv(54) @ 65: uvm_test_top.env.agt.out_mon [AXI_OUT_MON] [WRITE OUTPUT COMPLETE] resp=0
UVM_INFO src/tb/env/axi_scoreboard.sv(126) @ 65: uvm_test_top.env.scb [AXI_SCOREBOARD] [WRITE RESP PASS] addr=0x0000001c resp=2'b00
UVM_INFO src/tb/sequences/axi_sanity_test.sv(23) @ 75: uvm_test_top.env.agt.wr_sqr@@wr_seq [AXI_SANITY_WR] WRITE addr=0x0000001c data=0x6bd94db2 resp=0
UVM_INFO src/tb/agent/axi_input_monitor.sv(73) @ 95: uvm_test_top.env.agt.inp_mon [AXI_INP_MON] [WRITE INPUT COMPLETE] addr=0x0000003c data=0x2f558438 strb=0xf
UVM_INFO src/tb/agent/axi_out_monitor.sv(54) @ 115: uvm_test_top.env.agt.out_mon [AXI_OUT_MON] [WRITE OUTPUT COMPLETE] resp=0
UVM_INFO src/tb/env/axi_scoreboard.sv(126) @ 115: uvm_test_top.env.scb [AXI_SCOREBOARD] [WRITE RESP PASS] addr=0x0000003c resp=2'b00
UVM_INFO src/tb/sequences/axi_sanity_test.sv(23) @ 125: uvm_test_top.env.agt.wr_sqr@@wr_seq [AXI_SANITY_WR] WRITE addr=0x0000003c data=0x2f558438 resp=0
UVM_INFO src/tb/agent/axi_input_monitor.sv(73) @ 145: uvm_test_top.env.agt.inp_mon [AXI_INP_MON] [WRITE INPUT COMPLETE] addr=0x00000010 data=0xd72cac75 strb=0xf
UVM_INFO src/tb/agent/axi_out_monitor.sv(54) @ 165: uvm_test_top.env.agt.out_mon [AXI_OUT_MON] [WRITE OUTPUT COMPLETE] resp=0
UVM_INFO src/tb/env/axi_scoreboard.sv(126) @ 165: uvm_test_top.env.scb [AXI_SCOREBOARD] [WRITE RESP PASS] addr=0x00000010 resp=2'b00
UVM_INFO src/tb/sequences/axi_sanity_test.sv(23) @ 175: uvm_test_top.env.agt.wr_sqr@@wr_seq [AXI_SANITY_WR] WRITE addr=0x00000010 data=0xd72cac75 resp=0
UVM_INFO src/tb/agent/axi_input_monitor.sv(73) @ 195: uvm_test_top.env.agt.inp_mon [AXI_INP_MON] [WRITE INPUT COMPLETE] addr=0x0000001c data=0xa7770285 strb=0xf
UVM_INFO src/tb/agent/axi_out_monitor.sv(54) @ 215: uvm_test_top.env.agt.out_mon [AXI_OUT_MON] [WRITE OUTPUT COMPLETE] resp=0
UVM_INFO src/tb/env/axi_scoreboard.sv(126) @ 215: uvm_test_top.env.scb [AXI_SCOREBOARD] [WRITE RESP PASS] addr=0x0000001c resp=2'b00
UVM_INFO src/tb/sequences/axi_sanity_test.sv(23) @ 225: uvm_test_top.env.agt.wr_sqr@@wr_seq [AXI_SANITY_WR] WRITE addr=0x0000001c data=0xa7770285 resp=0
UVM_INFO src/tb/agent/axi_input_monitor.sv(73) @ 245: uvm_test_top.env.agt.inp_mon [AXI_INP_MON] [WRITE INPUT COMPLETE] addr=0x00000000 data=0x864a1e22 strb=0xf
UVM_INFO src/tb/agent/axi_out_monitor.sv(54) @ 265: uvm_test_top.env.agt.out_mon [AXI_OUT_MON] [WRITE OUTPUT COMPLETE] resp=0
UVM_INFO src/tb/env/axi_scoreboard.sv(126) @ 265: uvm_test_top.env.scb [AXI_SCOREBOARD] [WRITE RESP PASS] addr=0x00000000 resp=2'b00
UVM_INFO src/tb/sequences/axi_sanity_test.sv(23) @ 275: uvm_test_top.env.agt.wr_sqr@@wr_seq [AXI_SANITY_WR] WRITE addr=0x00000000 data=0x864a1e22 resp=0
UVM_INFO src/tb/agent/axi_input_monitor.sv(73) @ 295: uvm_test_top.env.agt.inp_mon [AXI_INP_MON] [WRITE INPUT COMPLETE] addr=0x00000010 data=0xda2a4096 strb=0xf
UVM_INFO src/tb/agent/axi_out_monitor.sv(54) @ 315: uvm_test_top.env.agt.out_mon [AXI_OUT_MON] [WRITE OUTPUT COMPLETE] resp=0
UVM_INFO src/tb/env/axi_scoreboard.sv(126) @ 315: uvm_test_top.env.scb [AXI_SCOREBOARD] [WRITE RESP PASS] addr=0x00000010 resp=2'b00
UVM_INFO src/tb/sequences/axi_sanity_test.sv(23) @ 325: uvm_test_top.env.agt.wr_sqr@@wr_seq [AXI_SANITY_WR] WRITE addr=0x00000010 data=0xda2a4096 resp=0
UVM_INFO src/tb/agent/axi_input_monitor.sv(73) @ 345: uvm_test_top.env.agt.inp_mon [AXI_INP_MON] [WRITE INPUT COMPLETE] addr=0x00000020 data=0x8707eedc strb=0xf
UVM_INFO src/tb/agent/axi_out_monitor.sv(54) @ 365: uvm_test_top.env.agt.out_mon [AXI_OUT_MON] [WRITE OUTPUT COMPLETE] resp=0
UVM_INFO src/tb/env/axi_scoreboard.sv(126) @ 365: uvm_test_top.env.scb [AXI_SCOREBOARD] [WRITE RESP PASS] addr=0x00000020 resp=2'b00
UVM_INFO src/tb/sequences/axi_sanity_test.sv(23) @ 375: uvm_test_top.env.agt.wr_sqr@@wr_seq [AXI_SANITY_WR] WRITE addr=0x00000020 data=0x8707eedc resp=0
UVM_INFO src/tb/agent/axi_input_monitor.sv(73) @ 395: uvm_test_top.env.agt.inp_mon [AXI_INP_MON] [WRITE INPUT COMPLETE] addr=0x0000000c data=0xb747a410 strb=0xf
UVM_INFO src/tb/agent/axi_out_monitor.sv(54) @ 415: uvm_test_top.env.agt.out_mon [AXI_OUT_MON] [WRITE OUTPUT COMPLETE] resp=0
UVM_INFO src/tb/env/axi_scoreboard.sv(126) @ 415: uvm_test_top.env.scb [AXI_SCOREBOARD] [WRITE RESP PASS] addr=0x0000000c resp=2'b00
UVM_INFO src/tb/sequences/axi_sanity_test.sv(23) @ 425: uvm_test_top.env.agt.wr_sqr@@wr_seq [AXI_SANITY_WR] WRITE addr=0x0000000c data=0xb747a410 resp=0
UVM_INFO src/tb/agent/axi_input_monitor.sv(73) @ 445: uvm_test_top.env.agt.inp_mon [AXI_INP_MON] [WRITE INPUT COMPLETE] addr=0x00000004 data=0xf6279f58 strb=0xf
UVM_INFO src/tb/agent/axi_out_monitor.sv(54) @ 465: uvm_test_top.env.agt.out_mon [AXI_OUT_MON] [WRITE OUTPUT COMPLETE] resp=0
UVM_INFO src/tb/env/axi_scoreboard.sv(126) @ 465: uvm_test_top.env.scb [AXI_SCOREBOARD] [WRITE RESP PASS] addr=0x00000004 resp=2'b00
UVM_INFO src/tb/sequences/axi_sanity_test.sv(23) @ 475: uvm_test_top.env.agt.wr_sqr@@wr_seq [AXI_SANITY_WR] WRITE addr=0x00000004 data=0xf6279f58 resp=0
UVM_INFO src/tb/agent/axi_input_monitor.sv(73) @ 495: uvm_test_top.env.agt.inp_mon [AXI_INP_MON] [WRITE INPUT COMPLETE] addr=0x00000018 data=0x9765bd1c strb=0xf
UVM_INFO src/tb/agent/axi_out_monitor.sv(54) @ 515: uvm_test_top.env.agt.out_mon [AXI_OUT_MON] [WRITE OUTPUT COMPLETE] resp=0
UVM_INFO src/tb/env/axi_scoreboard.sv(126) @ 515: uvm_test_top.env.scb [AXI_SCOREBOARD] [WRITE RESP PASS] addr=0x00000018 resp=2'b00
UVM_INFO src/tb/sequences/axi_sanity_test.sv(23) @ 525: uvm_test_top.env.agt.wr_sqr@@wr_seq [AXI_SANITY_WR] WRITE addr=0x00000018 data=0x9765bd1c resp=0
UVM_INFO src/tb/agent/axi_input_monitor.sv(73) @ 545: uvm_test_top.env.agt.inp_mon [AXI_INP_MON] [WRITE INPUT COMPLETE] addr=0x00000024 data=0x8148192e strb=0xf
UVM_INFO src/tb/agent/axi_out_monitor.sv(54) @ 565: uvm_test_top.env.agt.out_mon [AXI_OUT_MON] [WRITE OUTPUT COMPLETE] resp=0
UVM_INFO src/tb/env/axi_scoreboard.sv(126) @ 565: uvm_test_top.env.scb [AXI_SCOREBOARD] [WRITE RESP PASS] addr=0x00000024 resp=2'b00
UVM_INFO src/tb/sequences/axi_sanity_test.sv(23) @ 575: uvm_test_top.env.agt.wr_sqr@@wr_seq [AXI_SANITY_WR] WRITE addr=0x00000024 data=0x8148192e resp=0
UVM_INFO src/tb/agent/axi_input_monitor.sv(73) @ 595: uvm_test_top.env.agt.inp_mon [AXI_INP_MON] [WRITE INPUT COMPLETE] addr=0x0000000c data=0x5a74cebf strb=0xf
UVM_INFO src/tb/agent/axi_out_monitor.sv(54) @ 615: uvm_test_top.env.agt.out_mon [AXI_OUT_MON] [WRITE OUTPUT COMPLETE] resp=0
UVM_INFO src/tb/env/axi_scoreboard.sv(126) @ 615: uvm_test_top.env.scb [AXI_SCOREBOARD] [WRITE RESP PASS] addr=0x0000000c resp=2'b00
UVM_INFO src/tb/sequences/axi_sanity_test.sv(23) @ 625: uvm_test_top.env.agt.wr_sqr@@wr_seq [AXI_SANITY_WR] WRITE addr=0x0000000c data=0x5a74cebf resp=0
UVM_INFO src/tb/agent/axi_input_monitor.sv(73) @ 645: uvm_test_top.env.agt.inp_mon [AXI_INP_MON] [WRITE INPUT COMPLETE] addr=0x00000020 data=0x00569a6e strb=0xf
UVM_INFO src/tb/agent/axi_out_monitor.sv(54) @ 665: uvm_test_top.env.agt.out_mon [AXI_OUT_MON] [WRITE OUTPUT COMPLETE] resp=0
UVM_INFO src/tb/env/axi_scoreboard.sv(126) @ 665: uvm_test_top.env.scb [AXI_SCOREBOARD] [WRITE RESP PASS] addr=0x00000020 resp=2'b00
UVM_INFO src/tb/sequences/axi_sanity_test.sv(23) @ 675: uvm_test_top.env.agt.wr_sqr@@wr_seq [AXI_SANITY_WR] WRITE addr=0x00000020 data=0x00569a6e resp=0
UVM_INFO src/tb/agent/axi_input_monitor.sv(73) @ 695: uvm_test_top.env.agt.inp_mon [AXI_INP_MON] [WRITE INPUT COMPLETE] addr=0x00000018 data=0xbbee3a15 strb=0xf
UVM_INFO src/tb/agent/axi_out_monitor.sv(54) @ 715: uvm_test_top.env.agt.out_mon [AXI_OUT_MON] [WRITE OUTPUT COMPLETE] resp=0
UVM_INFO src/tb/env/axi_scoreboard.sv(126) @ 715: uvm_test_top.env.scb [AXI_SCOREBOARD] [WRITE RESP PASS] addr=0x00000018 resp=2'b00
UVM_INFO src/tb/sequences/axi_sanity_test.sv(23) @ 725: uvm_test_top.env.agt.wr_sqr@@wr_seq [AXI_SANITY_WR] WRITE addr=0x00000018 data=0xbbee3a15 resp=0
UVM_INFO src/tb/agent/axi_input_monitor.sv(73) @ 745: uvm_test_top.env.agt.inp_mon [AXI_INP_MON] [WRITE INPUT COMPLETE] addr=0x0000000c data=0xd557c5cf strb=0xf
UVM_INFO src/tb/agent/axi_out_monitor.sv(54) @ 765: uvm_test_top.env.agt.out_mon [AXI_OUT_MON] [WRITE OUTPUT COMPLETE] resp=0
UVM_INFO src/tb/env/axi_scoreboard.sv(126) @ 765: uvm_test_top.env.scb [AXI_SCOREBOARD] [WRITE RESP PASS] addr=0x0000000c resp=2'b00
UVM_INFO src/tb/sequences/axi_sanity_test.sv(23) @ 775: uvm_test_top.env.agt.wr_sqr@@wr_seq [AXI_SANITY_WR] WRITE addr=0x0000000c data=0xd557c5cf resp=0
UVM_INFO src/tb/agent/axi_input_monitor.sv(73) @ 795: uvm_test_top.env.agt.inp_mon [AXI_INP_MON] [WRITE INPUT COMPLETE] addr=0x00000008 data=0x6954dc97 strb=0xf
UVM_INFO src/tb/agent/axi_out_monitor.sv(54) @ 815: uvm_test_top.env.agt.out_mon [AXI_OUT_MON] [WRITE OUTPUT COMPLETE] resp=0
UVM_INFO src/tb/env/axi_scoreboard.sv(126) @ 815: uvm_test_top.env.scb [AXI_SCOREBOARD] [WRITE RESP PASS] addr=0x00000008 resp=2'b00
UVM_INFO src/tb/sequences/axi_sanity_test.sv(23) @ 825: uvm_test_top.env.agt.wr_sqr@@wr_seq [AXI_SANITY_WR] WRITE addr=0x00000008 data=0x6954dc97 resp=0
UVM_INFO src/tb/agent/axi_input_monitor.sv(73) @ 845: uvm_test_top.env.agt.inp_mon [AXI_INP_MON] [WRITE INPUT COMPLETE] addr=0x00000018 data=0xed5fe6b1 strb=0xf
UVM_INFO src/tb/agent/axi_out_monitor.sv(54) @ 865: uvm_test_top.env.agt.out_mon [AXI_OUT_MON] [WRITE OUTPUT COMPLETE] resp=0
UVM_INFO src/tb/env/axi_scoreboard.sv(126) @ 865: uvm_test_top.env.scb [AXI_SCOREBOARD] [WRITE RESP PASS] addr=0x00000018 resp=2'b00
UVM_INFO src/tb/sequences/axi_sanity_test.sv(23) @ 875: uvm_test_top.env.agt.wr_sqr@@wr_seq [AXI_SANITY_WR] WRITE addr=0x00000018 data=0xed5fe6b1 resp=0
UVM_INFO src/tb/agent/axi_input_monitor.sv(73) @ 895: uvm_test_top.env.agt.inp_mon [AXI_INP_MON] [WRITE INPUT COMPLETE] addr=0x00000004 data=0x76793201 strb=0xf
UVM_INFO src/tb/agent/axi_out_monitor.sv(54) @ 915: uvm_test_top.env.agt.out_mon [AXI_OUT_MON] [WRITE OUTPUT COMPLETE] resp=0
UVM_INFO src/tb/env/axi_scoreboard.sv(126) @ 915: uvm_test_top.env.scb [AXI_SCOREBOARD] [WRITE RESP PASS] addr=0x00000004 resp=2'b00
UVM_INFO src/tb/sequences/axi_sanity_test.sv(23) @ 925: uvm_test_top.env.agt.wr_sqr@@wr_seq [AXI_SANITY_WR] WRITE addr=0x00000004 data=0x76793201 resp=0
UVM_INFO src/tb/agent/axi_input_monitor.sv(73) @ 945: uvm_test_top.env.agt.inp_mon [AXI_INP_MON] [WRITE INPUT COMPLETE] addr=0x00000008 data=0x9c509410 strb=0xf
UVM_INFO src/tb/agent/axi_out_monitor.sv(54) @ 965: uvm_test_top.env.agt.out_mon [AXI_OUT_MON] [WRITE OUTPUT COMPLETE] resp=0
UVM_INFO src/tb/env/axi_scoreboard.sv(126) @ 965: uvm_test_top.env.scb [AXI_SCOREBOARD] [WRITE RESP PASS] addr=0x00000008 resp=2'b00
UVM_INFO src/tb/sequences/axi_sanity_test.sv(23) @ 975: uvm_test_top.env.agt.wr_sqr@@wr_seq [AXI_SANITY_WR] WRITE addr=0x00000008 data=0x9c509410 resp=0
UVM_INFO src/tb/agent/axi_input_monitor.sv(73) @ 995: uvm_test_top.env.agt.inp_mon [AXI_INP_MON] [WRITE INPUT COMPLETE] addr=0x00000014 data=0x08257dca strb=0xf
UVM_INFO src/tb/agent/axi_out_monitor.sv(54) @ 1015: uvm_test_top.env.agt.out_mon [AXI_OUT_MON] [WRITE OUTPUT COMPLETE] resp=0
UVM_INFO src/tb/env/axi_scoreboard.sv(126) @ 1015: uvm_test_top.env.scb [AXI_SCOREBOARD] [WRITE RESP PASS] addr=0x00000014 resp=2'b00
UVM_INFO src/tb/sequences/axi_sanity_test.sv(23) @ 1025: uvm_test_top.env.agt.wr_sqr@@wr_seq [AXI_SANITY_WR] WRITE addr=0x00000014 data=0x08257dca resp=0
UVM_INFO src/tb/agent/axi_input_monitor.sv(73) @ 1045: uvm_test_top.env.agt.inp_mon [AXI_INP_MON] [WRITE INPUT COMPLETE] addr=0x0000001c data=0x762248e6 strb=0xf
UVM_INFO src/tb/agent/axi_out_monitor.sv(54) @ 1065: uvm_test_top.env.agt.out_mon [AXI_OUT_MON] [WRITE OUTPUT COMPLETE] resp=0
UVM_INFO src/tb/env/axi_scoreboard.sv(126) @ 1065: uvm_test_top.env.scb [AXI_SCOREBOARD] [WRITE RESP PASS] addr=0x0000001c resp=2'b00
UVM_INFO src/tb/sequences/axi_sanity_test.sv(23) @ 1075: uvm_test_top.env.agt.wr_sqr@@wr_seq [AXI_SANITY_WR] WRITE addr=0x0000001c data=0x762248e6 resp=0
UVM_INFO src/tb/agent/axi_input_monitor.sv(73) @ 1095: uvm_test_top.env.agt.inp_mon [AXI_INP_MON] [WRITE INPUT COMPLETE] addr=0x0000001c data=0xfba3cec4 strb=0xf
UVM_INFO src/tb/agent/axi_out_monitor.sv(54) @ 1115: uvm_test_top.env.agt.out_mon [AXI_OUT_MON] [WRITE OUTPUT COMPLETE] resp=0
UVM_INFO src/tb/env/axi_scoreboard.sv(126) @ 1115: uvm_test_top.env.scb [AXI_SCOREBOARD] [WRITE RESP PASS] addr=0x0000001c resp=2'b00
UVM_INFO src/tb/sequences/axi_sanity_test.sv(23) @ 1125: uvm_test_top.env.agt.wr_sqr@@wr_seq [AXI_SANITY_WR] WRITE addr=0x0000001c data=0xfba3cec4 resp=0
UVM_INFO src/tb/agent/axi_input_monitor.sv(73) @ 1145: uvm_test_top.env.agt.inp_mon [AXI_INP_MON] [WRITE INPUT COMPLETE] addr=0x0000003c data=0xfca92415 strb=0xf
UVM_INFO src/tb/agent/axi_out_monitor.sv(54) @ 1165: uvm_test_top.env.agt.out_mon [AXI_OUT_MON] [WRITE OUTPUT COMPLETE] resp=0
UVM_INFO src/tb/env/axi_scoreboard.sv(126) @ 1165: uvm_test_top.env.scb [AXI_SCOREBOARD] [WRITE RESP PASS] addr=0x0000003c resp=2'b00
UVM_INFO src/tb/sequences/axi_sanity_test.sv(23) @ 1175: uvm_test_top.env.agt.wr_sqr@@wr_seq [AXI_SANITY_WR] WRITE addr=0x0000003c data=0xfca92415 resp=0
UVM_INFO src/tb/agent/axi_input_monitor.sv(73) @ 1195: uvm_test_top.env.agt.inp_mon [AXI_INP_MON] [WRITE INPUT COMPLETE] addr=0x0000003c data=0x2ef14e40 strb=0xf
UVM_INFO src/tb/agent/axi_out_monitor.sv(54) @ 1215: uvm_test_top.env.agt.out_mon [AXI_OUT_MON] [WRITE OUTPUT COMPLETE] resp=0
UVM_INFO src/tb/env/axi_scoreboard.sv(126) @ 1215: uvm_test_top.env.scb [AXI_SCOREBOARD] [WRITE RESP PASS] addr=0x0000003c resp=2'b00
UVM_INFO src/tb/sequences/axi_sanity_test.sv(23) @ 1225: uvm_test_top.env.agt.wr_sqr@@wr_seq [AXI_SANITY_WR] WRITE addr=0x0000003c data=0x2ef14e40 resp=0
UVM_INFO src/tb/agent/axi_input_monitor.sv(73) @ 1245: uvm_test_top.env.agt.inp_mon [AXI_INP_MON] [WRITE INPUT COMPLETE] addr=0x00000000 data=0x393e3219 strb=0xf
UVM_INFO src/tb/agent/axi_out_monitor.sv(54) @ 1265: uvm_test_top.env.agt.out_mon [AXI_OUT_MON] [WRITE OUTPUT COMPLETE] resp=0
UVM_INFO src/tb/env/axi_scoreboard.sv(126) @ 1265: uvm_test_top.env.scb [AXI_SCOREBOARD] [WRITE RESP PASS] addr=0x00000000 resp=2'b00
UVM_INFO src/tb/sequences/axi_sanity_test.sv(23) @ 1275: uvm_test_top.env.agt.wr_sqr@@wr_seq [AXI_SANITY_WR] WRITE addr=0x00000000 data=0x393e3219 resp=0
UVM_INFO src/tb/agent/axi_input_monitor.sv(73) @ 1295: uvm_test_top.env.agt.inp_mon [AXI_INP_MON] [WRITE INPUT COMPLETE] addr=0x00000008 data=0x7511cfa7 strb=0xf
UVM_INFO src/tb/agent/axi_out_monitor.sv(54) @ 1315: uvm_test_top.env.agt.out_mon [AXI_OUT_MON] [WRITE OUTPUT COMPLETE] resp=0
UVM_INFO src/tb/env/axi_scoreboard.sv(126) @ 1315: uvm_test_top.env.scb [AXI_SCOREBOARD] [WRITE RESP PASS] addr=0x00000008 resp=2'b00
UVM_INFO src/tb/sequences/axi_sanity_test.sv(23) @ 1325: uvm_test_top.env.agt.wr_sqr@@wr_seq [AXI_SANITY_WR] WRITE addr=0x00000008 data=0x7511cfa7 resp=0
UVM_INFO src/tb/agent/axi_input_monitor.sv(73) @ 1345: uvm_test_top.env.agt.inp_mon [AXI_INP_MON] [WRITE INPUT COMPLETE] addr=0x00000018 data=0x464fd40b strb=0xf
UVM_INFO src/tb/agent/axi_out_monitor.sv(54) @ 1365: uvm_test_top.env.agt.out_mon [AXI_OUT_MON] [WRITE OUTPUT COMPLETE] resp=0
UVM_INFO src/tb/env/axi_scoreboard.sv(126) @ 1365: uvm_test_top.env.scb [AXI_SCOREBOARD] [WRITE RESP PASS] addr=0x00000018 resp=2'b00
UVM_INFO src/tb/sequences/axi_sanity_test.sv(23) @ 1375: uvm_test_top.env.agt.wr_sqr@@wr_seq [AXI_SANITY_WR] WRITE addr=0x00000018 data=0x464fd40b resp=0
UVM_INFO src/tb/agent/axi_input_monitor.sv(73) @ 1395: uvm_test_top.env.agt.inp_mon [AXI_INP_MON] [WRITE INPUT COMPLETE] addr=0x0000003c data=0x3a20668b strb=0xf
UVM_INFO src/tb/agent/axi_out_monitor.sv(54) @ 1415: uvm_test_top.env.agt.out_mon [AXI_OUT_MON] [WRITE OUTPUT COMPLETE] resp=0
UVM_INFO src/tb/env/axi_scoreboard.sv(126) @ 1415: uvm_test_top.env.scb [AXI_SCOREBOARD] [WRITE RESP PASS] addr=0x0000003c resp=2'b00
UVM_INFO src/tb/sequences/axi_sanity_test.sv(23) @ 1425: uvm_test_top.env.agt.wr_sqr@@wr_seq [AXI_SANITY_WR] WRITE addr=0x0000003c data=0x3a20668b resp=0
UVM_INFO src/tb/agent/axi_input_monitor.sv(73) @ 1445: uvm_test_top.env.agt.inp_mon [AXI_INP_MON] [WRITE INPUT COMPLETE] addr=0x00000010 data=0x7318a6c1 strb=0xf
UVM_INFO src/tb/agent/axi_out_monitor.sv(54) @ 1465: uvm_test_top.env.agt.out_mon [AXI_OUT_MON] [WRITE OUTPUT COMPLETE] resp=0
UVM_INFO src/tb/env/axi_scoreboard.sv(126) @ 1465: uvm_test_top.env.scb [AXI_SCOREBOARD] [WRITE RESP PASS] addr=0x00000010 resp=2'b00
UVM_INFO src/tb/sequences/axi_sanity_test.sv(23) @ 1475: uvm_test_top.env.agt.wr_sqr@@wr_seq [AXI_SANITY_WR] WRITE addr=0x00000010 data=0x7318a6c1 resp=0
UVM_INFO src/tb/agent/axi_input_monitor.sv(73) @ 1495: uvm_test_top.env.agt.inp_mon [AXI_INP_MON] [WRITE INPUT COMPLETE] addr=0x00000020 data=0xd10cacb0 strb=0xf
UVM_INFO src/tb/agent/axi_out_monitor.sv(54) @ 1515: uvm_test_top.env.agt.out_mon [AXI_OUT_MON] [WRITE OUTPUT COMPLETE] resp=0
UVM_INFO src/tb/env/axi_scoreboard.sv(126) @ 1515: uvm_test_top.env.scb [AXI_SCOREBOARD] [WRITE RESP PASS] addr=0x00000020 resp=2'b00
UVM_INFO src/tb/sequences/axi_sanity_test.sv(23) @ 1525: uvm_test_top.env.agt.wr_sqr@@wr_seq [AXI_SANITY_WR] WRITE addr=0x00000020 data=0xd10cacb0 resp=0
UVM_INFO src/tb/sequences/axi_sanity_test.sv(27) @ 1525: uvm_test_top.env.agt.wr_sqr@@wr_seq [AXI_SANITY_WR] Sanity Write Sequence Complete
UVM_INFO src/tb/sequences/axi_sanity_test.sv(43) @ 1525: uvm_test_top.env.agt.rd_sqr@@rd_seq [AXI_SANITY_RD] Starting Sanity Read Sequence
UVM_INFO src/tb/agent/axi_input_monitor.sv(102) @ 1535: uvm_test_top.env.agt.inp_mon [AXI_INP_MON] [READ INPUT COMPLETE] addr=0x00000018
UVM_INFO src/tb/agent/axi_out_monitor.sv(81) @ 1545: uvm_test_top.env.agt.out_mon [AXI_OUT_MON] [READ OUTPUT COMPLETE] data=0x464fd40b resp=0
UVM_INFO src/tb/env/axi_scoreboard.sv(174) @ 1545: uvm_test_top.env.scb [AXI_SCOREBOARD] [READ DATA PASS] addr=0x00000018 data=0x464fd40b
UVM_INFO src/tb/sequences/axi_sanity_test.sv(52) @ 1555: uvm_test_top.env.agt.rd_sqr@@rd_seq [AXI_SANITY_RD] READ addr=0x00000018 data=0x464fd40b resp=0
UVM_INFO src/tb/agent/axi_input_monitor.sv(102) @ 1565: uvm_test_top.env.agt.inp_mon [AXI_INP_MON] [READ INPUT COMPLETE] addr=0x00000010
UVM_INFO src/tb/agent/axi_out_monitor.sv(81) @ 1575: uvm_test_top.env.agt.out_mon [AXI_OUT_MON] [READ OUTPUT COMPLETE] data=0x7318a6c1 resp=0
UVM_INFO src/tb/env/axi_scoreboard.sv(174) @ 1575: uvm_test_top.env.scb [AXI_SCOREBOARD] [READ DATA PASS] addr=0x00000010 data=0x7318a6c1
UVM_INFO src/tb/sequences/axi_sanity_test.sv(52) @ 1585: uvm_test_top.env.agt.rd_sqr@@rd_seq [AXI_SANITY_RD] READ addr=0x00000010 data=0x7318a6c1 resp=0
UVM_INFO src/tb/agent/axi_input_monitor.sv(102) @ 1595: uvm_test_top.env.agt.inp_mon [AXI_INP_MON] [READ INPUT COMPLETE] addr=0x00000024
UVM_INFO src/tb/agent/axi_out_monitor.sv(81) @ 1605: uvm_test_top.env.agt.out_mon [AXI_OUT_MON] [READ OUTPUT COMPLETE] data=0x8148192e resp=0
UVM_INFO src/tb/env/axi_scoreboard.sv(174) @ 1605: uvm_test_top.env.scb [AXI_SCOREBOARD] [READ DATA PASS] addr=0x00000024 data=0x8148192e
UVM_INFO src/tb/sequences/axi_sanity_test.sv(52) @ 1615: uvm_test_top.env.agt.rd_sqr@@rd_seq [AXI_SANITY_RD] READ addr=0x00000024 data=0x8148192e resp=0
UVM_INFO src/tb/agent/axi_input_monitor.sv(102) @ 1625: uvm_test_top.env.agt.inp_mon [AXI_INP_MON] [READ INPUT COMPLETE] addr=0x0000000c
UVM_INFO src/tb/agent/axi_out_monitor.sv(81) @ 1635: uvm_test_top.env.agt.out_mon [AXI_OUT_MON] [READ OUTPUT COMPLETE] data=0xd557c5cf resp=0
UVM_INFO src/tb/env/axi_scoreboard.sv(174) @ 1635: uvm_test_top.env.scb [AXI_SCOREBOARD] [READ DATA PASS] addr=0x0000000c data=0xd557c5cf
UVM_INFO src/tb/sequences/axi_sanity_test.sv(52) @ 1645: uvm_test_top.env.agt.rd_sqr@@rd_seq [AXI_SANITY_RD] READ addr=0x0000000c data=0xd557c5cf resp=0
UVM_INFO src/tb/agent/axi_input_monitor.sv(102) @ 1655: uvm_test_top.env.agt.inp_mon [AXI_INP_MON] [READ INPUT COMPLETE] addr=0x00000024
UVM_INFO src/tb/agent/axi_out_monitor.sv(81) @ 1665: uvm_test_top.env.agt.out_mon [AXI_OUT_MON] [READ OUTPUT COMPLETE] data=0x8148192e resp=0
UVM_INFO src/tb/env/axi_scoreboard.sv(174) @ 1665: uvm_test_top.env.scb [AXI_SCOREBOARD] [READ DATA PASS] addr=0x00000024 data=0x8148192e
UVM_INFO src/tb/sequences/axi_sanity_test.sv(52) @ 1675: uvm_test_top.env.agt.rd_sqr@@rd_seq [AXI_SANITY_RD] READ addr=0x00000024 data=0x8148192e resp=0
UVM_INFO src/tb/agent/axi_input_monitor.sv(102) @ 1685: uvm_test_top.env.agt.inp_mon [AXI_INP_MON] [READ INPUT COMPLETE] addr=0x0000003c
UVM_INFO src/tb/agent/axi_out_monitor.sv(81) @ 1695: uvm_test_top.env.agt.out_mon [AXI_OUT_MON] [READ OUTPUT COMPLETE] data=0x3a20668b resp=0
UVM_INFO src/tb/env/axi_scoreboard.sv(174) @ 1695: uvm_test_top.env.scb [AXI_SCOREBOARD] [READ DATA PASS] addr=0x0000003c data=0x3a20668b
UVM_INFO src/tb/sequences/axi_sanity_test.sv(52) @ 1705: uvm_test_top.env.agt.rd_sqr@@rd_seq [AXI_SANITY_RD] READ addr=0x0000003c data=0x3a20668b resp=0
UVM_INFO src/tb/agent/axi_input_monitor.sv(102) @ 1715: uvm_test_top.env.agt.inp_mon [AXI_INP_MON] [READ INPUT COMPLETE] addr=0x00000004
UVM_INFO src/tb/agent/axi_out_monitor.sv(81) @ 1725: uvm_test_top.env.agt.out_mon [AXI_OUT_MON] [READ OUTPUT COMPLETE] data=0x76793201 resp=0
UVM_INFO src/tb/env/axi_scoreboard.sv(174) @ 1725: uvm_test_top.env.scb [AXI_SCOREBOARD] [READ DATA PASS] addr=0x00000004 data=0x76793201
UVM_INFO src/tb/sequences/axi_sanity_test.sv(52) @ 1735: uvm_test_top.env.agt.rd_sqr@@rd_seq [AXI_SANITY_RD] READ addr=0x00000004 data=0x76793201 resp=0
UVM_INFO src/tb/agent/axi_input_monitor.sv(102) @ 1745: uvm_test_top.env.agt.inp_mon [AXI_INP_MON] [READ INPUT COMPLETE] addr=0x0000003c
UVM_INFO src/tb/agent/axi_out_monitor.sv(81) @ 1755: uvm_test_top.env.agt.out_mon [AXI_OUT_MON] [READ OUTPUT COMPLETE] data=0x3a20668b resp=0
UVM_INFO src/tb/env/axi_scoreboard.sv(174) @ 1755: uvm_test_top.env.scb [AXI_SCOREBOARD] [READ DATA PASS] addr=0x0000003c data=0x3a20668b
UVM_INFO src/tb/sequences/axi_sanity_test.sv(52) @ 1765: uvm_test_top.env.agt.rd_sqr@@rd_seq [AXI_SANITY_RD] READ addr=0x0000003c data=0x3a20668b resp=0
UVM_INFO src/tb/agent/axi_input_monitor.sv(102) @ 1775: uvm_test_top.env.agt.inp_mon [AXI_INP_MON] [READ INPUT COMPLETE] addr=0x0000000c
UVM_INFO src/tb/agent/axi_out_monitor.sv(81) @ 1785: uvm_test_top.env.agt.out_mon [AXI_OUT_MON] [READ OUTPUT COMPLETE] data=0xd557c5cf resp=0
UVM_INFO src/tb/env/axi_scoreboard.sv(174) @ 1785: uvm_test_top.env.scb [AXI_SCOREBOARD] [READ DATA PASS] addr=0x0000000c data=0xd557c5cf
UVM_INFO src/tb/sequences/axi_sanity_test.sv(52) @ 1795: uvm_test_top.env.agt.rd_sqr@@rd_seq [AXI_SANITY_RD] READ addr=0x0000000c data=0xd557c5cf resp=0
UVM_INFO src/tb/agent/axi_input_monitor.sv(102) @ 1805: uvm_test_top.env.agt.inp_mon [AXI_INP_MON] [READ INPUT COMPLETE] addr=0x00000014
UVM_INFO src/tb/agent/axi_out_monitor.sv(81) @ 1815: uvm_test_top.env.agt.out_mon [AXI_OUT_MON] [READ OUTPUT COMPLETE] data=0x08257dca resp=0
UVM_INFO src/tb/env/axi_scoreboard.sv(174) @ 1815: uvm_test_top.env.scb [AXI_SCOREBOARD] [READ DATA PASS] addr=0x00000014 data=0x08257dca
UVM_INFO src/tb/sequences/axi_sanity_test.sv(52) @ 1825: uvm_test_top.env.agt.rd_sqr@@rd_seq [AXI_SANITY_RD] READ addr=0x00000014 data=0x08257dca resp=0
UVM_INFO src/tb/agent/axi_input_monitor.sv(102) @ 1835: uvm_test_top.env.agt.inp_mon [AXI_INP_MON] [READ INPUT COMPLETE] addr=0x00000000
UVM_INFO src/tb/agent/axi_out_monitor.sv(81) @ 1845: uvm_test_top.env.agt.out_mon [AXI_OUT_MON] [READ OUTPUT COMPLETE] data=0x393e3219 resp=0
UVM_INFO src/tb/env/axi_scoreboard.sv(174) @ 1845: uvm_test_top.env.scb [AXI_SCOREBOARD] [READ DATA PASS] addr=0x00000000 data=0x393e3219
UVM_INFO src/tb/sequences/axi_sanity_test.sv(52) @ 1855: uvm_test_top.env.agt.rd_sqr@@rd_seq [AXI_SANITY_RD] READ addr=0x00000000 data=0x393e3219 resp=0
UVM_INFO src/tb/agent/axi_input_monitor.sv(102) @ 1865: uvm_test_top.env.agt.inp_mon [AXI_INP_MON] [READ INPUT COMPLETE] addr=0x00000000
UVM_INFO src/tb/agent/axi_out_monitor.sv(81) @ 1875: uvm_test_top.env.agt.out_mon [AXI_OUT_MON] [READ OUTPUT COMPLETE] data=0x393e3219 resp=0
UVM_INFO src/tb/env/axi_scoreboard.sv(174) @ 1875: uvm_test_top.env.scb [AXI_SCOREBOARD] [READ DATA PASS] addr=0x00000000 data=0x393e3219
UVM_INFO src/tb/sequences/axi_sanity_test.sv(52) @ 1885: uvm_test_top.env.agt.rd_sqr@@rd_seq [AXI_SANITY_RD] READ addr=0x00000000 data=0x393e3219 resp=0
UVM_INFO src/tb/agent/axi_input_monitor.sv(102) @ 1895: uvm_test_top.env.agt.inp_mon [AXI_INP_MON] [READ INPUT COMPLETE] addr=0x00000014
UVM_INFO src/tb/agent/axi_out_monitor.sv(81) @ 1905: uvm_test_top.env.agt.out_mon [AXI_OUT_MON] [READ OUTPUT COMPLETE] data=0x08257dca resp=0
UVM_INFO src/tb/env/axi_scoreboard.sv(174) @ 1905: uvm_test_top.env.scb [AXI_SCOREBOARD] [READ DATA PASS] addr=0x00000014 data=0x08257dca
UVM_INFO src/tb/sequences/axi_sanity_test.sv(52) @ 1915: uvm_test_top.env.agt.rd_sqr@@rd_seq [AXI_SANITY_RD] READ addr=0x00000014 data=0x08257dca resp=0
UVM_INFO src/tb/agent/axi_input_monitor.sv(102) @ 1925: uvm_test_top.env.agt.inp_mon [AXI_INP_MON] [READ INPUT COMPLETE] addr=0x00000000
UVM_INFO src/tb/agent/axi_out_monitor.sv(81) @ 1935: uvm_test_top.env.agt.out_mon [AXI_OUT_MON] [READ OUTPUT COMPLETE] data=0x393e3219 resp=0
UVM_INFO src/tb/env/axi_scoreboard.sv(174) @ 1935: uvm_test_top.env.scb [AXI_SCOREBOARD] [READ DATA PASS] addr=0x00000000 data=0x393e3219
UVM_INFO src/tb/sequences/axi_sanity_test.sv(52) @ 1945: uvm_test_top.env.agt.rd_sqr@@rd_seq [AXI_SANITY_RD] READ addr=0x00000000 data=0x393e3219 resp=0
UVM_INFO src/tb/agent/axi_input_monitor.sv(102) @ 1955: uvm_test_top.env.agt.inp_mon [AXI_INP_MON] [READ INPUT COMPLETE] addr=0x0000002c
UVM_INFO src/tb/agent/axi_out_monitor.sv(81) @ 1965: uvm_test_top.env.agt.out_mon [AXI_OUT_MON] [READ OUTPUT COMPLETE] data=0x00000000 resp=0
UVM_INFO src/tb/env/axi_scoreboard.sv(174) @ 1965: uvm_test_top.env.scb [AXI_SCOREBOARD] [READ DATA PASS] addr=0x0000002c data=0x00000000
UVM_INFO src/tb/sequences/axi_sanity_test.sv(52) @ 1975: uvm_test_top.env.agt.rd_sqr@@rd_seq [AXI_SANITY_RD] READ addr=0x0000002c data=0x00000000 resp=0
UVM_INFO src/tb/agent/axi_input_monitor.sv(102) @ 1985: uvm_test_top.env.agt.inp_mon [AXI_INP_MON] [READ INPUT COMPLETE] addr=0x00000004
UVM_INFO src/tb/agent/axi_out_monitor.sv(81) @ 1995: uvm_test_top.env.agt.out_mon [AXI_OUT_MON] [READ OUTPUT COMPLETE] data=0x76793201 resp=0
UVM_INFO src/tb/env/axi_scoreboard.sv(174) @ 1995: uvm_test_top.env.scb [AXI_SCOREBOARD] [READ DATA PASS] addr=0x00000004 data=0x76793201
UVM_INFO src/tb/sequences/axi_sanity_test.sv(52) @ 2005: uvm_test_top.env.agt.rd_sqr@@rd_seq [AXI_SANITY_RD] READ addr=0x00000004 data=0x76793201 resp=0
UVM_INFO src/tb/agent/axi_input_monitor.sv(102) @ 2015: uvm_test_top.env.agt.inp_mon [AXI_INP_MON] [READ INPUT COMPLETE] addr=0x00000030
UVM_INFO src/tb/agent/axi_out_monitor.sv(81) @ 2025: uvm_test_top.env.agt.out_mon [AXI_OUT_MON] [READ OUTPUT COMPLETE] data=0x00000000 resp=0
UVM_INFO src/tb/env/axi_scoreboard.sv(174) @ 2025: uvm_test_top.env.scb [AXI_SCOREBOARD] [READ DATA PASS] addr=0x00000030 data=0x00000000
UVM_INFO src/tb/sequences/axi_sanity_test.sv(52) @ 2035: uvm_test_top.env.agt.rd_sqr@@rd_seq [AXI_SANITY_RD] READ addr=0x00000030 data=0x00000000 resp=0
UVM_INFO src/tb/agent/axi_input_monitor.sv(102) @ 2045: uvm_test_top.env.agt.inp_mon [AXI_INP_MON] [READ INPUT COMPLETE] addr=0x00000004
UVM_INFO src/tb/agent/axi_out_monitor.sv(81) @ 2055: uvm_test_top.env.agt.out_mon [AXI_OUT_MON] [READ OUTPUT COMPLETE] data=0x76793201 resp=0
UVM_INFO src/tb/env/axi_scoreboard.sv(174) @ 2055: uvm_test_top.env.scb [AXI_SCOREBOARD] [READ DATA PASS] addr=0x00000004 data=0x76793201
UVM_INFO src/tb/sequences/axi_sanity_test.sv(52) @ 2065: uvm_test_top.env.agt.rd_sqr@@rd_seq [AXI_SANITY_RD] READ addr=0x00000004 data=0x76793201 resp=0
UVM_INFO src/tb/agent/axi_input_monitor.sv(102) @ 2075: uvm_test_top.env.agt.inp_mon [AXI_INP_MON] [READ INPUT COMPLETE] addr=0x00000028
UVM_INFO src/tb/agent/axi_out_monitor.sv(81) @ 2085: uvm_test_top.env.agt.out_mon [AXI_OUT_MON] [READ OUTPUT COMPLETE] data=0x00000000 resp=0
UVM_INFO src/tb/env/axi_scoreboard.sv(174) @ 2085: uvm_test_top.env.scb [AXI_SCOREBOARD] [READ DATA PASS] addr=0x00000028 data=0x00000000
UVM_INFO src/tb/sequences/axi_sanity_test.sv(52) @ 2095: uvm_test_top.env.agt.rd_sqr@@rd_seq [AXI_SANITY_RD] READ addr=0x00000028 data=0x00000000 resp=0
UVM_INFO src/tb/agent/axi_input_monitor.sv(102) @ 2105: uvm_test_top.env.agt.inp_mon [AXI_INP_MON] [READ INPUT COMPLETE] addr=0x0000000c
UVM_INFO src/tb/agent/axi_out_monitor.sv(81) @ 2115: uvm_test_top.env.agt.out_mon [AXI_OUT_MON] [READ OUTPUT COMPLETE] data=0xd557c5cf resp=0
UVM_INFO src/tb/env/axi_scoreboard.sv(174) @ 2115: uvm_test_top.env.scb [AXI_SCOREBOARD] [READ DATA PASS] addr=0x0000000c data=0xd557c5cf
UVM_INFO src/tb/sequences/axi_sanity_test.sv(52) @ 2125: uvm_test_top.env.agt.rd_sqr@@rd_seq [AXI_SANITY_RD] READ addr=0x0000000c data=0xd557c5cf resp=0
UVM_INFO src/tb/agent/axi_input_monitor.sv(102) @ 2135: uvm_test_top.env.agt.inp_mon [AXI_INP_MON] [READ INPUT COMPLETE] addr=0x00000024
UVM_INFO src/tb/agent/axi_out_monitor.sv(81) @ 2145: uvm_test_top.env.agt.out_mon [AXI_OUT_MON] [READ OUTPUT COMPLETE] data=0x8148192e resp=0
UVM_INFO src/tb/env/axi_scoreboard.sv(174) @ 2145: uvm_test_top.env.scb [AXI_SCOREBOARD] [READ DATA PASS] addr=0x00000024 data=0x8148192e
UVM_INFO src/tb/sequences/axi_sanity_test.sv(52) @ 2155: uvm_test_top.env.agt.rd_sqr@@rd_seq [AXI_SANITY_RD] READ addr=0x00000024 data=0x8148192e resp=0
UVM_INFO src/tb/agent/axi_input_monitor.sv(102) @ 2165: uvm_test_top.env.agt.inp_mon [AXI_INP_MON] [READ INPUT COMPLETE] addr=0x0000001c
UVM_INFO src/tb/agent/axi_out_monitor.sv(81) @ 2175: uvm_test_top.env.agt.out_mon [AXI_OUT_MON] [READ OUTPUT COMPLETE] data=0xfba3cec4 resp=0
UVM_INFO src/tb/env/axi_scoreboard.sv(174) @ 2175: uvm_test_top.env.scb [AXI_SCOREBOARD] [READ DATA PASS] addr=0x0000001c data=0xfba3cec4
UVM_INFO src/tb/sequences/axi_sanity_test.sv(52) @ 2185: uvm_test_top.env.agt.rd_sqr@@rd_seq [AXI_SANITY_RD] READ addr=0x0000001c data=0xfba3cec4 resp=0
UVM_INFO src/tb/agent/axi_input_monitor.sv(102) @ 2195: uvm_test_top.env.agt.inp_mon [AXI_INP_MON] [READ INPUT COMPLETE] addr=0x00000004
UVM_INFO src/tb/agent/axi_out_monitor.sv(81) @ 2205: uvm_test_top.env.agt.out_mon [AXI_OUT_MON] [READ OUTPUT COMPLETE] data=0x76793201 resp=0
UVM_INFO src/tb/env/axi_scoreboard.sv(174) @ 2205: uvm_test_top.env.scb [AXI_SCOREBOARD] [READ DATA PASS] addr=0x00000004 data=0x76793201
UVM_INFO src/tb/sequences/axi_sanity_test.sv(52) @ 2215: uvm_test_top.env.agt.rd_sqr@@rd_seq [AXI_SANITY_RD] READ addr=0x00000004 data=0x76793201 resp=0
UVM_INFO src/tb/agent/axi_input_monitor.sv(102) @ 2225: uvm_test_top.env.agt.inp_mon [AXI_INP_MON] [READ INPUT COMPLETE] addr=0x00000020
UVM_INFO src/tb/agent/axi_out_monitor.sv(81) @ 2235: uvm_test_top.env.agt.out_mon [AXI_OUT_MON] [READ OUTPUT COMPLETE] data=0xd10cacb0 resp=0
UVM_INFO src/tb/env/axi_scoreboard.sv(174) @ 2235: uvm_test_top.env.scb [AXI_SCOREBOARD] [READ DATA PASS] addr=0x00000020 data=0xd10cacb0
UVM_INFO src/tb/sequences/axi_sanity_test.sv(52) @ 2245: uvm_test_top.env.agt.rd_sqr@@rd_seq [AXI_SANITY_RD] READ addr=0x00000020 data=0xd10cacb0 resp=0
UVM_INFO src/tb/agent/axi_input_monitor.sv(102) @ 2255: uvm_test_top.env.agt.inp_mon [AXI_INP_MON] [READ INPUT COMPLETE] addr=0x00000010
UVM_INFO src/tb/agent/axi_out_monitor.sv(81) @ 2265: uvm_test_top.env.agt.out_mon [AXI_OUT_MON] [READ OUTPUT COMPLETE] data=0x7318a6c1 resp=0
UVM_INFO src/tb/env/axi_scoreboard.sv(174) @ 2265: uvm_test_top.env.scb [AXI_SCOREBOARD] [READ DATA PASS] addr=0x00000010 data=0x7318a6c1
UVM_INFO src/tb/sequences/axi_sanity_test.sv(52) @ 2275: uvm_test_top.env.agt.rd_sqr@@rd_seq [AXI_SANITY_RD] READ addr=0x00000010 data=0x7318a6c1 resp=0
UVM_INFO src/tb/agent/axi_input_monitor.sv(102) @ 2285: uvm_test_top.env.agt.inp_mon [AXI_INP_MON] [READ INPUT COMPLETE] addr=0x00000010
UVM_INFO src/tb/agent/axi_out_monitor.sv(81) @ 2295: uvm_test_top.env.agt.out_mon [AXI_OUT_MON] [READ OUTPUT COMPLETE] data=0x7318a6c1 resp=0
UVM_INFO src/tb/env/axi_scoreboard.sv(174) @ 2295: uvm_test_top.env.scb [AXI_SCOREBOARD] [READ DATA PASS] addr=0x00000010 data=0x7318a6c1
UVM_INFO src/tb/sequences/axi_sanity_test.sv(52) @ 2305: uvm_test_top.env.agt.rd_sqr@@rd_seq [AXI_SANITY_RD] READ addr=0x00000010 data=0x7318a6c1 resp=0
UVM_INFO src/tb/agent/axi_input_monitor.sv(102) @ 2315: uvm_test_top.env.agt.inp_mon [AXI_INP_MON] [READ INPUT COMPLETE] addr=0x00000000
UVM_INFO src/tb/agent/axi_out_monitor.sv(81) @ 2325: uvm_test_top.env.agt.out_mon [AXI_OUT_MON] [READ OUTPUT COMPLETE] data=0x393e3219 resp=0
UVM_INFO src/tb/env/axi_scoreboard.sv(174) @ 2325: uvm_test_top.env.scb [AXI_SCOREBOARD] [READ DATA PASS] addr=0x00000000 data=0x393e3219
UVM_INFO src/tb/sequences/axi_sanity_test.sv(52) @ 2335: uvm_test_top.env.agt.rd_sqr@@rd_seq [AXI_SANITY_RD] READ addr=0x00000000 data=0x393e3219 resp=0
UVM_INFO src/tb/agent/axi_input_monitor.sv(102) @ 2345: uvm_test_top.env.agt.inp_mon [AXI_INP_MON] [READ INPUT COMPLETE] addr=0x0000000c
UVM_INFO src/tb/agent/axi_out_monitor.sv(81) @ 2355: uvm_test_top.env.agt.out_mon [AXI_OUT_MON] [READ OUTPUT COMPLETE] data=0xd557c5cf resp=0
UVM_INFO src/tb/env/axi_scoreboard.sv(174) @ 2355: uvm_test_top.env.scb [AXI_SCOREBOARD] [READ DATA PASS] addr=0x0000000c data=0xd557c5cf
UVM_INFO src/tb/sequences/axi_sanity_test.sv(52) @ 2365: uvm_test_top.env.agt.rd_sqr@@rd_seq [AXI_SANITY_RD] READ addr=0x0000000c data=0xd557c5cf resp=0
UVM_INFO src/tb/agent/axi_input_monitor.sv(102) @ 2375: uvm_test_top.env.agt.inp_mon [AXI_INP_MON] [READ INPUT COMPLETE] addr=0x0000001c
UVM_INFO src/tb/agent/axi_out_monitor.sv(81) @ 2385: uvm_test_top.env.agt.out_mon [AXI_OUT_MON] [READ OUTPUT COMPLETE] data=0xfba3cec4 resp=0
UVM_INFO src/tb/env/axi_scoreboard.sv(174) @ 2385: uvm_test_top.env.scb [AXI_SCOREBOARD] [READ DATA PASS] addr=0x0000001c data=0xfba3cec4
UVM_INFO src/tb/sequences/axi_sanity_test.sv(52) @ 2395: uvm_test_top.env.agt.rd_sqr@@rd_seq [AXI_SANITY_RD] READ addr=0x0000001c data=0xfba3cec4 resp=0
UVM_INFO src/tb/agent/axi_input_monitor.sv(102) @ 2405: uvm_test_top.env.agt.inp_mon [AXI_INP_MON] [READ INPUT COMPLETE] addr=0x0000000c
UVM_INFO src/tb/agent/axi_out_monitor.sv(81) @ 2415: uvm_test_top.env.agt.out_mon [AXI_OUT_MON] [READ OUTPUT COMPLETE] data=0xd557c5cf resp=0
UVM_INFO src/tb/env/axi_scoreboard.sv(174) @ 2415: uvm_test_top.env.scb [AXI_SCOREBOARD] [READ DATA PASS] addr=0x0000000c data=0xd557c5cf
UVM_INFO src/tb/sequences/axi_sanity_test.sv(52) @ 2425: uvm_test_top.env.agt.rd_sqr@@rd_seq [AXI_SANITY_RD] READ addr=0x0000000c data=0xd557c5cf resp=0
UVM_INFO src/tb/sequences/axi_sanity_test.sv(56) @ 2425: uvm_test_top.env.agt.rd_sqr@@rd_seq [AXI_SANITY_RD] Sanity Read Sequence Complete
UVM_INFO /fetools/synopsys/installed_tools/vcs/vcs/Q-2020.03-SP2-8/etc/uvm/base/uvm_objection.svh(1274) @ 2425: reporter [TEST_DONE] 'run' phase is ready to proceed to the 'extract' phase
UVM_INFO src/tb/env/axi_subscriber.sv(140) @ 2425: uvm_test_top.env.cov [AXI_COVERAGE] 
============ COVERAGE SUMMARY ============
  Write Coverage : 39.58%
  Read  Coverage : 54.86%
=============================================
UVM_INFO src/tb/env/axi_scoreboard.sv(195) @ 2425: uvm_test_top.env.scb [AXI_SCOREBOARD] 
============ SCOREBOARD SUMMARY ============
  Total Writes  : 30
  Total Reads   : 30
  Total Pass    : 60
  Total Fail    : 0
=============================================
UVM_INFO src/tb/env/axi_scoreboard.sv(201) @ 2425: uvm_test_top.env.scb [AXI_SCOREBOARD] ALL CHECKS PASSED
UVM_INFO src/tb/tests/axi_test.sv(39) @ 2425: uvm_test_top [AXI_TEST] 
*** TEST PASSED ***

--- UVM Report Summary ---

** Report counts by severity
UVM_INFO :  252
UVM_WARNING :    0
UVM_ERROR :    0
UVM_FATAL :    0
** Report counts by id
[AXI_COVERAGE]     1
[AXI_INP_MON]    60
[AXI_OUT_MON]    60
[AXI_SANITY_RD]    32
[AXI_SANITY_WR]    32
[AXI_SCOREBOARD]    62
[AXI_TEST]     1
[RNTST]     1
[TESTBENCH]     1
[TEST_DONE]     1
[UVMTOP]     1
$finish called from file "/fetools/synopsys/installed_tools/vcs/vcs/Q-2020.03-SP2-8/etc/uvm/base/uvm_root.svh", line 437.
$finish at simulation time                 2425

---------------------------------------------------------------------------
VCS Coverage Metrics: during simulation line, cond, FSM, branch, tgl was monitored
---------------------------------------------------------------------------
           V C S   S i m u l a t i o n   R e p o r t 
Time: 2425 ns
CPU Time:      0.690 seconds;       Data structure size:   0.6Mb
Mon Sep 21 14:30:48 2026
