Command: /fetools/work_area/frontend/Batch_11/Kittu_Patel/UVM/Project/AXI/./simv +UVM_TESTNAME=axi_wstrb_test +ntb_random_seed=2 -cm line+cond+fsm+tgl+branch -cm_name axi_wstrb_test_seed_2 -cm_dir simv.vdb -l regression_logs/axi_wstrb_test_seed_2.log
Chronologic VCS simulator copyright 1991-2020
Contains Synopsys proprietary information.
Compiler version Q-2020.03-SP2-8_Full64; Runtime version Q-2020.03-SP2-8_Full64;  Sep 21 14:31 2026
----------------------------------------------------------------
UVM-1.1d.Synopsys
(C) 2007-2013 Mentor Graphics Corporation
(C) 2007-2013 Cadence Design Systems, Inc.
(C) 2006-2013 Synopsys, Inc.
(C) 2011-2013 Cypress Semiconductor Corp.
----------------------------------------------------------------

  ***********       IMPORTANT RELEASE NOTES         ************

  You are using a version of the UVM library that has been compiled
  with `UVM_NO_DEPRECATED undefined.
  See http://www.eda.org/svdb/view.php?id=3313 for more details.

  You are using a version of the UVM library that has been compiled
  with `UVM_OBJECT_MUST_HAVE_CONSTRUCTOR undefined.
  See http://www.eda.org/svdb/view.php?id=3770 for more details.

      (Specify +UVM_NO_RELNOTES to turn off this notice)

UVM_INFO @ 0: reporter [RNTST] Running test axi_wstrb_test...
UVM_INFO @ 0: reporter [UVMTOP] UVM testbench topology:
------------------------------------------------------------------
Name                       Type                        Size  Value
------------------------------------------------------------------
uvm_test_top               axi_wstrb_test              -     @461 
  env                      axi_env                     -     @469 
    agt                    axi_act_agent               -     @477 
      drv                  axi_override_driver         -     @751 
        rd_item_port       uvm_seq_item_pull_port      -     @777 
        rsp_port           uvm_analysis_port           -     @768 
        seq_item_port      uvm_seq_item_pull_port      -     @759 
      inp_mon              axi_input_monitor           -     @786 
        read_ap            uvm_analysis_port           -     @812 
        write_ap           uvm_analysis_port           -     @803 
      out_mon              axi_out_monitor             -     @794 
        read_ap            uvm_analysis_port           -     @831 
        write_ap           uvm_analysis_port           -     @822 
      rd_sqr               axi_sequencer               -     @628 
        rsp_export         uvm_analysis_export         -     @636 
        seq_item_export    uvm_seq_item_pull_imp       -     @742 
        arbitration_queue  array                       0     -    
        lock_queue         array                       0     -    
        num_last_reqs      integral                    32    'd1  
        num_last_rsps      integral                    32    'd1  
      wr_sqr               axi_sequencer               -     @505 
        rsp_export         uvm_analysis_export         -     @513 
        seq_item_export    uvm_seq_item_pull_imp       -     @619 
        arbitration_queue  array                       0     -    
        lock_queue         array                       0     -    
        num_last_reqs      integral                    32    'd1  
        num_last_rsps      integral                    32    'd1  
    cov                    axi_sub                     -     @493 
      rd_inp_fifo          uvm_tlm_analysis_fifo #(T)  -     @957 
        analysis_export    uvm_analysis_imp            -     @1001
        get_ap             uvm_analysis_port           -     @992 
        get_peek_export    uvm_get_peek_imp            -     @974 
        put_ap             uvm_analysis_port           -     @983 
        put_export         uvm_put_imp                 -     @965 
      rd_out_fifo          uvm_tlm_analysis_fifo #(T)  -     @1010
        analysis_export    uvm_analysis_imp            -     @1054
        get_ap             uvm_analysis_port           -     @1045
        get_peek_export    uvm_get_peek_imp            -     @1027
        put_ap             uvm_analysis_port           -     @1036
        put_export         uvm_put_imp                 -     @1018
      wr_inp_fifo          uvm_tlm_analysis_fifo #(T)  -     @851 
        analysis_export    uvm_analysis_imp            -     @895 
        get_ap             uvm_analysis_port           -     @886 
        get_peek_export    uvm_get_peek_imp            -     @868 
        put_ap             uvm_analysis_port           -     @877 
        put_export         uvm_put_imp                 -     @859 
      wr_out_fifo          uvm_tlm_analysis_fifo #(T)  -     @904 
        analysis_export    uvm_analysis_imp            -     @948 
        get_ap             uvm_analysis_port           -     @939 
        get_peek_export    uvm_get_peek_imp            -     @921 
        put_ap             uvm_analysis_port           -     @930 
        put_export         uvm_put_imp                 -     @912 
    scb                    axi_scb                     -     @485 
      rd_inp_fifo          uvm_tlm_analysis_fifo #(T)  -     @1170
        analysis_export    uvm_analysis_imp            -     @1214
        get_ap             uvm_analysis_port           -     @1205
        get_peek_export    uvm_get_peek_imp            -     @1187
        put_ap             uvm_analysis_port           -     @1196
        put_export         uvm_put_imp                 -     @1178
      rd_out_fifo          uvm_tlm_analysis_fifo #(T)  -     @1223
        analysis_export    uvm_analysis_imp            -     @1267
        get_ap             uvm_analysis_port           -     @1258
        get_peek_export    uvm_get_peek_imp            -     @1240
        put_ap             uvm_analysis_port           -     @1249
        put_export         uvm_put_imp                 -     @1231
      wr_inp_fifo          uvm_tlm_analysis_fifo #(T)  -     @1064
        analysis_export    uvm_analysis_imp            -     @1108
        get_ap             uvm_analysis_port           -     @1099
        get_peek_export    uvm_get_peek_imp            -     @1081
        put_ap             uvm_analysis_port           -     @1090
        put_export         uvm_put_imp                 -     @1072
      wr_out_fifo          uvm_tlm_analysis_fifo #(T)  -     @1117
        analysis_export    uvm_analysis_imp            -     @1161
        get_ap             uvm_analysis_port           -     @1152
        get_peek_export    uvm_get_peek_imp            -     @1134
        put_ap             uvm_analysis_port           -     @1143
        put_export         uvm_put_imp                 -     @1125
------------------------------------------------------------------

UVM_INFO src/tb/sequences/axi_wstrb_seq.sv(15) @ 0: uvm_test_top.env.agt.wr_sqr@@wr_seq [AXI_WSTRB_WR] Starting WSTRB Write Sequence across all 16 strobe patterns
UVM_INFO src/tb/top/axi_top.sv(24) @ 15: reporter [TESTBENCH] Reset released
UVM_INFO src/tb/agent/axi_input_monitor.sv(73) @ 45: uvm_test_top.env.agt.inp_mon [AXI_INP_MON] [WRITE INPUT COMPLETE] addr=0x0000001c data=0x6bd94db2 strb=0x0
UVM_INFO src/tb/agent/axi_out_monitor.sv(54) @ 65: uvm_test_top.env.agt.out_mon [AXI_OUT_MON] [WRITE OUTPUT COMPLETE] resp=0
UVM_INFO src/tb/env/axi_scoreboard.sv(126) @ 65: uvm_test_top.env.scb [AXI_SCOREBOARD] [WRITE RESP PASS] addr=0x0000001c resp=2'b00
UVM_INFO src/tb/agent/axi_input_monitor.sv(73) @ 95: uvm_test_top.env.agt.inp_mon [AXI_INP_MON] [WRITE INPUT COMPLETE] addr=0x0000003c data=0x2f558438 strb=0x1
UVM_INFO src/tb/agent/axi_out_monitor.sv(54) @ 115: uvm_test_top.env.agt.out_mon [AXI_OUT_MON] [WRITE OUTPUT COMPLETE] resp=0
UVM_INFO src/tb/env/axi_scoreboard.sv(126) @ 115: uvm_test_top.env.scb [AXI_SCOREBOARD] [WRITE RESP PASS] addr=0x0000003c resp=2'b00
UVM_INFO src/tb/agent/axi_input_monitor.sv(73) @ 145: uvm_test_top.env.agt.inp_mon [AXI_INP_MON] [WRITE INPUT COMPLETE] addr=0x00000010 data=0xd72cac75 strb=0x2
UVM_INFO src/tb/agent/axi_out_monitor.sv(54) @ 165: uvm_test_top.env.agt.out_mon [AXI_OUT_MON] [WRITE OUTPUT COMPLETE] resp=0
UVM_INFO src/tb/env/axi_scoreboard.sv(126) @ 165: uvm_test_top.env.scb [AXI_SCOREBOARD] [WRITE RESP PASS] addr=0x00000010 resp=2'b00
UVM_INFO src/tb/agent/axi_input_monitor.sv(73) @ 195: uvm_test_top.env.agt.inp_mon [AXI_INP_MON] [WRITE INPUT COMPLETE] addr=0x0000001c data=0xa7770285 strb=0x3
UVM_INFO src/tb/agent/axi_out_monitor.sv(54) @ 215: uvm_test_top.env.agt.out_mon [AXI_OUT_MON] [WRITE OUTPUT COMPLETE] resp=0
UVM_INFO src/tb/env/axi_scoreboard.sv(126) @ 215: uvm_test_top.env.scb [AXI_SCOREBOARD] [WRITE RESP PASS] addr=0x0000001c resp=2'b00
UVM_INFO src/tb/agent/axi_input_monitor.sv(73) @ 245: uvm_test_top.env.agt.inp_mon [AXI_INP_MON] [WRITE INPUT COMPLETE] addr=0x00000000 data=0x864a1e22 strb=0x4
UVM_INFO src/tb/agent/axi_out_monitor.sv(54) @ 265: uvm_test_top.env.agt.out_mon [AXI_OUT_MON] [WRITE OUTPUT COMPLETE] resp=0
UVM_INFO src/tb/env/axi_scoreboard.sv(126) @ 265: uvm_test_top.env.scb [AXI_SCOREBOARD] [WRITE RESP PASS] addr=0x00000000 resp=2'b00
UVM_INFO src/tb/agent/axi_input_monitor.sv(73) @ 295: uvm_test_top.env.agt.inp_mon [AXI_INP_MON] [WRITE INPUT COMPLETE] addr=0x00000010 data=0xda2a4096 strb=0x5
UVM_INFO src/tb/agent/axi_out_monitor.sv(54) @ 315: uvm_test_top.env.agt.out_mon [AXI_OUT_MON] [WRITE OUTPUT COMPLETE] resp=0
UVM_INFO src/tb/env/axi_scoreboard.sv(126) @ 315: uvm_test_top.env.scb [AXI_SCOREBOARD] [WRITE RESP PASS] addr=0x00000010 resp=2'b00
UVM_INFO src/tb/agent/axi_input_monitor.sv(73) @ 345: uvm_test_top.env.agt.inp_mon [AXI_INP_MON] [WRITE INPUT COMPLETE] addr=0x00000020 data=0x8707eedc strb=0x6
UVM_INFO src/tb/agent/axi_out_monitor.sv(54) @ 365: uvm_test_top.env.agt.out_mon [AXI_OUT_MON] [WRITE OUTPUT COMPLETE] resp=0
UVM_INFO src/tb/env/axi_scoreboard.sv(126) @ 365: uvm_test_top.env.scb [AXI_SCOREBOARD] [WRITE RESP PASS] addr=0x00000020 resp=2'b00
UVM_INFO src/tb/agent/axi_input_monitor.sv(73) @ 395: uvm_test_top.env.agt.inp_mon [AXI_INP_MON] [WRITE INPUT COMPLETE] addr=0x0000000c data=0xb747a410 strb=0x7
UVM_INFO src/tb/agent/axi_out_monitor.sv(54) @ 415: uvm_test_top.env.agt.out_mon [AXI_OUT_MON] [WRITE OUTPUT COMPLETE] resp=0
UVM_INFO src/tb/env/axi_scoreboard.sv(126) @ 415: uvm_test_top.env.scb [AXI_SCOREBOARD] [WRITE RESP PASS] addr=0x0000000c resp=2'b00
UVM_INFO src/tb/agent/axi_input_monitor.sv(73) @ 445: uvm_test_top.env.agt.inp_mon [AXI_INP_MON] [WRITE INPUT COMPLETE] addr=0x00000004 data=0xf6279f58 strb=0x8
UVM_INFO src/tb/agent/axi_out_monitor.sv(54) @ 465: uvm_test_top.env.agt.out_mon [AXI_OUT_MON] [WRITE OUTPUT COMPLETE] resp=0
UVM_INFO src/tb/env/axi_scoreboard.sv(126) @ 465: uvm_test_top.env.scb [AXI_SCOREBOARD] [WRITE RESP PASS] addr=0x00000004 resp=2'b00
UVM_INFO src/tb/agent/axi_input_monitor.sv(73) @ 495: uvm_test_top.env.agt.inp_mon [AXI_INP_MON] [WRITE INPUT COMPLETE] addr=0x00000018 data=0x9765bd1c strb=0x9
UVM_INFO src/tb/agent/axi_out_monitor.sv(54) @ 515: uvm_test_top.env.agt.out_mon [AXI_OUT_MON] [WRITE OUTPUT COMPLETE] resp=0
UVM_INFO src/tb/env/axi_scoreboard.sv(126) @ 515: uvm_test_top.env.scb [AXI_SCOREBOARD] [WRITE RESP PASS] addr=0x00000018 resp=2'b00
UVM_INFO src/tb/agent/axi_input_monitor.sv(73) @ 545: uvm_test_top.env.agt.inp_mon [AXI_INP_MON] [WRITE INPUT COMPLETE] addr=0x00000024 data=0x8148192e strb=0xa
UVM_INFO src/tb/agent/axi_out_monitor.sv(54) @ 565: uvm_test_top.env.agt.out_mon [AXI_OUT_MON] [WRITE OUTPUT COMPLETE] resp=0
UVM_INFO src/tb/env/axi_scoreboard.sv(126) @ 565: uvm_test_top.env.scb [AXI_SCOREBOARD] [WRITE RESP PASS] addr=0x00000024 resp=2'b00
UVM_INFO src/tb/agent/axi_input_monitor.sv(73) @ 595: uvm_test_top.env.agt.inp_mon [AXI_INP_MON] [WRITE INPUT COMPLETE] addr=0x0000000c data=0x5a74cebf strb=0xb
UVM_INFO src/tb/agent/axi_out_monitor.sv(54) @ 615: uvm_test_top.env.agt.out_mon [AXI_OUT_MON] [WRITE OUTPUT COMPLETE] resp=0
UVM_INFO src/tb/env/axi_scoreboard.sv(126) @ 615: uvm_test_top.env.scb [AXI_SCOREBOARD] [WRITE RESP PASS] addr=0x0000000c resp=2'b00
UVM_INFO src/tb/agent/axi_input_monitor.sv(73) @ 645: uvm_test_top.env.agt.inp_mon [AXI_INP_MON] [WRITE INPUT COMPLETE] addr=0x00000020 data=0x00569a6e strb=0xc
UVM_INFO src/tb/agent/axi_out_monitor.sv(54) @ 665: uvm_test_top.env.agt.out_mon [AXI_OUT_MON] [WRITE OUTPUT COMPLETE] resp=0
UVM_INFO src/tb/env/axi_scoreboard.sv(126) @ 665: uvm_test_top.env.scb [AXI_SCOREBOARD] [WRITE RESP PASS] addr=0x00000020 resp=2'b00
UVM_INFO src/tb/agent/axi_input_monitor.sv(73) @ 695: uvm_test_top.env.agt.inp_mon [AXI_INP_MON] [WRITE INPUT COMPLETE] addr=0x00000018 data=0xbbee3a15 strb=0xd
UVM_INFO src/tb/agent/axi_out_monitor.sv(54) @ 715: uvm_test_top.env.agt.out_mon [AXI_OUT_MON] [WRITE OUTPUT COMPLETE] resp=0
UVM_INFO src/tb/env/axi_scoreboard.sv(126) @ 715: uvm_test_top.env.scb [AXI_SCOREBOARD] [WRITE RESP PASS] addr=0x00000018 resp=2'b00
UVM_INFO src/tb/agent/axi_input_monitor.sv(73) @ 745: uvm_test_top.env.agt.inp_mon [AXI_INP_MON] [WRITE INPUT COMPLETE] addr=0x0000000c data=0xd557c5cf strb=0xe
UVM_INFO src/tb/agent/axi_out_monitor.sv(54) @ 765: uvm_test_top.env.agt.out_mon [AXI_OUT_MON] [WRITE OUTPUT COMPLETE] resp=0
UVM_INFO src/tb/env/axi_scoreboard.sv(126) @ 765: uvm_test_top.env.scb [AXI_SCOREBOARD] [WRITE RESP PASS] addr=0x0000000c resp=2'b00
UVM_INFO src/tb/agent/axi_input_monitor.sv(73) @ 795: uvm_test_top.env.agt.inp_mon [AXI_INP_MON] [WRITE INPUT COMPLETE] addr=0x00000008 data=0x6954dc97 strb=0xf
UVM_INFO src/tb/agent/axi_out_monitor.sv(54) @ 815: uvm_test_top.env.agt.out_mon [AXI_OUT_MON] [WRITE OUTPUT COMPLETE] resp=0
UVM_INFO src/tb/env/axi_scoreboard.sv(126) @ 815: uvm_test_top.env.scb [AXI_SCOREBOARD] [WRITE RESP PASS] addr=0x00000008 resp=2'b00
UVM_INFO src/tb/sequences/axi_wstrb_seq.sv(43) @ 825: uvm_test_top.env.agt.rd_sqr@@rd_seq [AXI_WSTRB_RD] Starting WSTRB Read Verification Sequence
UVM_INFO src/tb/agent/axi_input_monitor.sv(102) @ 835: uvm_test_top.env.agt.inp_mon [AXI_INP_MON] [READ INPUT COMPLETE] addr=0x00000000
UVM_INFO src/tb/agent/axi_out_monitor.sv(81) @ 845: uvm_test_top.env.agt.out_mon [AXI_OUT_MON] [READ OUTPUT COMPLETE] data=0x004a0000 resp=0
UVM_INFO src/tb/env/axi_scoreboard.sv(174) @ 845: uvm_test_top.env.scb [AXI_SCOREBOARD] [READ DATA PASS] addr=0x00000000 data=0x004a0000
UVM_INFO src/tb/sequences/axi_wstrb_seq.sv(55) @ 855: uvm_test_top.env.agt.rd_sqr@@rd_seq [AXI_WSTRB_RD] READ addr=0x0 data=0x004a0000 resp=0
UVM_INFO src/tb/agent/axi_input_monitor.sv(102) @ 865: uvm_test_top.env.agt.inp_mon [AXI_INP_MON] [READ INPUT COMPLETE] addr=0x00000000
UVM_INFO src/tb/agent/axi_out_monitor.sv(81) @ 875: uvm_test_top.env.agt.out_mon [AXI_OUT_MON] [READ OUTPUT COMPLETE] data=0x004a0000 resp=0
UVM_INFO src/tb/env/axi_scoreboard.sv(174) @ 875: uvm_test_top.env.scb [AXI_SCOREBOARD] [READ DATA PASS] addr=0x00000000 data=0x004a0000
UVM_INFO src/tb/sequences/axi_wstrb_seq.sv(55) @ 885: uvm_test_top.env.agt.rd_sqr@@rd_seq [AXI_WSTRB_RD] READ addr=0x0 data=0x004a0000 resp=0
UVM_INFO src/tb/agent/axi_input_monitor.sv(102) @ 895: uvm_test_top.env.agt.inp_mon [AXI_INP_MON] [READ INPUT COMPLETE] addr=0x00000000
UVM_INFO src/tb/agent/axi_out_monitor.sv(81) @ 905: uvm_test_top.env.agt.out_mon [AXI_OUT_MON] [READ OUTPUT COMPLETE] data=0x004a0000 resp=0
UVM_INFO src/tb/env/axi_scoreboard.sv(174) @ 905: uvm_test_top.env.scb [AXI_SCOREBOARD] [READ DATA PASS] addr=0x00000000 data=0x004a0000
UVM_INFO src/tb/sequences/axi_wstrb_seq.sv(55) @ 915: uvm_test_top.env.agt.rd_sqr@@rd_seq [AXI_WSTRB_RD] READ addr=0x0 data=0x004a0000 resp=0
UVM_INFO src/tb/agent/axi_input_monitor.sv(102) @ 925: uvm_test_top.env.agt.inp_mon [AXI_INP_MON] [READ INPUT COMPLETE] addr=0x00000000
UVM_INFO src/tb/agent/axi_out_monitor.sv(81) @ 935: uvm_test_top.env.agt.out_mon [AXI_OUT_MON] [READ OUTPUT COMPLETE] data=0x004a0000 resp=0
UVM_INFO src/tb/env/axi_scoreboard.sv(174) @ 935: uvm_test_top.env.scb [AXI_SCOREBOARD] [READ DATA PASS] addr=0x00000000 data=0x004a0000
UVM_INFO src/tb/sequences/axi_wstrb_seq.sv(55) @ 945: uvm_test_top.env.agt.rd_sqr@@rd_seq [AXI_WSTRB_RD] READ addr=0x0 data=0x004a0000 resp=0
UVM_INFO src/tb/agent/axi_input_monitor.sv(102) @ 955: uvm_test_top.env.agt.inp_mon [AXI_INP_MON] [READ INPUT COMPLETE] addr=0x00000000
UVM_INFO src/tb/agent/axi_out_monitor.sv(81) @ 965: uvm_test_top.env.agt.out_mon [AXI_OUT_MON] [READ OUTPUT COMPLETE] data=0x004a0000 resp=0
UVM_INFO src/tb/env/axi_scoreboard.sv(174) @ 965: uvm_test_top.env.scb [AXI_SCOREBOARD] [READ DATA PASS] addr=0x00000000 data=0x004a0000
UVM_INFO src/tb/sequences/axi_wstrb_seq.sv(55) @ 975: uvm_test_top.env.agt.rd_sqr@@rd_seq [AXI_WSTRB_RD] READ addr=0x0 data=0x004a0000 resp=0
UVM_INFO src/tb/agent/axi_input_monitor.sv(102) @ 985: uvm_test_top.env.agt.inp_mon [AXI_INP_MON] [READ INPUT COMPLETE] addr=0x00000000
UVM_INFO src/tb/agent/axi_out_monitor.sv(81) @ 995: uvm_test_top.env.agt.out_mon [AXI_OUT_MON] [READ OUTPUT COMPLETE] data=0x004a0000 resp=0
UVM_INFO src/tb/env/axi_scoreboard.sv(174) @ 995: uvm_test_top.env.scb [AXI_SCOREBOARD] [READ DATA PASS] addr=0x00000000 data=0x004a0000
UVM_INFO src/tb/sequences/axi_wstrb_seq.sv(55) @ 1005: uvm_test_top.env.agt.rd_sqr@@rd_seq [AXI_WSTRB_RD] READ addr=0x0 data=0x004a0000 resp=0
UVM_INFO src/tb/agent/axi_input_monitor.sv(102) @ 1015: uvm_test_top.env.agt.inp_mon [AXI_INP_MON] [READ INPUT COMPLETE] addr=0x00000000
UVM_INFO src/tb/agent/axi_out_monitor.sv(81) @ 1025: uvm_test_top.env.agt.out_mon [AXI_OUT_MON] [READ OUTPUT COMPLETE] data=0x004a0000 resp=0
UVM_INFO src/tb/env/axi_scoreboard.sv(174) @ 1025: uvm_test_top.env.scb [AXI_SCOREBOARD] [READ DATA PASS] addr=0x00000000 data=0x004a0000
UVM_INFO src/tb/sequences/axi_wstrb_seq.sv(55) @ 1035: uvm_test_top.env.agt.rd_sqr@@rd_seq [AXI_WSTRB_RD] READ addr=0x0 data=0x004a0000 resp=0
UVM_INFO src/tb/agent/axi_input_monitor.sv(102) @ 1045: uvm_test_top.env.agt.inp_mon [AXI_INP_MON] [READ INPUT COMPLETE] addr=0x00000000
UVM_INFO src/tb/agent/axi_out_monitor.sv(81) @ 1055: uvm_test_top.env.agt.out_mon [AXI_OUT_MON] [READ OUTPUT COMPLETE] data=0x004a0000 resp=0
UVM_INFO src/tb/env/axi_scoreboard.sv(174) @ 1055: uvm_test_top.env.scb [AXI_SCOREBOARD] [READ DATA PASS] addr=0x00000000 data=0x004a0000
UVM_INFO src/tb/sequences/axi_wstrb_seq.sv(55) @ 1065: uvm_test_top.env.agt.rd_sqr@@rd_seq [AXI_WSTRB_RD] READ addr=0x0 data=0x004a0000 resp=0
UVM_INFO src/tb/agent/axi_input_monitor.sv(102) @ 1075: uvm_test_top.env.agt.inp_mon [AXI_INP_MON] [READ INPUT COMPLETE] addr=0x00000000
UVM_INFO src/tb/agent/axi_out_monitor.sv(81) @ 1085: uvm_test_top.env.agt.out_mon [AXI_OUT_MON] [READ OUTPUT COMPLETE] data=0x004a0000 resp=0
UVM_INFO src/tb/env/axi_scoreboard.sv(174) @ 1085: uvm_test_top.env.scb [AXI_SCOREBOARD] [READ DATA PASS] addr=0x00000000 data=0x004a0000
UVM_INFO src/tb/sequences/axi_wstrb_seq.sv(55) @ 1095: uvm_test_top.env.agt.rd_sqr@@rd_seq [AXI_WSTRB_RD] READ addr=0x0 data=0x004a0000 resp=0
UVM_INFO src/tb/agent/axi_input_monitor.sv(102) @ 1105: uvm_test_top.env.agt.inp_mon [AXI_INP_MON] [READ INPUT COMPLETE] addr=0x00000000
UVM_INFO src/tb/agent/axi_out_monitor.sv(81) @ 1115: uvm_test_top.env.agt.out_mon [AXI_OUT_MON] [READ OUTPUT COMPLETE] data=0x004a0000 resp=0
UVM_INFO src/tb/env/axi_scoreboard.sv(174) @ 1115: uvm_test_top.env.scb [AXI_SCOREBOARD] [READ DATA PASS] addr=0x00000000 data=0x004a0000
UVM_INFO src/tb/sequences/axi_wstrb_seq.sv(55) @ 1125: uvm_test_top.env.agt.rd_sqr@@rd_seq [AXI_WSTRB_RD] READ addr=0x0 data=0x004a0000 resp=0
UVM_INFO src/tb/agent/axi_input_monitor.sv(102) @ 1135: uvm_test_top.env.agt.inp_mon [AXI_INP_MON] [READ INPUT COMPLETE] addr=0x00000000
UVM_INFO src/tb/agent/axi_out_monitor.sv(81) @ 1145: uvm_test_top.env.agt.out_mon [AXI_OUT_MON] [READ OUTPUT COMPLETE] data=0x004a0000 resp=0
UVM_INFO src/tb/env/axi_scoreboard.sv(174) @ 1145: uvm_test_top.env.scb [AXI_SCOREBOARD] [READ DATA PASS] addr=0x00000000 data=0x004a0000
UVM_INFO src/tb/sequences/axi_wstrb_seq.sv(55) @ 1155: uvm_test_top.env.agt.rd_sqr@@rd_seq [AXI_WSTRB_RD] READ addr=0x0 data=0x004a0000 resp=0
UVM_INFO src/tb/agent/axi_input_monitor.sv(102) @ 1165: uvm_test_top.env.agt.inp_mon [AXI_INP_MON] [READ INPUT COMPLETE] addr=0x00000000
UVM_INFO src/tb/agent/axi_out_monitor.sv(81) @ 1175: uvm_test_top.env.agt.out_mon [AXI_OUT_MON] [READ OUTPUT COMPLETE] data=0x004a0000 resp=0
UVM_INFO src/tb/env/axi_scoreboard.sv(174) @ 1175: uvm_test_top.env.scb [AXI_SCOREBOARD] [READ DATA PASS] addr=0x00000000 data=0x004a0000
UVM_INFO src/tb/sequences/axi_wstrb_seq.sv(55) @ 1185: uvm_test_top.env.agt.rd_sqr@@rd_seq [AXI_WSTRB_RD] READ addr=0x0 data=0x004a0000 resp=0
UVM_INFO src/tb/agent/axi_input_monitor.sv(102) @ 1195: uvm_test_top.env.agt.inp_mon [AXI_INP_MON] [READ INPUT COMPLETE] addr=0x00000000
UVM_INFO src/tb/agent/axi_out_monitor.sv(81) @ 1205: uvm_test_top.env.agt.out_mon [AXI_OUT_MON] [READ OUTPUT COMPLETE] data=0x004a0000 resp=0
UVM_INFO src/tb/env/axi_scoreboard.sv(174) @ 1205: uvm_test_top.env.scb [AXI_SCOREBOARD] [READ DATA PASS] addr=0x00000000 data=0x004a0000
UVM_INFO src/tb/sequences/axi_wstrb_seq.sv(55) @ 1215: uvm_test_top.env.agt.rd_sqr@@rd_seq [AXI_WSTRB_RD] READ addr=0x0 data=0x004a0000 resp=0
UVM_INFO src/tb/agent/axi_input_monitor.sv(102) @ 1225: uvm_test_top.env.agt.inp_mon [AXI_INP_MON] [READ INPUT COMPLETE] addr=0x00000000
UVM_INFO src/tb/agent/axi_out_monitor.sv(81) @ 1235: uvm_test_top.env.agt.out_mon [AXI_OUT_MON] [READ OUTPUT COMPLETE] data=0x004a0000 resp=0
UVM_INFO src/tb/env/axi_scoreboard.sv(174) @ 1235: uvm_test_top.env.scb [AXI_SCOREBOARD] [READ DATA PASS] addr=0x00000000 data=0x004a0000
UVM_INFO src/tb/sequences/axi_wstrb_seq.sv(55) @ 1245: uvm_test_top.env.agt.rd_sqr@@rd_seq [AXI_WSTRB_RD] READ addr=0x0 data=0x004a0000 resp=0
UVM_INFO src/tb/agent/axi_input_monitor.sv(102) @ 1255: uvm_test_top.env.agt.inp_mon [AXI_INP_MON] [READ INPUT COMPLETE] addr=0x00000000
UVM_INFO src/tb/agent/axi_out_monitor.sv(81) @ 1265: uvm_test_top.env.agt.out_mon [AXI_OUT_MON] [READ OUTPUT COMPLETE] data=0x004a0000 resp=0
UVM_INFO src/tb/env/axi_scoreboard.sv(174) @ 1265: uvm_test_top.env.scb [AXI_SCOREBOARD] [READ DATA PASS] addr=0x00000000 data=0x004a0000
UVM_INFO src/tb/sequences/axi_wstrb_seq.sv(55) @ 1275: uvm_test_top.env.agt.rd_sqr@@rd_seq [AXI_WSTRB_RD] READ addr=0x0 data=0x004a0000 resp=0
UVM_INFO src/tb/agent/axi_input_monitor.sv(102) @ 1285: uvm_test_top.env.agt.inp_mon [AXI_INP_MON] [READ INPUT COMPLETE] addr=0x00000000
UVM_INFO src/tb/agent/axi_out_monitor.sv(81) @ 1295: uvm_test_top.env.agt.out_mon [AXI_OUT_MON] [READ OUTPUT COMPLETE] data=0x004a0000 resp=0
UVM_INFO src/tb/env/axi_scoreboard.sv(174) @ 1295: uvm_test_top.env.scb [AXI_SCOREBOARD] [READ DATA PASS] addr=0x00000000 data=0x004a0000
UVM_INFO src/tb/sequences/axi_wstrb_seq.sv(55) @ 1305: uvm_test_top.env.agt.rd_sqr@@rd_seq [AXI_WSTRB_RD] READ addr=0x0 data=0x004a0000 resp=0
UVM_INFO src/tb/sequences/axi_wstrb_seq.sv(58) @ 1305: uvm_test_top.env.agt.rd_sqr@@rd_seq [AXI_WSTRB_RD] WSTRB Read Verification Sequence Complete
UVM_INFO /fetools/synopsys/installed_tools/vcs/vcs/Q-2020.03-SP2-8/etc/uvm/base/uvm_objection.svh(1274) @ 1305: reporter [TEST_DONE] 'run' phase is ready to proceed to the 'extract' phase
UVM_INFO src/tb/env/axi_subscriber.sv(140) @ 1305: uvm_test_top.env.cov [AXI_COVERAGE] 
============ COVERAGE SUMMARY ============
  Write Coverage : 61.46%
  Read  Coverage : 29.86%
=============================================
UVM_INFO src/tb/env/axi_scoreboard.sv(195) @ 1305: uvm_test_top.env.scb [AXI_SCOREBOARD] 
============ SCOREBOARD SUMMARY ============
  Total Writes  : 16
  Total Reads   : 16
  Total Pass    : 32
  Total Fail    : 0
=============================================
UVM_INFO src/tb/env/axi_scoreboard.sv(201) @ 1305: uvm_test_top.env.scb [AXI_SCOREBOARD] ALL CHECKS PASSED
UVM_INFO src/tb/tests/axi_test.sv(39) @ 1305: uvm_test_top [AXI_TEST] 
*** TEST PASSED ***

--- UVM Report Summary ---

** Report counts by severity
UVM_INFO :  123
UVM_WARNING :    0
UVM_ERROR :    0
UVM_FATAL :    0
** Report counts by id
[AXI_COVERAGE]     1
[AXI_INP_MON]    32
[AXI_OUT_MON]    32
[AXI_SCOREBOARD]    34
[AXI_TEST]     1
[AXI_WSTRB_RD]    18
[AXI_WSTRB_WR]     1
[RNTST]     1
[TESTBENCH]     1
[TEST_DONE]     1
[UVMTOP]     1
$finish called from file "/fetools/synopsys/installed_tools/vcs/vcs/Q-2020.03-SP2-8/etc/uvm/base/uvm_root.svh", line 437.
$finish at simulation time                 1305

---------------------------------------------------------------------------
VCS Coverage Metrics: during simulation line, cond, FSM, branch, tgl was monitored
---------------------------------------------------------------------------
           V C S   S i m u l a t i o n   R e p o r t 
Time: 1305 ns
CPU Time:      0.640 seconds;       Data structure size:   0.6Mb
Mon Sep 21 14:31:12 2026
