Command: /fetools/work_area/frontend/Batch_11/Kittu_Patel/UVM/Project/AXI/./simv +UVM_TESTNAME=axi_sanity_test +ntb_random_seed=2 -cm line+cond+fsm+tgl+branch -cm_name axi_sanity_test_seed_2 -cm_dir simv.vdb -l regression_logs/axi_sanity_test_seed_2.log
Chronologic VCS simulator copyright 1991-2020
Contains Synopsys proprietary information.
Compiler version Q-2020.03-SP2-8_Full64; Runtime version Q-2020.03-SP2-8_Full64;  Sep 18 13:20 2026
----------------------------------------------------------------
UVM-1.1d.Synopsys
(C) 2007-2013 Mentor Graphics Corporation
(C) 2007-2013 Cadence Design Systems, Inc.
(C) 2006-2013 Synopsys, Inc.
(C) 2011-2013 Cypress Semiconductor Corp.
----------------------------------------------------------------

  ***********       IMPORTANT RELEASE NOTES         ************

  You are using a version of the UVM library that has been compiled
  with `UVM_NO_DEPRECATED undefined.
  See http://www.eda.org/svdb/view.php?id=3313 for more details.

  You are using a version of the UVM library that has been compiled
  with `UVM_OBJECT_MUST_HAVE_CONSTRUCTOR undefined.
  See http://www.eda.org/svdb/view.php?id=3770 for more details.

      (Specify +UVM_NO_RELNOTES to turn off this notice)

UVM_INFO @ 0: reporter [RNTST] Running test axi_sanity_test...
UVM_INFO @ 0: reporter [UVMTOP] UVM testbench topology:
------------------------------------------------------------------
Name                       Type                        Size  Value
------------------------------------------------------------------
uvm_test_top               axi_sanity_test             -     @461 
  env                      axi_env                     -     @469 
    agt                    axi_act_agent               -     @477 
      drv                  axi_override_driver         -     @751 
        rd_item_port       uvm_seq_item_pull_port      -     @777 
        rsp_port           uvm_analysis_port           -     @768 
        seq_item_port      uvm_seq_item_pull_port      -     @759 
      mon                  axi_monitor                 -     @786 
        read_ap            uvm_analysis_port           -     @804 
        write_ap           uvm_analysis_port           -     @795 
      rd_sqr               axi_sequencer               -     @628 
        rsp_export         uvm_analysis_export         -     @636 
        seq_item_export    uvm_seq_item_pull_imp       -     @742 
        arbitration_queue  array                       0     -    
        lock_queue         array                       0     -    
        num_last_reqs      integral                    32    'd1  
        num_last_rsps      integral                    32    'd1  
      wr_sqr               axi_sequencer               -     @505 
        rsp_export         uvm_analysis_export         -     @513 
        seq_item_export    uvm_seq_item_pull_imp       -     @619 
        arbitration_queue  array                       0     -    
        lock_queue         array                       0     -    
        num_last_reqs      integral                    32    'd1  
        num_last_rsps      integral                    32    'd1  
    cov                    axi_sub                     -     @493 
      read_export          uvm_analysis_imp_cov_read   -     @833 
      write_export         uvm_analysis_imp_cov_write  -     @824 
    scb                    axi_scb                     -     @485 
      read_export          uvm_analysis_imp_read_txn   -     @851 
      write_export         uvm_analysis_imp_write_txn  -     @842 
------------------------------------------------------------------

UVM_INFO src/tb/sequences/axi_sanity_test.sv(14) @ 0: uvm_test_top.env.agt.wr_sqr@@wr_seq [AXI_SANITY_WR] Starting Sanity Write Sequence
UVM_INFO src/tb/top/axi_top.sv(25) @ 15: reporter [TESTBENCH] Reset released
UVM_INFO src/tb/agent/axi_input_monitor.sv(78) @ 65: uvm_test_top.env.agt.mon [AXI_MONITOR] [WRITE COMPLETE] addr=0x0000001c data=0x6bd94db2 strb=0xf resp=0
UVM_INFO src/tb/env/axi_scoreboard.sv(85) @ 65: uvm_test_top.env.scb [AXI_SCOREBOARD] [WRITE RESP PASS] addr=0x0000001c resp=2'b00
UVM_INFO src/tb/sequences/axi_sanity_test.sv(23) @ 75: uvm_test_top.env.agt.wr_sqr@@wr_seq [AXI_SANITY_WR] WRITE addr=0x0000001c data=0x6bd94db2 resp=0
UVM_INFO src/tb/sequences/axi_sanity_test.sv(23) @ 125: uvm_test_top.env.agt.wr_sqr@@wr_seq [AXI_SANITY_WR] WRITE addr=0x0000003c data=0x2f558438 resp=0
UVM_INFO src/tb/top/axi_top.sv(25) @ 135: reporter [TESTBENCH] Reset released
UVM_INFO src/tb/agent/axi_input_monitor.sv(78) @ 175: uvm_test_top.env.agt.mon [AXI_MONITOR] [WRITE COMPLETE] addr=0x00000010 data=0xd72cac75 strb=0xf resp=0
UVM_INFO src/tb/env/axi_scoreboard.sv(85) @ 175: uvm_test_top.env.scb [AXI_SCOREBOARD] [WRITE RESP PASS] addr=0x00000010 resp=2'b00
UVM_INFO src/tb/sequences/axi_sanity_test.sv(23) @ 185: uvm_test_top.env.agt.wr_sqr@@wr_seq [AXI_SANITY_WR] WRITE addr=0x00000010 data=0xd72cac75 resp=0
UVM_INFO src/tb/agent/axi_input_monitor.sv(78) @ 225: uvm_test_top.env.agt.mon [AXI_MONITOR] [WRITE COMPLETE] addr=0x0000001c data=0xa7770285 strb=0xf resp=0
UVM_INFO src/tb/env/axi_scoreboard.sv(85) @ 225: uvm_test_top.env.scb [AXI_SCOREBOARD] [WRITE RESP PASS] addr=0x0000001c resp=2'b00
UVM_INFO src/tb/sequences/axi_sanity_test.sv(23) @ 235: uvm_test_top.env.agt.wr_sqr@@wr_seq [AXI_SANITY_WR] WRITE addr=0x0000001c data=0xa7770285 resp=0
UVM_INFO src/tb/agent/axi_input_monitor.sv(78) @ 275: uvm_test_top.env.agt.mon [AXI_MONITOR] [WRITE COMPLETE] addr=0x00000000 data=0x864a1e22 strb=0xf resp=0
UVM_INFO src/tb/env/axi_scoreboard.sv(85) @ 275: uvm_test_top.env.scb [AXI_SCOREBOARD] [WRITE RESP PASS] addr=0x00000000 resp=2'b00
UVM_INFO src/tb/sequences/axi_sanity_test.sv(23) @ 285: uvm_test_top.env.agt.wr_sqr@@wr_seq [AXI_SANITY_WR] WRITE addr=0x00000000 data=0x864a1e22 resp=0
UVM_INFO src/tb/agent/axi_input_monitor.sv(78) @ 325: uvm_test_top.env.agt.mon [AXI_MONITOR] [WRITE COMPLETE] addr=0x00000010 data=0xda2a4096 strb=0xf resp=0
UVM_INFO src/tb/env/axi_scoreboard.sv(85) @ 325: uvm_test_top.env.scb [AXI_SCOREBOARD] [WRITE RESP PASS] addr=0x00000010 resp=2'b00
UVM_INFO src/tb/sequences/axi_sanity_test.sv(23) @ 335: uvm_test_top.env.agt.wr_sqr@@wr_seq [AXI_SANITY_WR] WRITE addr=0x00000010 data=0xda2a4096 resp=0
UVM_INFO src/tb/agent/axi_input_monitor.sv(78) @ 375: uvm_test_top.env.agt.mon [AXI_MONITOR] [WRITE COMPLETE] addr=0x00000020 data=0x8707eedc strb=0xf resp=0
UVM_INFO src/tb/env/axi_scoreboard.sv(85) @ 375: uvm_test_top.env.scb [AXI_SCOREBOARD] [WRITE RESP PASS] addr=0x00000020 resp=2'b00
UVM_INFO src/tb/sequences/axi_sanity_test.sv(23) @ 385: uvm_test_top.env.agt.wr_sqr@@wr_seq [AXI_SANITY_WR] WRITE addr=0x00000020 data=0x8707eedc resp=0
UVM_INFO src/tb/agent/axi_input_monitor.sv(78) @ 425: uvm_test_top.env.agt.mon [AXI_MONITOR] [WRITE COMPLETE] addr=0x0000000c data=0xb747a410 strb=0xf resp=0
UVM_INFO src/tb/env/axi_scoreboard.sv(85) @ 425: uvm_test_top.env.scb [AXI_SCOREBOARD] [WRITE RESP PASS] addr=0x0000000c resp=2'b00
UVM_INFO src/tb/sequences/axi_sanity_test.sv(23) @ 435: uvm_test_top.env.agt.wr_sqr@@wr_seq [AXI_SANITY_WR] WRITE addr=0x0000000c data=0xb747a410 resp=0
UVM_INFO src/tb/agent/axi_input_monitor.sv(78) @ 475: uvm_test_top.env.agt.mon [AXI_MONITOR] [WRITE COMPLETE] addr=0x00000004 data=0xf6279f58 strb=0xf resp=0
UVM_INFO src/tb/env/axi_scoreboard.sv(85) @ 475: uvm_test_top.env.scb [AXI_SCOREBOARD] [WRITE RESP PASS] addr=0x00000004 resp=2'b00
UVM_INFO src/tb/sequences/axi_sanity_test.sv(23) @ 485: uvm_test_top.env.agt.wr_sqr@@wr_seq [AXI_SANITY_WR] WRITE addr=0x00000004 data=0xf6279f58 resp=0
UVM_INFO src/tb/agent/axi_input_monitor.sv(78) @ 525: uvm_test_top.env.agt.mon [AXI_MONITOR] [WRITE COMPLETE] addr=0x00000018 data=0x9765bd1c strb=0xf resp=0
UVM_INFO src/tb/env/axi_scoreboard.sv(85) @ 525: uvm_test_top.env.scb [AXI_SCOREBOARD] [WRITE RESP PASS] addr=0x00000018 resp=2'b00
UVM_INFO src/tb/sequences/axi_sanity_test.sv(23) @ 535: uvm_test_top.env.agt.wr_sqr@@wr_seq [AXI_SANITY_WR] WRITE addr=0x00000018 data=0x9765bd1c resp=0
UVM_INFO src/tb/agent/axi_input_monitor.sv(78) @ 575: uvm_test_top.env.agt.mon [AXI_MONITOR] [WRITE COMPLETE] addr=0x00000024 data=0x8148192e strb=0xf resp=0
UVM_INFO src/tb/env/axi_scoreboard.sv(85) @ 575: uvm_test_top.env.scb [AXI_SCOREBOARD] [WRITE RESP PASS] addr=0x00000024 resp=2'b00
UVM_INFO src/tb/sequences/axi_sanity_test.sv(23) @ 585: uvm_test_top.env.agt.wr_sqr@@wr_seq [AXI_SANITY_WR] WRITE addr=0x00000024 data=0x8148192e resp=0
UVM_INFO src/tb/agent/axi_input_monitor.sv(78) @ 625: uvm_test_top.env.agt.mon [AXI_MONITOR] [WRITE COMPLETE] addr=0x0000000c data=0x5a74cebf strb=0xf resp=0
UVM_INFO src/tb/env/axi_scoreboard.sv(85) @ 625: uvm_test_top.env.scb [AXI_SCOREBOARD] [WRITE RESP PASS] addr=0x0000000c resp=2'b00
UVM_INFO src/tb/sequences/axi_sanity_test.sv(23) @ 635: uvm_test_top.env.agt.wr_sqr@@wr_seq [AXI_SANITY_WR] WRITE addr=0x0000000c data=0x5a74cebf resp=0
UVM_INFO src/tb/agent/axi_input_monitor.sv(78) @ 675: uvm_test_top.env.agt.mon [AXI_MONITOR] [WRITE COMPLETE] addr=0x00000020 data=0x00569a6e strb=0xf resp=0
UVM_INFO src/tb/env/axi_scoreboard.sv(85) @ 675: uvm_test_top.env.scb [AXI_SCOREBOARD] [WRITE RESP PASS] addr=0x00000020 resp=2'b00
UVM_INFO src/tb/sequences/axi_sanity_test.sv(23) @ 685: uvm_test_top.env.agt.wr_sqr@@wr_seq [AXI_SANITY_WR] WRITE addr=0x00000020 data=0x00569a6e resp=0
UVM_INFO src/tb/agent/axi_input_monitor.sv(78) @ 725: uvm_test_top.env.agt.mon [AXI_MONITOR] [WRITE COMPLETE] addr=0x00000018 data=0xbbee3a15 strb=0xf resp=0
UVM_INFO src/tb/env/axi_scoreboard.sv(85) @ 725: uvm_test_top.env.scb [AXI_SCOREBOARD] [WRITE RESP PASS] addr=0x00000018 resp=2'b00
UVM_INFO src/tb/sequences/axi_sanity_test.sv(23) @ 735: uvm_test_top.env.agt.wr_sqr@@wr_seq [AXI_SANITY_WR] WRITE addr=0x00000018 data=0xbbee3a15 resp=0
UVM_INFO src/tb/agent/axi_input_monitor.sv(78) @ 775: uvm_test_top.env.agt.mon [AXI_MONITOR] [WRITE COMPLETE] addr=0x0000000c data=0xd557c5cf strb=0xf resp=0
UVM_INFO src/tb/env/axi_scoreboard.sv(85) @ 775: uvm_test_top.env.scb [AXI_SCOREBOARD] [WRITE RESP PASS] addr=0x0000000c resp=2'b00
UVM_INFO src/tb/sequences/axi_sanity_test.sv(23) @ 785: uvm_test_top.env.agt.wr_sqr@@wr_seq [AXI_SANITY_WR] WRITE addr=0x0000000c data=0xd557c5cf resp=0
UVM_INFO src/tb/agent/axi_input_monitor.sv(78) @ 825: uvm_test_top.env.agt.mon [AXI_MONITOR] [WRITE COMPLETE] addr=0x00000008 data=0x6954dc97 strb=0xf resp=0
UVM_INFO src/tb/env/axi_scoreboard.sv(85) @ 825: uvm_test_top.env.scb [AXI_SCOREBOARD] [WRITE RESP PASS] addr=0x00000008 resp=2'b00
UVM_INFO src/tb/sequences/axi_sanity_test.sv(23) @ 835: uvm_test_top.env.agt.wr_sqr@@wr_seq [AXI_SANITY_WR] WRITE addr=0x00000008 data=0x6954dc97 resp=0
UVM_INFO src/tb/agent/axi_input_monitor.sv(78) @ 875: uvm_test_top.env.agt.mon [AXI_MONITOR] [WRITE COMPLETE] addr=0x00000018 data=0xed5fe6b1 strb=0xf resp=0
UVM_INFO src/tb/env/axi_scoreboard.sv(85) @ 875: uvm_test_top.env.scb [AXI_SCOREBOARD] [WRITE RESP PASS] addr=0x00000018 resp=2'b00
UVM_INFO src/tb/sequences/axi_sanity_test.sv(23) @ 885: uvm_test_top.env.agt.wr_sqr@@wr_seq [AXI_SANITY_WR] WRITE addr=0x00000018 data=0xed5fe6b1 resp=0
UVM_INFO src/tb/agent/axi_input_monitor.sv(78) @ 925: uvm_test_top.env.agt.mon [AXI_MONITOR] [WRITE COMPLETE] addr=0x00000004 data=0x76793201 strb=0xf resp=0
UVM_INFO src/tb/env/axi_scoreboard.sv(85) @ 925: uvm_test_top.env.scb [AXI_SCOREBOARD] [WRITE RESP PASS] addr=0x00000004 resp=2'b00
UVM_INFO src/tb/sequences/axi_sanity_test.sv(23) @ 935: uvm_test_top.env.agt.wr_sqr@@wr_seq [AXI_SANITY_WR] WRITE addr=0x00000004 data=0x76793201 resp=0
UVM_INFO src/tb/agent/axi_input_monitor.sv(78) @ 975: uvm_test_top.env.agt.mon [AXI_MONITOR] [WRITE COMPLETE] addr=0x00000008 data=0x9c509410 strb=0xf resp=0
UVM_INFO src/tb/env/axi_scoreboard.sv(85) @ 975: uvm_test_top.env.scb [AXI_SCOREBOARD] [WRITE RESP PASS] addr=0x00000008 resp=2'b00
UVM_INFO src/tb/sequences/axi_sanity_test.sv(23) @ 985: uvm_test_top.env.agt.wr_sqr@@wr_seq [AXI_SANITY_WR] WRITE addr=0x00000008 data=0x9c509410 resp=0
UVM_INFO src/tb/agent/axi_input_monitor.sv(78) @ 1025: uvm_test_top.env.agt.mon [AXI_MONITOR] [WRITE COMPLETE] addr=0x00000014 data=0x08257dca strb=0xf resp=0
UVM_INFO src/tb/env/axi_scoreboard.sv(85) @ 1025: uvm_test_top.env.scb [AXI_SCOREBOARD] [WRITE RESP PASS] addr=0x00000014 resp=2'b00
UVM_INFO src/tb/sequences/axi_sanity_test.sv(23) @ 1035: uvm_test_top.env.agt.wr_sqr@@wr_seq [AXI_SANITY_WR] WRITE addr=0x00000014 data=0x08257dca resp=0
UVM_INFO src/tb/agent/axi_input_monitor.sv(78) @ 1075: uvm_test_top.env.agt.mon [AXI_MONITOR] [WRITE COMPLETE] addr=0x0000001c data=0x762248e6 strb=0xf resp=0
UVM_INFO src/tb/env/axi_scoreboard.sv(85) @ 1075: uvm_test_top.env.scb [AXI_SCOREBOARD] [WRITE RESP PASS] addr=0x0000001c resp=2'b00
UVM_INFO src/tb/sequences/axi_sanity_test.sv(23) @ 1085: uvm_test_top.env.agt.wr_sqr@@wr_seq [AXI_SANITY_WR] WRITE addr=0x0000001c data=0x762248e6 resp=0
UVM_INFO src/tb/agent/axi_input_monitor.sv(78) @ 1125: uvm_test_top.env.agt.mon [AXI_MONITOR] [WRITE COMPLETE] addr=0x0000001c data=0xfba3cec4 strb=0xf resp=0
UVM_INFO src/tb/env/axi_scoreboard.sv(85) @ 1125: uvm_test_top.env.scb [AXI_SCOREBOARD] [WRITE RESP PASS] addr=0x0000001c resp=2'b00
UVM_INFO src/tb/sequences/axi_sanity_test.sv(23) @ 1135: uvm_test_top.env.agt.wr_sqr@@wr_seq [AXI_SANITY_WR] WRITE addr=0x0000001c data=0xfba3cec4 resp=0
UVM_INFO src/tb/agent/axi_input_monitor.sv(78) @ 1175: uvm_test_top.env.agt.mon [AXI_MONITOR] [WRITE COMPLETE] addr=0x0000003c data=0xfca92415 strb=0xf resp=0
UVM_INFO src/tb/env/axi_scoreboard.sv(85) @ 1175: uvm_test_top.env.scb [AXI_SCOREBOARD] [WRITE RESP PASS] addr=0x0000003c resp=2'b00
UVM_INFO src/tb/sequences/axi_sanity_test.sv(23) @ 1185: uvm_test_top.env.agt.wr_sqr@@wr_seq [AXI_SANITY_WR] WRITE addr=0x0000003c data=0xfca92415 resp=0
UVM_INFO src/tb/agent/axi_input_monitor.sv(78) @ 1225: uvm_test_top.env.agt.mon [AXI_MONITOR] [WRITE COMPLETE] addr=0x0000003c data=0x2ef14e40 strb=0xf resp=0
UVM_INFO src/tb/env/axi_scoreboard.sv(85) @ 1225: uvm_test_top.env.scb [AXI_SCOREBOARD] [WRITE RESP PASS] addr=0x0000003c resp=2'b00
UVM_INFO src/tb/sequences/axi_sanity_test.sv(23) @ 1235: uvm_test_top.env.agt.wr_sqr@@wr_seq [AXI_SANITY_WR] WRITE addr=0x0000003c data=0x2ef14e40 resp=0
UVM_INFO src/tb/agent/axi_input_monitor.sv(78) @ 1275: uvm_test_top.env.agt.mon [AXI_MONITOR] [WRITE COMPLETE] addr=0x00000000 data=0x393e3219 strb=0xf resp=0
UVM_INFO src/tb/env/axi_scoreboard.sv(85) @ 1275: uvm_test_top.env.scb [AXI_SCOREBOARD] [WRITE RESP PASS] addr=0x00000000 resp=2'b00
UVM_INFO src/tb/sequences/axi_sanity_test.sv(23) @ 1285: uvm_test_top.env.agt.wr_sqr@@wr_seq [AXI_SANITY_WR] WRITE addr=0x00000000 data=0x393e3219 resp=0
UVM_INFO src/tb/agent/axi_input_monitor.sv(78) @ 1325: uvm_test_top.env.agt.mon [AXI_MONITOR] [WRITE COMPLETE] addr=0x00000008 data=0x7511cfa7 strb=0xf resp=0
UVM_INFO src/tb/env/axi_scoreboard.sv(85) @ 1325: uvm_test_top.env.scb [AXI_SCOREBOARD] [WRITE RESP PASS] addr=0x00000008 resp=2'b00
UVM_INFO src/tb/sequences/axi_sanity_test.sv(23) @ 1335: uvm_test_top.env.agt.wr_sqr@@wr_seq [AXI_SANITY_WR] WRITE addr=0x00000008 data=0x7511cfa7 resp=0
UVM_INFO src/tb/agent/axi_input_monitor.sv(78) @ 1375: uvm_test_top.env.agt.mon [AXI_MONITOR] [WRITE COMPLETE] addr=0x00000018 data=0x464fd40b strb=0xf resp=0
UVM_INFO src/tb/env/axi_scoreboard.sv(85) @ 1375: uvm_test_top.env.scb [AXI_SCOREBOARD] [WRITE RESP PASS] addr=0x00000018 resp=2'b00
UVM_INFO src/tb/sequences/axi_sanity_test.sv(23) @ 1385: uvm_test_top.env.agt.wr_sqr@@wr_seq [AXI_SANITY_WR] WRITE addr=0x00000018 data=0x464fd40b resp=0
UVM_INFO src/tb/agent/axi_input_monitor.sv(78) @ 1425: uvm_test_top.env.agt.mon [AXI_MONITOR] [WRITE COMPLETE] addr=0x0000003c data=0x3a20668b strb=0xf resp=0
UVM_INFO src/tb/env/axi_scoreboard.sv(85) @ 1425: uvm_test_top.env.scb [AXI_SCOREBOARD] [WRITE RESP PASS] addr=0x0000003c resp=2'b00
UVM_INFO src/tb/sequences/axi_sanity_test.sv(23) @ 1435: uvm_test_top.env.agt.wr_sqr@@wr_seq [AXI_SANITY_WR] WRITE addr=0x0000003c data=0x3a20668b resp=0
UVM_INFO src/tb/agent/axi_input_monitor.sv(78) @ 1475: uvm_test_top.env.agt.mon [AXI_MONITOR] [WRITE COMPLETE] addr=0x00000010 data=0x7318a6c1 strb=0xf resp=0
UVM_INFO src/tb/env/axi_scoreboard.sv(85) @ 1475: uvm_test_top.env.scb [AXI_SCOREBOARD] [WRITE RESP PASS] addr=0x00000010 resp=2'b00
UVM_INFO src/tb/sequences/axi_sanity_test.sv(23) @ 1485: uvm_test_top.env.agt.wr_sqr@@wr_seq [AXI_SANITY_WR] WRITE addr=0x00000010 data=0x7318a6c1 resp=0
UVM_INFO src/tb/agent/axi_input_monitor.sv(78) @ 1525: uvm_test_top.env.agt.mon [AXI_MONITOR] [WRITE COMPLETE] addr=0x00000020 data=0xd10cacb0 strb=0xf resp=0
UVM_INFO src/tb/env/axi_scoreboard.sv(85) @ 1525: uvm_test_top.env.scb [AXI_SCOREBOARD] [WRITE RESP PASS] addr=0x00000020 resp=2'b00
UVM_INFO src/tb/sequences/axi_sanity_test.sv(23) @ 1535: uvm_test_top.env.agt.wr_sqr@@wr_seq [AXI_SANITY_WR] WRITE addr=0x00000020 data=0xd10cacb0 resp=0
UVM_INFO src/tb/sequences/axi_sanity_test.sv(27) @ 1535: uvm_test_top.env.agt.wr_sqr@@wr_seq [AXI_SANITY_WR] Sanity Write Sequence Complete
UVM_INFO src/tb/sequences/axi_sanity_test.sv(43) @ 1535: uvm_test_top.env.agt.rd_sqr@@rd_seq [AXI_SANITY_RD] Starting Sanity Read Sequence
UVM_INFO src/tb/agent/axi_input_monitor.sv(117) @ 1555: uvm_test_top.env.agt.mon [AXI_MONITOR] [READ COMPLETE] addr=0x00000018 data=0x464fd40b resp=0
UVM_INFO src/tb/env/axi_scoreboard.sv(125) @ 1555: uvm_test_top.env.scb [AXI_SCOREBOARD] [READ DATA PASS] addr=0x00000018 data=0x464fd40b
UVM_INFO src/tb/sequences/axi_sanity_test.sv(52) @ 1565: uvm_test_top.env.agt.rd_sqr@@rd_seq [AXI_SANITY_RD] READ addr=0x00000018 data=0x464fd40b resp=0
UVM_INFO src/tb/agent/axi_input_monitor.sv(117) @ 1585: uvm_test_top.env.agt.mon [AXI_MONITOR] [READ COMPLETE] addr=0x00000010 data=0x7318a6c1 resp=0
UVM_INFO src/tb/env/axi_scoreboard.sv(125) @ 1585: uvm_test_top.env.scb [AXI_SCOREBOARD] [READ DATA PASS] addr=0x00000010 data=0x7318a6c1
UVM_INFO src/tb/sequences/axi_sanity_test.sv(52) @ 1595: uvm_test_top.env.agt.rd_sqr@@rd_seq [AXI_SANITY_RD] READ addr=0x00000010 data=0x7318a6c1 resp=0
UVM_INFO src/tb/agent/axi_input_monitor.sv(117) @ 1615: uvm_test_top.env.agt.mon [AXI_MONITOR] [READ COMPLETE] addr=0x00000024 data=0x8148192e resp=0
UVM_INFO src/tb/env/axi_scoreboard.sv(125) @ 1615: uvm_test_top.env.scb [AXI_SCOREBOARD] [READ DATA PASS] addr=0x00000024 data=0x8148192e
UVM_INFO src/tb/sequences/axi_sanity_test.sv(52) @ 1625: uvm_test_top.env.agt.rd_sqr@@rd_seq [AXI_SANITY_RD] READ addr=0x00000024 data=0x8148192e resp=0
UVM_INFO src/tb/agent/axi_input_monitor.sv(117) @ 1645: uvm_test_top.env.agt.mon [AXI_MONITOR] [READ COMPLETE] addr=0x0000000c data=0xd557c5cf resp=0
UVM_INFO src/tb/env/axi_scoreboard.sv(125) @ 1645: uvm_test_top.env.scb [AXI_SCOREBOARD] [READ DATA PASS] addr=0x0000000c data=0xd557c5cf
UVM_INFO src/tb/sequences/axi_sanity_test.sv(52) @ 1655: uvm_test_top.env.agt.rd_sqr@@rd_seq [AXI_SANITY_RD] READ addr=0x0000000c data=0xd557c5cf resp=0
UVM_INFO src/tb/agent/axi_input_monitor.sv(117) @ 1675: uvm_test_top.env.agt.mon [AXI_MONITOR] [READ COMPLETE] addr=0x00000024 data=0x8148192e resp=0
UVM_INFO src/tb/env/axi_scoreboard.sv(125) @ 1675: uvm_test_top.env.scb [AXI_SCOREBOARD] [READ DATA PASS] addr=0x00000024 data=0x8148192e
UVM_INFO src/tb/sequences/axi_sanity_test.sv(52) @ 1685: uvm_test_top.env.agt.rd_sqr@@rd_seq [AXI_SANITY_RD] READ addr=0x00000024 data=0x8148192e resp=0
UVM_INFO src/tb/agent/axi_input_monitor.sv(117) @ 1705: uvm_test_top.env.agt.mon [AXI_MONITOR] [READ COMPLETE] addr=0x0000003c data=0x3a20668b resp=0
UVM_INFO src/tb/env/axi_scoreboard.sv(125) @ 1705: uvm_test_top.env.scb [AXI_SCOREBOARD] [READ DATA PASS] addr=0x0000003c data=0x3a20668b
UVM_INFO src/tb/sequences/axi_sanity_test.sv(52) @ 1715: uvm_test_top.env.agt.rd_sqr@@rd_seq [AXI_SANITY_RD] READ addr=0x0000003c data=0x3a20668b resp=0
UVM_INFO src/tb/agent/axi_input_monitor.sv(117) @ 1735: uvm_test_top.env.agt.mon [AXI_MONITOR] [READ COMPLETE] addr=0x00000004 data=0x76793201 resp=0
UVM_INFO src/tb/env/axi_scoreboard.sv(125) @ 1735: uvm_test_top.env.scb [AXI_SCOREBOARD] [READ DATA PASS] addr=0x00000004 data=0x76793201
UVM_INFO src/tb/sequences/axi_sanity_test.sv(52) @ 1745: uvm_test_top.env.agt.rd_sqr@@rd_seq [AXI_SANITY_RD] READ addr=0x00000004 data=0x76793201 resp=0
UVM_INFO src/tb/agent/axi_input_monitor.sv(117) @ 1765: uvm_test_top.env.agt.mon [AXI_MONITOR] [READ COMPLETE] addr=0x0000003c data=0x3a20668b resp=0
UVM_INFO src/tb/env/axi_scoreboard.sv(125) @ 1765: uvm_test_top.env.scb [AXI_SCOREBOARD] [READ DATA PASS] addr=0x0000003c data=0x3a20668b
UVM_INFO src/tb/sequences/axi_sanity_test.sv(52) @ 1775: uvm_test_top.env.agt.rd_sqr@@rd_seq [AXI_SANITY_RD] READ addr=0x0000003c data=0x3a20668b resp=0
UVM_INFO src/tb/agent/axi_input_monitor.sv(117) @ 1795: uvm_test_top.env.agt.mon [AXI_MONITOR] [READ COMPLETE] addr=0x0000000c data=0xd557c5cf resp=0
UVM_INFO src/tb/env/axi_scoreboard.sv(125) @ 1795: uvm_test_top.env.scb [AXI_SCOREBOARD] [READ DATA PASS] addr=0x0000000c data=0xd557c5cf
UVM_INFO src/tb/sequences/axi_sanity_test.sv(52) @ 1805: uvm_test_top.env.agt.rd_sqr@@rd_seq [AXI_SANITY_RD] READ addr=0x0000000c data=0xd557c5cf resp=0
UVM_INFO src/tb/agent/axi_input_monitor.sv(117) @ 1825: uvm_test_top.env.agt.mon [AXI_MONITOR] [READ COMPLETE] addr=0x00000014 data=0x08257dca resp=0
UVM_INFO src/tb/env/axi_scoreboard.sv(125) @ 1825: uvm_test_top.env.scb [AXI_SCOREBOARD] [READ DATA PASS] addr=0x00000014 data=0x08257dca
UVM_INFO src/tb/sequences/axi_sanity_test.sv(52) @ 1835: uvm_test_top.env.agt.rd_sqr@@rd_seq [AXI_SANITY_RD] READ addr=0x00000014 data=0x08257dca resp=0
UVM_INFO src/tb/agent/axi_input_monitor.sv(117) @ 1855: uvm_test_top.env.agt.mon [AXI_MONITOR] [READ COMPLETE] addr=0x00000000 data=0x393e3219 resp=0
UVM_INFO src/tb/env/axi_scoreboard.sv(125) @ 1855: uvm_test_top.env.scb [AXI_SCOREBOARD] [READ DATA PASS] addr=0x00000000 data=0x393e3219
UVM_INFO src/tb/sequences/axi_sanity_test.sv(52) @ 1865: uvm_test_top.env.agt.rd_sqr@@rd_seq [AXI_SANITY_RD] READ addr=0x00000000 data=0x393e3219 resp=0
UVM_INFO src/tb/agent/axi_input_monitor.sv(117) @ 1885: uvm_test_top.env.agt.mon [AXI_MONITOR] [READ COMPLETE] addr=0x00000000 data=0x393e3219 resp=0
UVM_INFO src/tb/env/axi_scoreboard.sv(125) @ 1885: uvm_test_top.env.scb [AXI_SCOREBOARD] [READ DATA PASS] addr=0x00000000 data=0x393e3219
UVM_INFO src/tb/sequences/axi_sanity_test.sv(52) @ 1895: uvm_test_top.env.agt.rd_sqr@@rd_seq [AXI_SANITY_RD] READ addr=0x00000000 data=0x393e3219 resp=0
UVM_INFO src/tb/agent/axi_input_monitor.sv(117) @ 1915: uvm_test_top.env.agt.mon [AXI_MONITOR] [READ COMPLETE] addr=0x00000014 data=0x08257dca resp=0
UVM_INFO src/tb/env/axi_scoreboard.sv(125) @ 1915: uvm_test_top.env.scb [AXI_SCOREBOARD] [READ DATA PASS] addr=0x00000014 data=0x08257dca
UVM_INFO src/tb/sequences/axi_sanity_test.sv(52) @ 1925: uvm_test_top.env.agt.rd_sqr@@rd_seq [AXI_SANITY_RD] READ addr=0x00000014 data=0x08257dca resp=0
UVM_INFO src/tb/agent/axi_input_monitor.sv(117) @ 1945: uvm_test_top.env.agt.mon [AXI_MONITOR] [READ COMPLETE] addr=0x00000000 data=0x393e3219 resp=0
UVM_INFO src/tb/env/axi_scoreboard.sv(125) @ 1945: uvm_test_top.env.scb [AXI_SCOREBOARD] [READ DATA PASS] addr=0x00000000 data=0x393e3219
UVM_INFO src/tb/sequences/axi_sanity_test.sv(52) @ 1955: uvm_test_top.env.agt.rd_sqr@@rd_seq [AXI_SANITY_RD] READ addr=0x00000000 data=0x393e3219 resp=0
UVM_INFO src/tb/agent/axi_input_monitor.sv(117) @ 1975: uvm_test_top.env.agt.mon [AXI_MONITOR] [READ COMPLETE] addr=0x0000002c data=0x00000000 resp=0
UVM_INFO src/tb/env/axi_scoreboard.sv(125) @ 1975: uvm_test_top.env.scb [AXI_SCOREBOARD] [READ DATA PASS] addr=0x0000002c data=0x00000000
UVM_INFO src/tb/sequences/axi_sanity_test.sv(52) @ 1985: uvm_test_top.env.agt.rd_sqr@@rd_seq [AXI_SANITY_RD] READ addr=0x0000002c data=0x00000000 resp=0
UVM_INFO src/tb/agent/axi_input_monitor.sv(117) @ 2005: uvm_test_top.env.agt.mon [AXI_MONITOR] [READ COMPLETE] addr=0x00000004 data=0x76793201 resp=0
UVM_INFO src/tb/env/axi_scoreboard.sv(125) @ 2005: uvm_test_top.env.scb [AXI_SCOREBOARD] [READ DATA PASS] addr=0x00000004 data=0x76793201
UVM_INFO src/tb/sequences/axi_sanity_test.sv(52) @ 2015: uvm_test_top.env.agt.rd_sqr@@rd_seq [AXI_SANITY_RD] READ addr=0x00000004 data=0x76793201 resp=0
UVM_INFO src/tb/agent/axi_input_monitor.sv(117) @ 2035: uvm_test_top.env.agt.mon [AXI_MONITOR] [READ COMPLETE] addr=0x00000030 data=0x00000000 resp=0
UVM_INFO src/tb/env/axi_scoreboard.sv(125) @ 2035: uvm_test_top.env.scb [AXI_SCOREBOARD] [READ DATA PASS] addr=0x00000030 data=0x00000000
UVM_INFO src/tb/sequences/axi_sanity_test.sv(52) @ 2045: uvm_test_top.env.agt.rd_sqr@@rd_seq [AXI_SANITY_RD] READ addr=0x00000030 data=0x00000000 resp=0
UVM_INFO src/tb/agent/axi_input_monitor.sv(117) @ 2065: uvm_test_top.env.agt.mon [AXI_MONITOR] [READ COMPLETE] addr=0x00000004 data=0x76793201 resp=0
UVM_INFO src/tb/env/axi_scoreboard.sv(125) @ 2065: uvm_test_top.env.scb [AXI_SCOREBOARD] [READ DATA PASS] addr=0x00000004 data=0x76793201
UVM_INFO src/tb/sequences/axi_sanity_test.sv(52) @ 2075: uvm_test_top.env.agt.rd_sqr@@rd_seq [AXI_SANITY_RD] READ addr=0x00000004 data=0x76793201 resp=0
UVM_INFO src/tb/agent/axi_input_monitor.sv(117) @ 2095: uvm_test_top.env.agt.mon [AXI_MONITOR] [READ COMPLETE] addr=0x00000028 data=0x00000000 resp=0
UVM_INFO src/tb/env/axi_scoreboard.sv(125) @ 2095: uvm_test_top.env.scb [AXI_SCOREBOARD] [READ DATA PASS] addr=0x00000028 data=0x00000000
UVM_INFO src/tb/sequences/axi_sanity_test.sv(52) @ 2105: uvm_test_top.env.agt.rd_sqr@@rd_seq [AXI_SANITY_RD] READ addr=0x00000028 data=0x00000000 resp=0
UVM_INFO src/tb/agent/axi_input_monitor.sv(117) @ 2125: uvm_test_top.env.agt.mon [AXI_MONITOR] [READ COMPLETE] addr=0x0000000c data=0xd557c5cf resp=0
UVM_INFO src/tb/env/axi_scoreboard.sv(125) @ 2125: uvm_test_top.env.scb [AXI_SCOREBOARD] [READ DATA PASS] addr=0x0000000c data=0xd557c5cf
UVM_INFO src/tb/sequences/axi_sanity_test.sv(52) @ 2135: uvm_test_top.env.agt.rd_sqr@@rd_seq [AXI_SANITY_RD] READ addr=0x0000000c data=0xd557c5cf resp=0
UVM_INFO src/tb/agent/axi_input_monitor.sv(117) @ 2155: uvm_test_top.env.agt.mon [AXI_MONITOR] [READ COMPLETE] addr=0x00000024 data=0x8148192e resp=0
UVM_INFO src/tb/env/axi_scoreboard.sv(125) @ 2155: uvm_test_top.env.scb [AXI_SCOREBOARD] [READ DATA PASS] addr=0x00000024 data=0x8148192e
UVM_INFO src/tb/sequences/axi_sanity_test.sv(52) @ 2165: uvm_test_top.env.agt.rd_sqr@@rd_seq [AXI_SANITY_RD] READ addr=0x00000024 data=0x8148192e resp=0
UVM_INFO src/tb/agent/axi_input_monitor.sv(117) @ 2185: uvm_test_top.env.agt.mon [AXI_MONITOR] [READ COMPLETE] addr=0x0000001c data=0xfba3cec4 resp=0
UVM_INFO src/tb/env/axi_scoreboard.sv(125) @ 2185: uvm_test_top.env.scb [AXI_SCOREBOARD] [READ DATA PASS] addr=0x0000001c data=0xfba3cec4
UVM_INFO src/tb/sequences/axi_sanity_test.sv(52) @ 2195: uvm_test_top.env.agt.rd_sqr@@rd_seq [AXI_SANITY_RD] READ addr=0x0000001c data=0xfba3cec4 resp=0
UVM_INFO src/tb/agent/axi_input_monitor.sv(117) @ 2215: uvm_test_top.env.agt.mon [AXI_MONITOR] [READ COMPLETE] addr=0x00000004 data=0x76793201 resp=0
UVM_INFO src/tb/env/axi_scoreboard.sv(125) @ 2215: uvm_test_top.env.scb [AXI_SCOREBOARD] [READ DATA PASS] addr=0x00000004 data=0x76793201
UVM_INFO src/tb/sequences/axi_sanity_test.sv(52) @ 2225: uvm_test_top.env.agt.rd_sqr@@rd_seq [AXI_SANITY_RD] READ addr=0x00000004 data=0x76793201 resp=0
UVM_INFO src/tb/agent/axi_input_monitor.sv(117) @ 2245: uvm_test_top.env.agt.mon [AXI_MONITOR] [READ COMPLETE] addr=0x00000020 data=0xd10cacb0 resp=0
UVM_INFO src/tb/env/axi_scoreboard.sv(125) @ 2245: uvm_test_top.env.scb [AXI_SCOREBOARD] [READ DATA PASS] addr=0x00000020 data=0xd10cacb0
UVM_INFO src/tb/sequences/axi_sanity_test.sv(52) @ 2255: uvm_test_top.env.agt.rd_sqr@@rd_seq [AXI_SANITY_RD] READ addr=0x00000020 data=0xd10cacb0 resp=0
UVM_INFO src/tb/agent/axi_input_monitor.sv(117) @ 2275: uvm_test_top.env.agt.mon [AXI_MONITOR] [READ COMPLETE] addr=0x00000010 data=0x7318a6c1 resp=0
UVM_INFO src/tb/env/axi_scoreboard.sv(125) @ 2275: uvm_test_top.env.scb [AXI_SCOREBOARD] [READ DATA PASS] addr=0x00000010 data=0x7318a6c1
UVM_INFO src/tb/sequences/axi_sanity_test.sv(52) @ 2285: uvm_test_top.env.agt.rd_sqr@@rd_seq [AXI_SANITY_RD] READ addr=0x00000010 data=0x7318a6c1 resp=0
UVM_INFO src/tb/agent/axi_input_monitor.sv(117) @ 2305: uvm_test_top.env.agt.mon [AXI_MONITOR] [READ COMPLETE] addr=0x00000010 data=0x7318a6c1 resp=0
UVM_INFO src/tb/env/axi_scoreboard.sv(125) @ 2305: uvm_test_top.env.scb [AXI_SCOREBOARD] [READ DATA PASS] addr=0x00000010 data=0x7318a6c1
UVM_INFO src/tb/sequences/axi_sanity_test.sv(52) @ 2315: uvm_test_top.env.agt.rd_sqr@@rd_seq [AXI_SANITY_RD] READ addr=0x00000010 data=0x7318a6c1 resp=0
UVM_INFO src/tb/agent/axi_input_monitor.sv(117) @ 2335: uvm_test_top.env.agt.mon [AXI_MONITOR] [READ COMPLETE] addr=0x00000000 data=0x393e3219 resp=0
UVM_INFO src/tb/env/axi_scoreboard.sv(125) @ 2335: uvm_test_top.env.scb [AXI_SCOREBOARD] [READ DATA PASS] addr=0x00000000 data=0x393e3219
UVM_INFO src/tb/sequences/axi_sanity_test.sv(52) @ 2345: uvm_test_top.env.agt.rd_sqr@@rd_seq [AXI_SANITY_RD] READ addr=0x00000000 data=0x393e3219 resp=0
UVM_INFO src/tb/agent/axi_input_monitor.sv(117) @ 2365: uvm_test_top.env.agt.mon [AXI_MONITOR] [READ COMPLETE] addr=0x0000000c data=0xd557c5cf resp=0
UVM_INFO src/tb/env/axi_scoreboard.sv(125) @ 2365: uvm_test_top.env.scb [AXI_SCOREBOARD] [READ DATA PASS] addr=0x0000000c data=0xd557c5cf
UVM_INFO src/tb/sequences/axi_sanity_test.sv(52) @ 2375: uvm_test_top.env.agt.rd_sqr@@rd_seq [AXI_SANITY_RD] READ addr=0x0000000c data=0xd557c5cf resp=0
UVM_INFO src/tb/agent/axi_input_monitor.sv(117) @ 2395: uvm_test_top.env.agt.mon [AXI_MONITOR] [READ COMPLETE] addr=0x0000001c data=0xfba3cec4 resp=0
UVM_INFO src/tb/env/axi_scoreboard.sv(125) @ 2395: uvm_test_top.env.scb [AXI_SCOREBOARD] [READ DATA PASS] addr=0x0000001c data=0xfba3cec4
UVM_INFO src/tb/sequences/axi_sanity_test.sv(52) @ 2405: uvm_test_top.env.agt.rd_sqr@@rd_seq [AXI_SANITY_RD] READ addr=0x0000001c data=0xfba3cec4 resp=0
UVM_INFO src/tb/agent/axi_input_monitor.sv(117) @ 2425: uvm_test_top.env.agt.mon [AXI_MONITOR] [READ COMPLETE] addr=0x0000000c data=0xd557c5cf resp=0
UVM_INFO src/tb/env/axi_scoreboard.sv(125) @ 2425: uvm_test_top.env.scb [AXI_SCOREBOARD] [READ DATA PASS] addr=0x0000000c data=0xd557c5cf
UVM_INFO src/tb/sequences/axi_sanity_test.sv(52) @ 2435: uvm_test_top.env.agt.rd_sqr@@rd_seq [AXI_SANITY_RD] READ addr=0x0000000c data=0xd557c5cf resp=0
UVM_INFO src/tb/sequences/axi_sanity_test.sv(56) @ 2435: uvm_test_top.env.agt.rd_sqr@@rd_seq [AXI_SANITY_RD] Sanity Read Sequence Complete
UVM_INFO /fetools/synopsys/installed_tools/vcs/vcs/Q-2020.03-SP2-8/etc/uvm/base/uvm_objection.svh(1274) @ 2435: reporter [TEST_DONE] 'run' phase is ready to proceed to the 'extract' phase
UVM_INFO src/tb/env/axi_subscriber.sv(112) @ 2435: uvm_test_top.env.cov [AXI_COVERAGE] 
============ COVERAGE SUMMARY ============
  Write Coverage : 31.67%
  Read  Coverage : 53.65%
=============================================
UVM_INFO src/tb/env/axi_scoreboard.sv(145) @ 2435: uvm_test_top.env.scb [AXI_SCOREBOARD] 
============ SCOREBOARD SUMMARY ============
  Total Writes  : 29
  Total Reads   : 30
  Total Pass    : 59
  Total Fail    : 0
=============================================
UVM_INFO src/tb/env/axi_scoreboard.sv(151) @ 2435: uvm_test_top.env.scb [AXI_SCOREBOARD] ALL CHECKS PASSED
UVM_INFO src/tb/tests/axi_test.sv(39) @ 2435: uvm_test_top [AXI_TEST] 
*** TEST PASSED ***

--- UVM Report Summary ---

** Report counts by severity
UVM_INFO :  191
UVM_WARNING :    0
UVM_ERROR :    0
UVM_FATAL :    0
** Report counts by id
[AXI_COVERAGE]     1
[AXI_MONITOR]    59
[AXI_SANITY_RD]    32
[AXI_SANITY_WR]    32
[AXI_SCOREBOARD]    61
[AXI_TEST]     1
[RNTST]     1
[TESTBENCH]     2
[TEST_DONE]     1
[UVMTOP]     1
$finish called from file "/fetools/synopsys/installed_tools/vcs/vcs/Q-2020.03-SP2-8/etc/uvm/base/uvm_root.svh", line 437.
$finish at simulation time                 2435

---------------------------------------------------------------------------
VCS Coverage Metrics: during simulation line, cond, FSM, branch, tgl was monitored
---------------------------------------------------------------------------
           V C S   S i m u l a t i o n   R e p o r t 
Time: 2435 ns
CPU Time:      0.640 seconds;       Data structure size:   0.6Mb
Fri Sep 18 13:20:55 2026
