Command: /fetools/work_area/frontend/Batch_11/Kittu_Patel/UVM/Project/AXI/./simv +UVM_TESTNAME=axi_corner_data_test +ntb_random_seed=1 +UVM_VERBOSITY=UVM_MEDIUM -cm line+cond+fsm+tgl+branch -cm_name axi_corner_data_test_seed_1 -cm_dir simv.vdb -l regression_logs/axi_corner_data_test_seed_1.log
Chronologic VCS simulator copyright 1991-2020
Contains Synopsys proprietary information.
Compiler version Q-2020.03-SP2-8_Full64; Runtime version Q-2020.03-SP2-8_Full64;  Sep 18 01:10 2026
----------------------------------------------------------------
UVM-1.1d.Synopsys
(C) 2007-2013 Mentor Graphics Corporation
(C) 2007-2013 Cadence Design Systems, Inc.
(C) 2006-2013 Synopsys, Inc.
(C) 2011-2013 Cypress Semiconductor Corp.
----------------------------------------------------------------

  ***********       IMPORTANT RELEASE NOTES         ************

  You are using a version of the UVM library that has been compiled
  with `UVM_NO_DEPRECATED undefined.
  See http://www.eda.org/svdb/view.php?id=3313 for more details.

  You are using a version of the UVM library that has been compiled
  with `UVM_OBJECT_MUST_HAVE_CONSTRUCTOR undefined.
  See http://www.eda.org/svdb/view.php?id=3770 for more details.

      (Specify +UVM_NO_RELNOTES to turn off this notice)

UVM_INFO @ 0: reporter [RNTST] Running test axi_corner_data_test...
UVM_INFO @ 0: reporter [UVMTOP] UVM testbench topology:
------------------------------------------------------------------
Name                       Type                        Size  Value
------------------------------------------------------------------
uvm_test_top               axi_corner_data_test        -     @461 
  env                      axi_env                     -     @469 
    agt                    axi_act_agent               -     @477 
      drv                  axi_driver                  -     @751 
        rd_item_port       uvm_seq_item_pull_port      -     @777 
        rsp_port           uvm_analysis_port           -     @768 
        seq_item_port      uvm_seq_item_pull_port      -     @759 
      mon                  axi_monitor                 -     @786 
        read_ap            uvm_analysis_port           -     @804 
        write_ap           uvm_analysis_port           -     @795 
      rd_sqr               axi_sequencer               -     @628 
        rsp_export         uvm_analysis_export         -     @636 
        seq_item_export    uvm_seq_item_pull_imp       -     @742 
        arbitration_queue  array                       0     -    
        lock_queue         array                       0     -    
        num_last_reqs      integral                    32    'd1  
        num_last_rsps      integral                    32    'd1  
      wr_sqr               axi_sequencer               -     @505 
        rsp_export         uvm_analysis_export         -     @513 
        seq_item_export    uvm_seq_item_pull_imp       -     @619 
        arbitration_queue  array                       0     -    
        lock_queue         array                       0     -    
        num_last_reqs      integral                    32    'd1  
        num_last_rsps      integral                    32    'd1  
    cov                    axi_sub                     -     @493 
      read_export          uvm_analysis_imp_cov_read   -     @833 
      write_export         uvm_analysis_imp_cov_write  -     @824 
    scb                    axi_scb                     -     @485 
      read_export          uvm_analysis_imp_read_txn   -     @851 
      write_export         uvm_analysis_imp_write_txn  -     @842 
------------------------------------------------------------------

UVM_INFO axi_corner_data_seq.sv(22) @ 0: uvm_test_top.env.agt.wr_sqr@@wr_seq [AXI_CORNER_WR] Starting Corner Data Pattern Write Sequence
UVM_INFO axi_top.sv(25) @ 15: reporter [TESTBENCH] Reset released
UVM_INFO axi_input_monitor.sv(78) @ 65: uvm_test_top.env.agt.mon [AXI_MONITOR] [WRITE COMPLETE] addr=0x00000000 data=0x00000000 strb=0xf resp=0
UVM_INFO axi_scoreboard.sv(85) @ 65: uvm_test_top.env.scb [AXI_SCOREBOARD] [WRITE RESP PASS] addr=0x00000000 resp=2'b00
UVM_INFO axi_top.sv(25) @ 135: reporter [TESTBENCH] Reset released
UVM_INFO axi_input_monitor.sv(78) @ 175: uvm_test_top.env.agt.mon [AXI_MONITOR] [WRITE COMPLETE] addr=0x00000000 data=0x55555555 strb=0xf resp=0
UVM_INFO axi_scoreboard.sv(85) @ 175: uvm_test_top.env.scb [AXI_SCOREBOARD] [WRITE RESP PASS] addr=0x00000000 resp=2'b00
UVM_INFO axi_input_monitor.sv(78) @ 225: uvm_test_top.env.agt.mon [AXI_MONITOR] [WRITE COMPLETE] addr=0x00000000 data=0xaaaaaaaa strb=0xf resp=0
UVM_INFO axi_scoreboard.sv(85) @ 225: uvm_test_top.env.scb [AXI_SCOREBOARD] [WRITE RESP PASS] addr=0x00000000 resp=2'b00
UVM_INFO axi_input_monitor.sv(78) @ 275: uvm_test_top.env.agt.mon [AXI_MONITOR] [WRITE COMPLETE] addr=0x00000000 data=0x12345678 strb=0xf resp=0
UVM_INFO axi_scoreboard.sv(85) @ 275: uvm_test_top.env.scb [AXI_SCOREBOARD] [WRITE RESP PASS] addr=0x00000000 resp=2'b00
UVM_INFO axi_input_monitor.sv(78) @ 325: uvm_test_top.env.agt.mon [AXI_MONITOR] [WRITE COMPLETE] addr=0x00000000 data=0x87654321 strb=0xf resp=0
UVM_INFO axi_scoreboard.sv(85) @ 325: uvm_test_top.env.scb [AXI_SCOREBOARD] [WRITE RESP PASS] addr=0x00000000 resp=2'b00
UVM_INFO axi_input_monitor.sv(78) @ 375: uvm_test_top.env.agt.mon [AXI_MONITOR] [WRITE COMPLETE] addr=0x00000004 data=0x00000000 strb=0xf resp=0
UVM_INFO axi_scoreboard.sv(85) @ 375: uvm_test_top.env.scb [AXI_SCOREBOARD] [WRITE RESP PASS] addr=0x00000004 resp=2'b00
UVM_INFO axi_input_monitor.sv(78) @ 425: uvm_test_top.env.agt.mon [AXI_MONITOR] [WRITE COMPLETE] addr=0x00000004 data=0xffffffff strb=0xf resp=0
UVM_INFO axi_scoreboard.sv(85) @ 425: uvm_test_top.env.scb [AXI_SCOREBOARD] [WRITE RESP PASS] addr=0x00000004 resp=2'b00
UVM_INFO axi_input_monitor.sv(78) @ 475: uvm_test_top.env.agt.mon [AXI_MONITOR] [WRITE COMPLETE] addr=0x00000004 data=0x55555555 strb=0xf resp=0
UVM_INFO axi_scoreboard.sv(85) @ 475: uvm_test_top.env.scb [AXI_SCOREBOARD] [WRITE RESP PASS] addr=0x00000004 resp=2'b00
UVM_INFO axi_input_monitor.sv(78) @ 525: uvm_test_top.env.agt.mon [AXI_MONITOR] [WRITE COMPLETE] addr=0x00000004 data=0xaaaaaaaa strb=0xf resp=0
UVM_INFO axi_scoreboard.sv(85) @ 525: uvm_test_top.env.scb [AXI_SCOREBOARD] [WRITE RESP PASS] addr=0x00000004 resp=2'b00
UVM_INFO axi_input_monitor.sv(78) @ 575: uvm_test_top.env.agt.mon [AXI_MONITOR] [WRITE COMPLETE] addr=0x00000004 data=0x12345678 strb=0xf resp=0
UVM_INFO axi_scoreboard.sv(85) @ 575: uvm_test_top.env.scb [AXI_SCOREBOARD] [WRITE RESP PASS] addr=0x00000004 resp=2'b00
UVM_INFO axi_input_monitor.sv(78) @ 625: uvm_test_top.env.agt.mon [AXI_MONITOR] [WRITE COMPLETE] addr=0x00000004 data=0x87654321 strb=0xf resp=0
UVM_INFO axi_scoreboard.sv(85) @ 625: uvm_test_top.env.scb [AXI_SCOREBOARD] [WRITE RESP PASS] addr=0x00000004 resp=2'b00
UVM_INFO axi_input_monitor.sv(78) @ 675: uvm_test_top.env.agt.mon [AXI_MONITOR] [WRITE COMPLETE] addr=0x00000008 data=0x00000000 strb=0xf resp=0
UVM_INFO axi_scoreboard.sv(85) @ 675: uvm_test_top.env.scb [AXI_SCOREBOARD] [WRITE RESP PASS] addr=0x00000008 resp=2'b00
UVM_INFO axi_input_monitor.sv(78) @ 725: uvm_test_top.env.agt.mon [AXI_MONITOR] [WRITE COMPLETE] addr=0x00000008 data=0xffffffff strb=0xf resp=0
UVM_INFO axi_scoreboard.sv(85) @ 725: uvm_test_top.env.scb [AXI_SCOREBOARD] [WRITE RESP PASS] addr=0x00000008 resp=2'b00
UVM_INFO axi_input_monitor.sv(78) @ 775: uvm_test_top.env.agt.mon [AXI_MONITOR] [WRITE COMPLETE] addr=0x00000008 data=0x55555555 strb=0xf resp=0
UVM_INFO axi_scoreboard.sv(85) @ 775: uvm_test_top.env.scb [AXI_SCOREBOARD] [WRITE RESP PASS] addr=0x00000008 resp=2'b00
UVM_INFO axi_input_monitor.sv(78) @ 825: uvm_test_top.env.agt.mon [AXI_MONITOR] [WRITE COMPLETE] addr=0x00000008 data=0xaaaaaaaa strb=0xf resp=0
UVM_INFO axi_scoreboard.sv(85) @ 825: uvm_test_top.env.scb [AXI_SCOREBOARD] [WRITE RESP PASS] addr=0x00000008 resp=2'b00
UVM_INFO axi_input_monitor.sv(78) @ 875: uvm_test_top.env.agt.mon [AXI_MONITOR] [WRITE COMPLETE] addr=0x00000008 data=0x12345678 strb=0xf resp=0
UVM_INFO axi_scoreboard.sv(85) @ 875: uvm_test_top.env.scb [AXI_SCOREBOARD] [WRITE RESP PASS] addr=0x00000008 resp=2'b00
UVM_INFO axi_input_monitor.sv(78) @ 925: uvm_test_top.env.agt.mon [AXI_MONITOR] [WRITE COMPLETE] addr=0x00000008 data=0x87654321 strb=0xf resp=0
UVM_INFO axi_scoreboard.sv(85) @ 925: uvm_test_top.env.scb [AXI_SCOREBOARD] [WRITE RESP PASS] addr=0x00000008 resp=2'b00
UVM_INFO axi_input_monitor.sv(78) @ 975: uvm_test_top.env.agt.mon [AXI_MONITOR] [WRITE COMPLETE] addr=0x0000000c data=0x00000000 strb=0xf resp=0
UVM_INFO axi_scoreboard.sv(85) @ 975: uvm_test_top.env.scb [AXI_SCOREBOARD] [WRITE RESP PASS] addr=0x0000000c resp=2'b00
UVM_INFO axi_input_monitor.sv(78) @ 1025: uvm_test_top.env.agt.mon [AXI_MONITOR] [WRITE COMPLETE] addr=0x0000000c data=0xffffffff strb=0xf resp=0
UVM_INFO axi_scoreboard.sv(85) @ 1025: uvm_test_top.env.scb [AXI_SCOREBOARD] [WRITE RESP PASS] addr=0x0000000c resp=2'b00
UVM_INFO axi_input_monitor.sv(78) @ 1075: uvm_test_top.env.agt.mon [AXI_MONITOR] [WRITE COMPLETE] addr=0x0000000c data=0x55555555 strb=0xf resp=0
UVM_INFO axi_scoreboard.sv(85) @ 1075: uvm_test_top.env.scb [AXI_SCOREBOARD] [WRITE RESP PASS] addr=0x0000000c resp=2'b00
UVM_INFO axi_input_monitor.sv(78) @ 1125: uvm_test_top.env.agt.mon [AXI_MONITOR] [WRITE COMPLETE] addr=0x0000000c data=0xaaaaaaaa strb=0xf resp=0
UVM_INFO axi_scoreboard.sv(85) @ 1125: uvm_test_top.env.scb [AXI_SCOREBOARD] [WRITE RESP PASS] addr=0x0000000c resp=2'b00
UVM_INFO axi_input_monitor.sv(78) @ 1175: uvm_test_top.env.agt.mon [AXI_MONITOR] [WRITE COMPLETE] addr=0x0000000c data=0x12345678 strb=0xf resp=0
UVM_INFO axi_scoreboard.sv(85) @ 1175: uvm_test_top.env.scb [AXI_SCOREBOARD] [WRITE RESP PASS] addr=0x0000000c resp=2'b00
UVM_INFO axi_input_monitor.sv(78) @ 1225: uvm_test_top.env.agt.mon [AXI_MONITOR] [WRITE COMPLETE] addr=0x0000000c data=0x87654321 strb=0xf resp=0
UVM_INFO axi_scoreboard.sv(85) @ 1225: uvm_test_top.env.scb [AXI_SCOREBOARD] [WRITE RESP PASS] addr=0x0000000c resp=2'b00
UVM_INFO axi_input_monitor.sv(78) @ 1275: uvm_test_top.env.agt.mon [AXI_MONITOR] [WRITE COMPLETE] addr=0x00000010 data=0x00000000 strb=0xf resp=0
UVM_INFO axi_scoreboard.sv(85) @ 1275: uvm_test_top.env.scb [AXI_SCOREBOARD] [WRITE RESP PASS] addr=0x00000010 resp=2'b00
UVM_INFO axi_input_monitor.sv(78) @ 1325: uvm_test_top.env.agt.mon [AXI_MONITOR] [WRITE COMPLETE] addr=0x00000010 data=0xffffffff strb=0xf resp=0
UVM_INFO axi_scoreboard.sv(85) @ 1325: uvm_test_top.env.scb [AXI_SCOREBOARD] [WRITE RESP PASS] addr=0x00000010 resp=2'b00
UVM_INFO axi_input_monitor.sv(78) @ 1375: uvm_test_top.env.agt.mon [AXI_MONITOR] [WRITE COMPLETE] addr=0x00000010 data=0x55555555 strb=0xf resp=0
UVM_INFO axi_scoreboard.sv(85) @ 1375: uvm_test_top.env.scb [AXI_SCOREBOARD] [WRITE RESP PASS] addr=0x00000010 resp=2'b00
UVM_INFO axi_input_monitor.sv(78) @ 1425: uvm_test_top.env.agt.mon [AXI_MONITOR] [WRITE COMPLETE] addr=0x00000010 data=0xaaaaaaaa strb=0xf resp=0
UVM_INFO axi_scoreboard.sv(85) @ 1425: uvm_test_top.env.scb [AXI_SCOREBOARD] [WRITE RESP PASS] addr=0x00000010 resp=2'b00
UVM_INFO axi_input_monitor.sv(78) @ 1475: uvm_test_top.env.agt.mon [AXI_MONITOR] [WRITE COMPLETE] addr=0x00000010 data=0x12345678 strb=0xf resp=0
UVM_INFO axi_scoreboard.sv(85) @ 1475: uvm_test_top.env.scb [AXI_SCOREBOARD] [WRITE RESP PASS] addr=0x00000010 resp=2'b00
UVM_INFO axi_input_monitor.sv(78) @ 1525: uvm_test_top.env.agt.mon [AXI_MONITOR] [WRITE COMPLETE] addr=0x00000010 data=0x87654321 strb=0xf resp=0
UVM_INFO axi_scoreboard.sv(85) @ 1525: uvm_test_top.env.scb [AXI_SCOREBOARD] [WRITE RESP PASS] addr=0x00000010 resp=2'b00
UVM_INFO axi_input_monitor.sv(78) @ 1575: uvm_test_top.env.agt.mon [AXI_MONITOR] [WRITE COMPLETE] addr=0x00000014 data=0x00000000 strb=0xf resp=0
UVM_INFO axi_scoreboard.sv(85) @ 1575: uvm_test_top.env.scb [AXI_SCOREBOARD] [WRITE RESP PASS] addr=0x00000014 resp=2'b00
UVM_INFO axi_input_monitor.sv(78) @ 1625: uvm_test_top.env.agt.mon [AXI_MONITOR] [WRITE COMPLETE] addr=0x00000014 data=0xffffffff strb=0xf resp=0
UVM_INFO axi_scoreboard.sv(85) @ 1625: uvm_test_top.env.scb [AXI_SCOREBOARD] [WRITE RESP PASS] addr=0x00000014 resp=2'b00
UVM_INFO axi_input_monitor.sv(78) @ 1675: uvm_test_top.env.agt.mon [AXI_MONITOR] [WRITE COMPLETE] addr=0x00000014 data=0x55555555 strb=0xf resp=0
UVM_INFO axi_scoreboard.sv(85) @ 1675: uvm_test_top.env.scb [AXI_SCOREBOARD] [WRITE RESP PASS] addr=0x00000014 resp=2'b00
UVM_INFO axi_input_monitor.sv(78) @ 1725: uvm_test_top.env.agt.mon [AXI_MONITOR] [WRITE COMPLETE] addr=0x00000014 data=0xaaaaaaaa strb=0xf resp=0
UVM_INFO axi_scoreboard.sv(85) @ 1725: uvm_test_top.env.scb [AXI_SCOREBOARD] [WRITE RESP PASS] addr=0x00000014 resp=2'b00
UVM_INFO axi_input_monitor.sv(78) @ 1775: uvm_test_top.env.agt.mon [AXI_MONITOR] [WRITE COMPLETE] addr=0x00000014 data=0x12345678 strb=0xf resp=0
UVM_INFO axi_scoreboard.sv(85) @ 1775: uvm_test_top.env.scb [AXI_SCOREBOARD] [WRITE RESP PASS] addr=0x00000014 resp=2'b00
UVM_INFO axi_input_monitor.sv(78) @ 1825: uvm_test_top.env.agt.mon [AXI_MONITOR] [WRITE COMPLETE] addr=0x00000014 data=0x87654321 strb=0xf resp=0
UVM_INFO axi_scoreboard.sv(85) @ 1825: uvm_test_top.env.scb [AXI_SCOREBOARD] [WRITE RESP PASS] addr=0x00000014 resp=2'b00
UVM_INFO axi_input_monitor.sv(78) @ 1875: uvm_test_top.env.agt.mon [AXI_MONITOR] [WRITE COMPLETE] addr=0x00000018 data=0x00000000 strb=0xf resp=0
UVM_INFO axi_scoreboard.sv(85) @ 1875: uvm_test_top.env.scb [AXI_SCOREBOARD] [WRITE RESP PASS] addr=0x00000018 resp=2'b00
UVM_INFO axi_input_monitor.sv(78) @ 1925: uvm_test_top.env.agt.mon [AXI_MONITOR] [WRITE COMPLETE] addr=0x00000018 data=0xffffffff strb=0xf resp=0
UVM_INFO axi_scoreboard.sv(85) @ 1925: uvm_test_top.env.scb [AXI_SCOREBOARD] [WRITE RESP PASS] addr=0x00000018 resp=2'b00
UVM_INFO axi_input_monitor.sv(78) @ 1975: uvm_test_top.env.agt.mon [AXI_MONITOR] [WRITE COMPLETE] addr=0x00000018 data=0x55555555 strb=0xf resp=0
UVM_INFO axi_scoreboard.sv(85) @ 1975: uvm_test_top.env.scb [AXI_SCOREBOARD] [WRITE RESP PASS] addr=0x00000018 resp=2'b00
UVM_INFO axi_input_monitor.sv(78) @ 2025: uvm_test_top.env.agt.mon [AXI_MONITOR] [WRITE COMPLETE] addr=0x00000018 data=0xaaaaaaaa strb=0xf resp=0
UVM_INFO axi_scoreboard.sv(85) @ 2025: uvm_test_top.env.scb [AXI_SCOREBOARD] [WRITE RESP PASS] addr=0x00000018 resp=2'b00
UVM_INFO axi_input_monitor.sv(78) @ 2075: uvm_test_top.env.agt.mon [AXI_MONITOR] [WRITE COMPLETE] addr=0x00000018 data=0x12345678 strb=0xf resp=0
UVM_INFO axi_scoreboard.sv(85) @ 2075: uvm_test_top.env.scb [AXI_SCOREBOARD] [WRITE RESP PASS] addr=0x00000018 resp=2'b00
UVM_INFO axi_input_monitor.sv(78) @ 2125: uvm_test_top.env.agt.mon [AXI_MONITOR] [WRITE COMPLETE] addr=0x00000018 data=0x87654321 strb=0xf resp=0
UVM_INFO axi_scoreboard.sv(85) @ 2125: uvm_test_top.env.scb [AXI_SCOREBOARD] [WRITE RESP PASS] addr=0x00000018 resp=2'b00
UVM_INFO axi_input_monitor.sv(78) @ 2175: uvm_test_top.env.agt.mon [AXI_MONITOR] [WRITE COMPLETE] addr=0x0000001c data=0x00000000 strb=0xf resp=0
UVM_INFO axi_scoreboard.sv(85) @ 2175: uvm_test_top.env.scb [AXI_SCOREBOARD] [WRITE RESP PASS] addr=0x0000001c resp=2'b00
UVM_INFO axi_input_monitor.sv(78) @ 2225: uvm_test_top.env.agt.mon [AXI_MONITOR] [WRITE COMPLETE] addr=0x0000001c data=0xffffffff strb=0xf resp=0
UVM_INFO axi_scoreboard.sv(85) @ 2225: uvm_test_top.env.scb [AXI_SCOREBOARD] [WRITE RESP PASS] addr=0x0000001c resp=2'b00
UVM_INFO axi_input_monitor.sv(78) @ 2275: uvm_test_top.env.agt.mon [AXI_MONITOR] [WRITE COMPLETE] addr=0x0000001c data=0x55555555 strb=0xf resp=0
UVM_INFO axi_scoreboard.sv(85) @ 2275: uvm_test_top.env.scb [AXI_SCOREBOARD] [WRITE RESP PASS] addr=0x0000001c resp=2'b00
UVM_INFO axi_input_monitor.sv(78) @ 2325: uvm_test_top.env.agt.mon [AXI_MONITOR] [WRITE COMPLETE] addr=0x0000001c data=0xaaaaaaaa strb=0xf resp=0
UVM_INFO axi_scoreboard.sv(85) @ 2325: uvm_test_top.env.scb [AXI_SCOREBOARD] [WRITE RESP PASS] addr=0x0000001c resp=2'b00
UVM_INFO axi_input_monitor.sv(78) @ 2375: uvm_test_top.env.agt.mon [AXI_MONITOR] [WRITE COMPLETE] addr=0x0000001c data=0x12345678 strb=0xf resp=0
UVM_INFO axi_scoreboard.sv(85) @ 2375: uvm_test_top.env.scb [AXI_SCOREBOARD] [WRITE RESP PASS] addr=0x0000001c resp=2'b00
UVM_INFO axi_input_monitor.sv(78) @ 2425: uvm_test_top.env.agt.mon [AXI_MONITOR] [WRITE COMPLETE] addr=0x0000001c data=0x87654321 strb=0xf resp=0
UVM_INFO axi_scoreboard.sv(85) @ 2425: uvm_test_top.env.scb [AXI_SCOREBOARD] [WRITE RESP PASS] addr=0x0000001c resp=2'b00
UVM_INFO axi_input_monitor.sv(78) @ 2475: uvm_test_top.env.agt.mon [AXI_MONITOR] [WRITE COMPLETE] addr=0x00000020 data=0x00000000 strb=0xf resp=0
UVM_INFO axi_scoreboard.sv(85) @ 2475: uvm_test_top.env.scb [AXI_SCOREBOARD] [WRITE RESP PASS] addr=0x00000020 resp=2'b00
UVM_INFO axi_input_monitor.sv(78) @ 2525: uvm_test_top.env.agt.mon [AXI_MONITOR] [WRITE COMPLETE] addr=0x00000020 data=0xffffffff strb=0xf resp=0
UVM_INFO axi_scoreboard.sv(85) @ 2525: uvm_test_top.env.scb [AXI_SCOREBOARD] [WRITE RESP PASS] addr=0x00000020 resp=2'b00
UVM_INFO axi_input_monitor.sv(78) @ 2575: uvm_test_top.env.agt.mon [AXI_MONITOR] [WRITE COMPLETE] addr=0x00000020 data=0x55555555 strb=0xf resp=0
UVM_INFO axi_scoreboard.sv(85) @ 2575: uvm_test_top.env.scb [AXI_SCOREBOARD] [WRITE RESP PASS] addr=0x00000020 resp=2'b00
UVM_INFO axi_input_monitor.sv(78) @ 2625: uvm_test_top.env.agt.mon [AXI_MONITOR] [WRITE COMPLETE] addr=0x00000020 data=0xaaaaaaaa strb=0xf resp=0
UVM_INFO axi_scoreboard.sv(85) @ 2625: uvm_test_top.env.scb [AXI_SCOREBOARD] [WRITE RESP PASS] addr=0x00000020 resp=2'b00
UVM_INFO axi_input_monitor.sv(78) @ 2675: uvm_test_top.env.agt.mon [AXI_MONITOR] [WRITE COMPLETE] addr=0x00000020 data=0x12345678 strb=0xf resp=0
UVM_INFO axi_scoreboard.sv(85) @ 2675: uvm_test_top.env.scb [AXI_SCOREBOARD] [WRITE RESP PASS] addr=0x00000020 resp=2'b00
UVM_INFO axi_input_monitor.sv(78) @ 2725: uvm_test_top.env.agt.mon [AXI_MONITOR] [WRITE COMPLETE] addr=0x00000020 data=0x87654321 strb=0xf resp=0
UVM_INFO axi_scoreboard.sv(85) @ 2725: uvm_test_top.env.scb [AXI_SCOREBOARD] [WRITE RESP PASS] addr=0x00000020 resp=2'b00
UVM_INFO axi_input_monitor.sv(78) @ 2775: uvm_test_top.env.agt.mon [AXI_MONITOR] [WRITE COMPLETE] addr=0x00000024 data=0x00000000 strb=0xf resp=0
UVM_INFO axi_scoreboard.sv(85) @ 2775: uvm_test_top.env.scb [AXI_SCOREBOARD] [WRITE RESP PASS] addr=0x00000024 resp=2'b00
UVM_INFO axi_input_monitor.sv(78) @ 2825: uvm_test_top.env.agt.mon [AXI_MONITOR] [WRITE COMPLETE] addr=0x00000024 data=0xffffffff strb=0xf resp=0
UVM_INFO axi_scoreboard.sv(85) @ 2825: uvm_test_top.env.scb [AXI_SCOREBOARD] [WRITE RESP PASS] addr=0x00000024 resp=2'b00
UVM_INFO axi_input_monitor.sv(78) @ 2875: uvm_test_top.env.agt.mon [AXI_MONITOR] [WRITE COMPLETE] addr=0x00000024 data=0x55555555 strb=0xf resp=0
UVM_INFO axi_scoreboard.sv(85) @ 2875: uvm_test_top.env.scb [AXI_SCOREBOARD] [WRITE RESP PASS] addr=0x00000024 resp=2'b00
UVM_INFO axi_input_monitor.sv(78) @ 2925: uvm_test_top.env.agt.mon [AXI_MONITOR] [WRITE COMPLETE] addr=0x00000024 data=0xaaaaaaaa strb=0xf resp=0
UVM_INFO axi_scoreboard.sv(85) @ 2925: uvm_test_top.env.scb [AXI_SCOREBOARD] [WRITE RESP PASS] addr=0x00000024 resp=2'b00
UVM_INFO axi_input_monitor.sv(78) @ 2975: uvm_test_top.env.agt.mon [AXI_MONITOR] [WRITE COMPLETE] addr=0x00000024 data=0x12345678 strb=0xf resp=0
UVM_INFO axi_scoreboard.sv(85) @ 2975: uvm_test_top.env.scb [AXI_SCOREBOARD] [WRITE RESP PASS] addr=0x00000024 resp=2'b00
UVM_INFO axi_input_monitor.sv(78) @ 3025: uvm_test_top.env.agt.mon [AXI_MONITOR] [WRITE COMPLETE] addr=0x00000024 data=0x87654321 strb=0xf resp=0
UVM_INFO axi_scoreboard.sv(85) @ 3025: uvm_test_top.env.scb [AXI_SCOREBOARD] [WRITE RESP PASS] addr=0x00000024 resp=2'b00
UVM_INFO axi_corner_data_seq.sv(41) @ 3035: uvm_test_top.env.agt.wr_sqr@@wr_seq [AXI_CORNER_WR] Corner Data Pattern Write Sequence Complete
UVM_INFO axi_corner_data_seq.sv(55) @ 3035: uvm_test_top.env.agt.rd_sqr@@rd_seq [AXI_CORNER_RD] Starting Corner Data Pattern Read Sequence
UVM_INFO axi_input_monitor.sv(117) @ 3055: uvm_test_top.env.agt.mon [AXI_MONITOR] [READ COMPLETE] addr=0x00000000 data=0x87654321 resp=0
UVM_INFO axi_scoreboard.sv(125) @ 3055: uvm_test_top.env.scb [AXI_SCOREBOARD] [READ DATA PASS] addr=0x00000000 data=0x87654321
UVM_INFO axi_input_monitor.sv(117) @ 3085: uvm_test_top.env.agt.mon [AXI_MONITOR] [READ COMPLETE] addr=0x00000000 data=0x87654321 resp=0
UVM_INFO axi_scoreboard.sv(125) @ 3085: uvm_test_top.env.scb [AXI_SCOREBOARD] [READ DATA PASS] addr=0x00000000 data=0x87654321
UVM_INFO axi_input_monitor.sv(117) @ 3115: uvm_test_top.env.agt.mon [AXI_MONITOR] [READ COMPLETE] addr=0x00000000 data=0x87654321 resp=0
UVM_INFO axi_scoreboard.sv(125) @ 3115: uvm_test_top.env.scb [AXI_SCOREBOARD] [READ DATA PASS] addr=0x00000000 data=0x87654321
UVM_INFO axi_input_monitor.sv(117) @ 3145: uvm_test_top.env.agt.mon [AXI_MONITOR] [READ COMPLETE] addr=0x00000000 data=0x87654321 resp=0
UVM_INFO axi_scoreboard.sv(125) @ 3145: uvm_test_top.env.scb [AXI_SCOREBOARD] [READ DATA PASS] addr=0x00000000 data=0x87654321
UVM_INFO axi_input_monitor.sv(117) @ 3175: uvm_test_top.env.agt.mon [AXI_MONITOR] [READ COMPLETE] addr=0x00000000 data=0x87654321 resp=0
UVM_INFO axi_scoreboard.sv(125) @ 3175: uvm_test_top.env.scb [AXI_SCOREBOARD] [READ DATA PASS] addr=0x00000000 data=0x87654321
UVM_INFO axi_input_monitor.sv(117) @ 3205: uvm_test_top.env.agt.mon [AXI_MONITOR] [READ COMPLETE] addr=0x00000000 data=0x87654321 resp=0
UVM_INFO axi_scoreboard.sv(125) @ 3205: uvm_test_top.env.scb [AXI_SCOREBOARD] [READ DATA PASS] addr=0x00000000 data=0x87654321
UVM_INFO axi_input_monitor.sv(117) @ 3235: uvm_test_top.env.agt.mon [AXI_MONITOR] [READ COMPLETE] addr=0x00000004 data=0x87654321 resp=0
UVM_INFO axi_scoreboard.sv(125) @ 3235: uvm_test_top.env.scb [AXI_SCOREBOARD] [READ DATA PASS] addr=0x00000004 data=0x87654321
UVM_INFO axi_input_monitor.sv(117) @ 3265: uvm_test_top.env.agt.mon [AXI_MONITOR] [READ COMPLETE] addr=0x00000004 data=0x87654321 resp=0
UVM_INFO axi_scoreboard.sv(125) @ 3265: uvm_test_top.env.scb [AXI_SCOREBOARD] [READ DATA PASS] addr=0x00000004 data=0x87654321
UVM_INFO axi_input_monitor.sv(117) @ 3295: uvm_test_top.env.agt.mon [AXI_MONITOR] [READ COMPLETE] addr=0x00000004 data=0x87654321 resp=0
UVM_INFO axi_scoreboard.sv(125) @ 3295: uvm_test_top.env.scb [AXI_SCOREBOARD] [READ DATA PASS] addr=0x00000004 data=0x87654321
UVM_INFO axi_input_monitor.sv(117) @ 3325: uvm_test_top.env.agt.mon [AXI_MONITOR] [READ COMPLETE] addr=0x00000004 data=0x87654321 resp=0
UVM_INFO axi_scoreboard.sv(125) @ 3325: uvm_test_top.env.scb [AXI_SCOREBOARD] [READ DATA PASS] addr=0x00000004 data=0x87654321
UVM_INFO axi_input_monitor.sv(117) @ 3355: uvm_test_top.env.agt.mon [AXI_MONITOR] [READ COMPLETE] addr=0x00000004 data=0x87654321 resp=0
UVM_INFO axi_scoreboard.sv(125) @ 3355: uvm_test_top.env.scb [AXI_SCOREBOARD] [READ DATA PASS] addr=0x00000004 data=0x87654321
UVM_INFO axi_input_monitor.sv(117) @ 3385: uvm_test_top.env.agt.mon [AXI_MONITOR] [READ COMPLETE] addr=0x00000004 data=0x87654321 resp=0
UVM_INFO axi_scoreboard.sv(125) @ 3385: uvm_test_top.env.scb [AXI_SCOREBOARD] [READ DATA PASS] addr=0x00000004 data=0x87654321
UVM_INFO axi_input_monitor.sv(117) @ 3415: uvm_test_top.env.agt.mon [AXI_MONITOR] [READ COMPLETE] addr=0x00000008 data=0x87654321 resp=0
UVM_INFO axi_scoreboard.sv(125) @ 3415: uvm_test_top.env.scb [AXI_SCOREBOARD] [READ DATA PASS] addr=0x00000008 data=0x87654321
UVM_INFO axi_input_monitor.sv(117) @ 3445: uvm_test_top.env.agt.mon [AXI_MONITOR] [READ COMPLETE] addr=0x00000008 data=0x87654321 resp=0
UVM_INFO axi_scoreboard.sv(125) @ 3445: uvm_test_top.env.scb [AXI_SCOREBOARD] [READ DATA PASS] addr=0x00000008 data=0x87654321
UVM_INFO axi_input_monitor.sv(117) @ 3475: uvm_test_top.env.agt.mon [AXI_MONITOR] [READ COMPLETE] addr=0x00000008 data=0x87654321 resp=0
UVM_INFO axi_scoreboard.sv(125) @ 3475: uvm_test_top.env.scb [AXI_SCOREBOARD] [READ DATA PASS] addr=0x00000008 data=0x87654321
UVM_INFO axi_input_monitor.sv(117) @ 3505: uvm_test_top.env.agt.mon [AXI_MONITOR] [READ COMPLETE] addr=0x00000008 data=0x87654321 resp=0
UVM_INFO axi_scoreboard.sv(125) @ 3505: uvm_test_top.env.scb [AXI_SCOREBOARD] [READ DATA PASS] addr=0x00000008 data=0x87654321
UVM_INFO axi_input_monitor.sv(117) @ 3535: uvm_test_top.env.agt.mon [AXI_MONITOR] [READ COMPLETE] addr=0x00000008 data=0x87654321 resp=0
UVM_INFO axi_scoreboard.sv(125) @ 3535: uvm_test_top.env.scb [AXI_SCOREBOARD] [READ DATA PASS] addr=0x00000008 data=0x87654321
UVM_INFO axi_input_monitor.sv(117) @ 3565: uvm_test_top.env.agt.mon [AXI_MONITOR] [READ COMPLETE] addr=0x00000008 data=0x87654321 resp=0
UVM_INFO axi_scoreboard.sv(125) @ 3565: uvm_test_top.env.scb [AXI_SCOREBOARD] [READ DATA PASS] addr=0x00000008 data=0x87654321
UVM_INFO axi_input_monitor.sv(117) @ 3595: uvm_test_top.env.agt.mon [AXI_MONITOR] [READ COMPLETE] addr=0x0000000c data=0x87654321 resp=0
UVM_INFO axi_scoreboard.sv(125) @ 3595: uvm_test_top.env.scb [AXI_SCOREBOARD] [READ DATA PASS] addr=0x0000000c data=0x87654321
UVM_INFO axi_input_monitor.sv(117) @ 3625: uvm_test_top.env.agt.mon [AXI_MONITOR] [READ COMPLETE] addr=0x0000000c data=0x87654321 resp=0
UVM_INFO axi_scoreboard.sv(125) @ 3625: uvm_test_top.env.scb [AXI_SCOREBOARD] [READ DATA PASS] addr=0x0000000c data=0x87654321
UVM_INFO axi_input_monitor.sv(117) @ 3655: uvm_test_top.env.agt.mon [AXI_MONITOR] [READ COMPLETE] addr=0x0000000c data=0x87654321 resp=0
UVM_INFO axi_scoreboard.sv(125) @ 3655: uvm_test_top.env.scb [AXI_SCOREBOARD] [READ DATA PASS] addr=0x0000000c data=0x87654321
UVM_INFO axi_input_monitor.sv(117) @ 3685: uvm_test_top.env.agt.mon [AXI_MONITOR] [READ COMPLETE] addr=0x0000000c data=0x87654321 resp=0
UVM_INFO axi_scoreboard.sv(125) @ 3685: uvm_test_top.env.scb [AXI_SCOREBOARD] [READ DATA PASS] addr=0x0000000c data=0x87654321
UVM_INFO axi_input_monitor.sv(117) @ 3715: uvm_test_top.env.agt.mon [AXI_MONITOR] [READ COMPLETE] addr=0x0000000c data=0x87654321 resp=0
UVM_INFO axi_scoreboard.sv(125) @ 3715: uvm_test_top.env.scb [AXI_SCOREBOARD] [READ DATA PASS] addr=0x0000000c data=0x87654321
UVM_INFO axi_input_monitor.sv(117) @ 3745: uvm_test_top.env.agt.mon [AXI_MONITOR] [READ COMPLETE] addr=0x0000000c data=0x87654321 resp=0
UVM_INFO axi_scoreboard.sv(125) @ 3745: uvm_test_top.env.scb [AXI_SCOREBOARD] [READ DATA PASS] addr=0x0000000c data=0x87654321
UVM_INFO axi_input_monitor.sv(117) @ 3775: uvm_test_top.env.agt.mon [AXI_MONITOR] [READ COMPLETE] addr=0x00000010 data=0x87654321 resp=0
UVM_INFO axi_scoreboard.sv(125) @ 3775: uvm_test_top.env.scb [AXI_SCOREBOARD] [READ DATA PASS] addr=0x00000010 data=0x87654321
UVM_INFO axi_input_monitor.sv(117) @ 3805: uvm_test_top.env.agt.mon [AXI_MONITOR] [READ COMPLETE] addr=0x00000010 data=0x87654321 resp=0
UVM_INFO axi_scoreboard.sv(125) @ 3805: uvm_test_top.env.scb [AXI_SCOREBOARD] [READ DATA PASS] addr=0x00000010 data=0x87654321
UVM_INFO axi_input_monitor.sv(117) @ 3835: uvm_test_top.env.agt.mon [AXI_MONITOR] [READ COMPLETE] addr=0x00000010 data=0x87654321 resp=0
UVM_INFO axi_scoreboard.sv(125) @ 3835: uvm_test_top.env.scb [AXI_SCOREBOARD] [READ DATA PASS] addr=0x00000010 data=0x87654321
UVM_INFO axi_input_monitor.sv(117) @ 3865: uvm_test_top.env.agt.mon [AXI_MONITOR] [READ COMPLETE] addr=0x00000010 data=0x87654321 resp=0
UVM_INFO axi_scoreboard.sv(125) @ 3865: uvm_test_top.env.scb [AXI_SCOREBOARD] [READ DATA PASS] addr=0x00000010 data=0x87654321
UVM_INFO axi_input_monitor.sv(117) @ 3895: uvm_test_top.env.agt.mon [AXI_MONITOR] [READ COMPLETE] addr=0x00000010 data=0x87654321 resp=0
UVM_INFO axi_scoreboard.sv(125) @ 3895: uvm_test_top.env.scb [AXI_SCOREBOARD] [READ DATA PASS] addr=0x00000010 data=0x87654321
UVM_INFO axi_input_monitor.sv(117) @ 3925: uvm_test_top.env.agt.mon [AXI_MONITOR] [READ COMPLETE] addr=0x00000010 data=0x87654321 resp=0
UVM_INFO axi_scoreboard.sv(125) @ 3925: uvm_test_top.env.scb [AXI_SCOREBOARD] [READ DATA PASS] addr=0x00000010 data=0x87654321
UVM_INFO axi_input_monitor.sv(117) @ 3955: uvm_test_top.env.agt.mon [AXI_MONITOR] [READ COMPLETE] addr=0x00000014 data=0x87654321 resp=0
UVM_INFO axi_scoreboard.sv(125) @ 3955: uvm_test_top.env.scb [AXI_SCOREBOARD] [READ DATA PASS] addr=0x00000014 data=0x87654321
UVM_INFO axi_input_monitor.sv(117) @ 3985: uvm_test_top.env.agt.mon [AXI_MONITOR] [READ COMPLETE] addr=0x00000014 data=0x87654321 resp=0
UVM_INFO axi_scoreboard.sv(125) @ 3985: uvm_test_top.env.scb [AXI_SCOREBOARD] [READ DATA PASS] addr=0x00000014 data=0x87654321
UVM_INFO axi_input_monitor.sv(117) @ 4015: uvm_test_top.env.agt.mon [AXI_MONITOR] [READ COMPLETE] addr=0x00000014 data=0x87654321 resp=0
UVM_INFO axi_scoreboard.sv(125) @ 4015: uvm_test_top.env.scb [AXI_SCOREBOARD] [READ DATA PASS] addr=0x00000014 data=0x87654321
UVM_INFO axi_input_monitor.sv(117) @ 4045: uvm_test_top.env.agt.mon [AXI_MONITOR] [READ COMPLETE] addr=0x00000014 data=0x87654321 resp=0
UVM_INFO axi_scoreboard.sv(125) @ 4045: uvm_test_top.env.scb [AXI_SCOREBOARD] [READ DATA PASS] addr=0x00000014 data=0x87654321
UVM_INFO axi_input_monitor.sv(117) @ 4075: uvm_test_top.env.agt.mon [AXI_MONITOR] [READ COMPLETE] addr=0x00000014 data=0x87654321 resp=0
UVM_INFO axi_scoreboard.sv(125) @ 4075: uvm_test_top.env.scb [AXI_SCOREBOARD] [READ DATA PASS] addr=0x00000014 data=0x87654321
UVM_INFO axi_input_monitor.sv(117) @ 4105: uvm_test_top.env.agt.mon [AXI_MONITOR] [READ COMPLETE] addr=0x00000014 data=0x87654321 resp=0
UVM_INFO axi_scoreboard.sv(125) @ 4105: uvm_test_top.env.scb [AXI_SCOREBOARD] [READ DATA PASS] addr=0x00000014 data=0x87654321
UVM_INFO axi_input_monitor.sv(117) @ 4135: uvm_test_top.env.agt.mon [AXI_MONITOR] [READ COMPLETE] addr=0x00000018 data=0x87654321 resp=0
UVM_INFO axi_scoreboard.sv(125) @ 4135: uvm_test_top.env.scb [AXI_SCOREBOARD] [READ DATA PASS] addr=0x00000018 data=0x87654321
UVM_INFO axi_input_monitor.sv(117) @ 4165: uvm_test_top.env.agt.mon [AXI_MONITOR] [READ COMPLETE] addr=0x00000018 data=0x87654321 resp=0
UVM_INFO axi_scoreboard.sv(125) @ 4165: uvm_test_top.env.scb [AXI_SCOREBOARD] [READ DATA PASS] addr=0x00000018 data=0x87654321
UVM_INFO axi_input_monitor.sv(117) @ 4195: uvm_test_top.env.agt.mon [AXI_MONITOR] [READ COMPLETE] addr=0x00000018 data=0x87654321 resp=0
UVM_INFO axi_scoreboard.sv(125) @ 4195: uvm_test_top.env.scb [AXI_SCOREBOARD] [READ DATA PASS] addr=0x00000018 data=0x87654321
UVM_INFO axi_input_monitor.sv(117) @ 4225: uvm_test_top.env.agt.mon [AXI_MONITOR] [READ COMPLETE] addr=0x00000018 data=0x87654321 resp=0
UVM_INFO axi_scoreboard.sv(125) @ 4225: uvm_test_top.env.scb [AXI_SCOREBOARD] [READ DATA PASS] addr=0x00000018 data=0x87654321
UVM_INFO axi_input_monitor.sv(117) @ 4255: uvm_test_top.env.agt.mon [AXI_MONITOR] [READ COMPLETE] addr=0x00000018 data=0x87654321 resp=0
UVM_INFO axi_scoreboard.sv(125) @ 4255: uvm_test_top.env.scb [AXI_SCOREBOARD] [READ DATA PASS] addr=0x00000018 data=0x87654321
UVM_INFO axi_input_monitor.sv(117) @ 4285: uvm_test_top.env.agt.mon [AXI_MONITOR] [READ COMPLETE] addr=0x00000018 data=0x87654321 resp=0
UVM_INFO axi_scoreboard.sv(125) @ 4285: uvm_test_top.env.scb [AXI_SCOREBOARD] [READ DATA PASS] addr=0x00000018 data=0x87654321
UVM_INFO axi_input_monitor.sv(117) @ 4315: uvm_test_top.env.agt.mon [AXI_MONITOR] [READ COMPLETE] addr=0x0000001c data=0x87654321 resp=0
UVM_INFO axi_scoreboard.sv(125) @ 4315: uvm_test_top.env.scb [AXI_SCOREBOARD] [READ DATA PASS] addr=0x0000001c data=0x87654321
UVM_INFO axi_input_monitor.sv(117) @ 4345: uvm_test_top.env.agt.mon [AXI_MONITOR] [READ COMPLETE] addr=0x0000001c data=0x87654321 resp=0
UVM_INFO axi_scoreboard.sv(125) @ 4345: uvm_test_top.env.scb [AXI_SCOREBOARD] [READ DATA PASS] addr=0x0000001c data=0x87654321
UVM_INFO axi_input_monitor.sv(117) @ 4375: uvm_test_top.env.agt.mon [AXI_MONITOR] [READ COMPLETE] addr=0x0000001c data=0x87654321 resp=0
UVM_INFO axi_scoreboard.sv(125) @ 4375: uvm_test_top.env.scb [AXI_SCOREBOARD] [READ DATA PASS] addr=0x0000001c data=0x87654321
UVM_INFO axi_input_monitor.sv(117) @ 4405: uvm_test_top.env.agt.mon [AXI_MONITOR] [READ COMPLETE] addr=0x0000001c data=0x87654321 resp=0
UVM_INFO axi_scoreboard.sv(125) @ 4405: uvm_test_top.env.scb [AXI_SCOREBOARD] [READ DATA PASS] addr=0x0000001c data=0x87654321
UVM_INFO axi_input_monitor.sv(117) @ 4435: uvm_test_top.env.agt.mon [AXI_MONITOR] [READ COMPLETE] addr=0x0000001c data=0x87654321 resp=0
UVM_INFO axi_scoreboard.sv(125) @ 4435: uvm_test_top.env.scb [AXI_SCOREBOARD] [READ DATA PASS] addr=0x0000001c data=0x87654321
UVM_INFO axi_input_monitor.sv(117) @ 4465: uvm_test_top.env.agt.mon [AXI_MONITOR] [READ COMPLETE] addr=0x0000001c data=0x87654321 resp=0
UVM_INFO axi_scoreboard.sv(125) @ 4465: uvm_test_top.env.scb [AXI_SCOREBOARD] [READ DATA PASS] addr=0x0000001c data=0x87654321
UVM_INFO axi_input_monitor.sv(117) @ 4495: uvm_test_top.env.agt.mon [AXI_MONITOR] [READ COMPLETE] addr=0x00000020 data=0x87654321 resp=0
UVM_INFO axi_scoreboard.sv(125) @ 4495: uvm_test_top.env.scb [AXI_SCOREBOARD] [READ DATA PASS] addr=0x00000020 data=0x87654321
UVM_INFO axi_input_monitor.sv(117) @ 4525: uvm_test_top.env.agt.mon [AXI_MONITOR] [READ COMPLETE] addr=0x00000020 data=0x87654321 resp=0
UVM_INFO axi_scoreboard.sv(125) @ 4525: uvm_test_top.env.scb [AXI_SCOREBOARD] [READ DATA PASS] addr=0x00000020 data=0x87654321
UVM_INFO axi_input_monitor.sv(117) @ 4555: uvm_test_top.env.agt.mon [AXI_MONITOR] [READ COMPLETE] addr=0x00000020 data=0x87654321 resp=0
UVM_INFO axi_scoreboard.sv(125) @ 4555: uvm_test_top.env.scb [AXI_SCOREBOARD] [READ DATA PASS] addr=0x00000020 data=0x87654321
UVM_INFO axi_input_monitor.sv(117) @ 4585: uvm_test_top.env.agt.mon [AXI_MONITOR] [READ COMPLETE] addr=0x00000020 data=0x87654321 resp=0
UVM_INFO axi_scoreboard.sv(125) @ 4585: uvm_test_top.env.scb [AXI_SCOREBOARD] [READ DATA PASS] addr=0x00000020 data=0x87654321
UVM_INFO axi_input_monitor.sv(117) @ 4615: uvm_test_top.env.agt.mon [AXI_MONITOR] [READ COMPLETE] addr=0x00000020 data=0x87654321 resp=0
UVM_INFO axi_scoreboard.sv(125) @ 4615: uvm_test_top.env.scb [AXI_SCOREBOARD] [READ DATA PASS] addr=0x00000020 data=0x87654321
UVM_INFO axi_input_monitor.sv(117) @ 4645: uvm_test_top.env.agt.mon [AXI_MONITOR] [READ COMPLETE] addr=0x00000020 data=0x87654321 resp=0
UVM_INFO axi_scoreboard.sv(125) @ 4645: uvm_test_top.env.scb [AXI_SCOREBOARD] [READ DATA PASS] addr=0x00000020 data=0x87654321
UVM_INFO axi_input_monitor.sv(117) @ 4675: uvm_test_top.env.agt.mon [AXI_MONITOR] [READ COMPLETE] addr=0x00000024 data=0x87654321 resp=0
UVM_INFO axi_scoreboard.sv(125) @ 4675: uvm_test_top.env.scb [AXI_SCOREBOARD] [READ DATA PASS] addr=0x00000024 data=0x87654321
UVM_INFO axi_input_monitor.sv(117) @ 4705: uvm_test_top.env.agt.mon [AXI_MONITOR] [READ COMPLETE] addr=0x00000024 data=0x87654321 resp=0
UVM_INFO axi_scoreboard.sv(125) @ 4705: uvm_test_top.env.scb [AXI_SCOREBOARD] [READ DATA PASS] addr=0x00000024 data=0x87654321
UVM_INFO axi_input_monitor.sv(117) @ 4735: uvm_test_top.env.agt.mon [AXI_MONITOR] [READ COMPLETE] addr=0x00000024 data=0x87654321 resp=0
UVM_INFO axi_scoreboard.sv(125) @ 4735: uvm_test_top.env.scb [AXI_SCOREBOARD] [READ DATA PASS] addr=0x00000024 data=0x87654321
UVM_INFO axi_input_monitor.sv(117) @ 4765: uvm_test_top.env.agt.mon [AXI_MONITOR] [READ COMPLETE] addr=0x00000024 data=0x87654321 resp=0
UVM_INFO axi_scoreboard.sv(125) @ 4765: uvm_test_top.env.scb [AXI_SCOREBOARD] [READ DATA PASS] addr=0x00000024 data=0x87654321
UVM_INFO axi_input_monitor.sv(117) @ 4795: uvm_test_top.env.agt.mon [AXI_MONITOR] [READ COMPLETE] addr=0x00000024 data=0x87654321 resp=0
UVM_INFO axi_scoreboard.sv(125) @ 4795: uvm_test_top.env.scb [AXI_SCOREBOARD] [READ DATA PASS] addr=0x00000024 data=0x87654321
UVM_INFO axi_input_monitor.sv(117) @ 4825: uvm_test_top.env.agt.mon [AXI_MONITOR] [READ COMPLETE] addr=0x00000024 data=0x87654321 resp=0
UVM_INFO axi_scoreboard.sv(125) @ 4825: uvm_test_top.env.scb [AXI_SCOREBOARD] [READ DATA PASS] addr=0x00000024 data=0x87654321
UVM_INFO axi_corner_data_seq.sv(72) @ 4835: uvm_test_top.env.agt.rd_sqr@@rd_seq [AXI_CORNER_RD] Corner Data Pattern Read Sequence Complete
UVM_INFO /fetools/synopsys/installed_tools/vcs/vcs/Q-2020.03-SP2-8/etc/uvm/base/uvm_objection.svh(1274) @ 4835: reporter [TEST_DONE] 'run' phase is ready to proceed to the 'extract' phase
UVM_INFO axi_subscriber.sv(117) @ 4835: uvm_test_top.env.cov [AXI_COVERAGE] 
============ COVERAGE SUMMARY ============
  Write Coverage : 39.55%
  Read  Coverage : 33.33%
=============================================
UVM_INFO axi_scoreboard.sv(145) @ 4835: uvm_test_top.env.scb [AXI_SCOREBOARD] 
============ SCOREBOARD SUMMARY ============
  Total Writes  : 59
  Total Reads   : 60
  Total Pass    : 119
  Total Fail    : 0
=============================================
UVM_INFO axi_scoreboard.sv(151) @ 4835: uvm_test_top.env.scb [AXI_SCOREBOARD] ALL CHECKS PASSED
UVM_INFO axi_test.sv(36) @ 4835: uvm_test_top [AXI_TEST] 
*** TEST PASSED ***

--- UVM Report Summary ---

** Report counts by severity
UVM_INFO :  251
UVM_WARNING :    0
UVM_ERROR :    0
UVM_FATAL :    0
** Report counts by id
[AXI_CORNER_RD]     2
[AXI_CORNER_WR]     2
[AXI_COVERAGE]     1
[AXI_MONITOR]   119
[AXI_SCOREBOARD]   121
[AXI_TEST]     1
[RNTST]     1
[TESTBENCH]     2
[TEST_DONE]     1
[UVMTOP]     1
$finish called from file "/fetools/synopsys/installed_tools/vcs/vcs/Q-2020.03-SP2-8/etc/uvm/base/uvm_root.svh", line 437.
$finish at simulation time                 4835

---------------------------------------------------------------------------
VCS Coverage Metrics: during simulation line, cond, FSM, branch, tgl was monitored
---------------------------------------------------------------------------
           V C S   S i m u l a t i o n   R e p o r t 
Time: 4835
CPU Time:      0.700 seconds;       Data structure size:   0.6Mb
Fri Sep 18 01:10:27 2026
