Command: /fetools/work_area/frontend/Batch_11/Kittu_Patel/UVM/Project/AXI/./simv +UVM_TESTNAME=axi_unaligned_test +ntb_random_seed=1 -cm line+cond+fsm+tgl+branch -cm_name axi_unaligned_test_seed_1 -cm_dir simv.vdb -l regression_logs/axi_unaligned_test_seed_1.log
Chronologic VCS simulator copyright 1991-2020
Contains Synopsys proprietary information.
Compiler version Q-2020.03-SP2-8_Full64; Runtime version Q-2020.03-SP2-8_Full64;  Sep 21 14:31 2026
----------------------------------------------------------------
UVM-1.1d.Synopsys
(C) 2007-2013 Mentor Graphics Corporation
(C) 2007-2013 Cadence Design Systems, Inc.
(C) 2006-2013 Synopsys, Inc.
(C) 2011-2013 Cypress Semiconductor Corp.
----------------------------------------------------------------

  ***********       IMPORTANT RELEASE NOTES         ************

  You are using a version of the UVM library that has been compiled
  with `UVM_NO_DEPRECATED undefined.
  See http://www.eda.org/svdb/view.php?id=3313 for more details.

  You are using a version of the UVM library that has been compiled
  with `UVM_OBJECT_MUST_HAVE_CONSTRUCTOR undefined.
  See http://www.eda.org/svdb/view.php?id=3770 for more details.

      (Specify +UVM_NO_RELNOTES to turn off this notice)

UVM_INFO @ 0: reporter [RNTST] Running test axi_unaligned_test...
UVM_INFO @ 0: reporter [UVMTOP] UVM testbench topology:
------------------------------------------------------------------
Name                       Type                        Size  Value
------------------------------------------------------------------
uvm_test_top               axi_unaligned_test          -     @461 
  env                      axi_env                     -     @469 
    agt                    axi_act_agent               -     @477 
      drv                  axi_override_driver         -     @751 
        rd_item_port       uvm_seq_item_pull_port      -     @777 
        rsp_port           uvm_analysis_port           -     @768 
        seq_item_port      uvm_seq_item_pull_port      -     @759 
      inp_mon              axi_input_monitor           -     @786 
        read_ap            uvm_analysis_port           -     @812 
        write_ap           uvm_analysis_port           -     @803 
      out_mon              axi_out_monitor             -     @794 
        read_ap            uvm_analysis_port           -     @831 
        write_ap           uvm_analysis_port           -     @822 
      rd_sqr               axi_sequencer               -     @628 
        rsp_export         uvm_analysis_export         -     @636 
        seq_item_export    uvm_seq_item_pull_imp       -     @742 
        arbitration_queue  array                       0     -    
        lock_queue         array                       0     -    
        num_last_reqs      integral                    32    'd1  
        num_last_rsps      integral                    32    'd1  
      wr_sqr               axi_sequencer               -     @505 
        rsp_export         uvm_analysis_export         -     @513 
        seq_item_export    uvm_seq_item_pull_imp       -     @619 
        arbitration_queue  array                       0     -    
        lock_queue         array                       0     -    
        num_last_reqs      integral                    32    'd1  
        num_last_rsps      integral                    32    'd1  
    cov                    axi_sub                     -     @493 
      rd_inp_fifo          uvm_tlm_analysis_fifo #(T)  -     @957 
        analysis_export    uvm_analysis_imp            -     @1001
        get_ap             uvm_analysis_port           -     @992 
        get_peek_export    uvm_get_peek_imp            -     @974 
        put_ap             uvm_analysis_port           -     @983 
        put_export         uvm_put_imp                 -     @965 
      rd_out_fifo          uvm_tlm_analysis_fifo #(T)  -     @1010
        analysis_export    uvm_analysis_imp            -     @1054
        get_ap             uvm_analysis_port           -     @1045
        get_peek_export    uvm_get_peek_imp            -     @1027
        put_ap             uvm_analysis_port           -     @1036
        put_export         uvm_put_imp                 -     @1018
      wr_inp_fifo          uvm_tlm_analysis_fifo #(T)  -     @851 
        analysis_export    uvm_analysis_imp            -     @895 
        get_ap             uvm_analysis_port           -     @886 
        get_peek_export    uvm_get_peek_imp            -     @868 
        put_ap             uvm_analysis_port           -     @877 
        put_export         uvm_put_imp                 -     @859 
      wr_out_fifo          uvm_tlm_analysis_fifo #(T)  -     @904 
        analysis_export    uvm_analysis_imp            -     @948 
        get_ap             uvm_analysis_port           -     @939 
        get_peek_export    uvm_get_peek_imp            -     @921 
        put_ap             uvm_analysis_port           -     @930 
        put_export         uvm_put_imp                 -     @912 
    scb                    axi_scb                     -     @485 
      rd_inp_fifo          uvm_tlm_analysis_fifo #(T)  -     @1170
        analysis_export    uvm_analysis_imp            -     @1214
        get_ap             uvm_analysis_port           -     @1205
        get_peek_export    uvm_get_peek_imp            -     @1187
        put_ap             uvm_analysis_port           -     @1196
        put_export         uvm_put_imp                 -     @1178
      rd_out_fifo          uvm_tlm_analysis_fifo #(T)  -     @1223
        analysis_export    uvm_analysis_imp            -     @1267
        get_ap             uvm_analysis_port           -     @1258
        get_peek_export    uvm_get_peek_imp            -     @1240
        put_ap             uvm_analysis_port           -     @1249
        put_export         uvm_put_imp                 -     @1231
      wr_inp_fifo          uvm_tlm_analysis_fifo #(T)  -     @1064
        analysis_export    uvm_analysis_imp            -     @1108
        get_ap             uvm_analysis_port           -     @1099
        get_peek_export    uvm_get_peek_imp            -     @1081
        put_ap             uvm_analysis_port           -     @1090
        put_export         uvm_put_imp                 -     @1072
      wr_out_fifo          uvm_tlm_analysis_fifo #(T)  -     @1117
        analysis_export    uvm_analysis_imp            -     @1161
        get_ap             uvm_analysis_port           -     @1152
        get_peek_export    uvm_get_peek_imp            -     @1134
        put_ap             uvm_analysis_port           -     @1143
        put_export         uvm_put_imp                 -     @1125
------------------------------------------------------------------

UVM_INFO src/tb/sequences/axi_unaligned_seq.sv(13) @ 0: uvm_test_top.env.agt.wr_sqr@@wr_seq [AXI_UNALIGNED_WR] Starting Unaligned Address Write Sequence
UVM_INFO src/tb/sequences/axi_unaligned_seq.sv(46) @ 0: uvm_test_top.env.agt.rd_sqr@@rd_seq [AXI_UNALIGNED_RD] Starting Unaligned Address Read Sequence
UVM_INFO src/tb/top/axi_top.sv(24) @ 15: reporter [TESTBENCH] Reset released
UVM_INFO src/tb/agent/axi_input_monitor.sv(102) @ 35: uvm_test_top.env.agt.inp_mon [AXI_INP_MON] [READ INPUT COMPLETE] addr=0x00000001
UVM_INFO src/tb/agent/axi_input_monitor.sv(73) @ 45: uvm_test_top.env.agt.inp_mon [AXI_INP_MON] [WRITE INPUT COMPLETE] addr=0x00000001 data=0xdbe8781b strb=0xf
UVM_INFO src/tb/agent/axi_out_monitor.sv(81) @ 45: uvm_test_top.env.agt.out_mon [AXI_OUT_MON] [READ OUTPUT COMPLETE] data=0x00000000 resp=2
UVM_INFO src/tb/env/axi_scoreboard.sv(185) @ 45: uvm_test_top.env.scb [AXI_SCOREBOARD] [READ ERR PASS] addr=0x00000001 resp=2'b10 data=0x00000000
UVM_INFO src/tb/sequences/axi_unaligned_seq.sv(61) @ 55: uvm_test_top.env.agt.rd_sqr@@rd_seq [AXI_UNALIGNED_RD] READ UNALIGNED addr=0x00000001 (offset=1) resp=2 (expected SLVERR)
UVM_INFO src/tb/agent/axi_input_monitor.sv(102) @ 65: uvm_test_top.env.agt.inp_mon [AXI_INP_MON] [READ INPUT COMPLETE] addr=0x00000002
UVM_INFO src/tb/agent/axi_out_monitor.sv(54) @ 65: uvm_test_top.env.agt.out_mon [AXI_OUT_MON] [WRITE OUTPUT COMPLETE] resp=2
UVM_INFO src/tb/env/axi_scoreboard.sv(126) @ 65: uvm_test_top.env.scb [AXI_SCOREBOARD] [WRITE RESP PASS] addr=0x00000001 resp=2'b10
UVM_INFO src/tb/agent/axi_out_monitor.sv(81) @ 75: uvm_test_top.env.agt.out_mon [AXI_OUT_MON] [READ OUTPUT COMPLETE] data=0x00000000 resp=2
UVM_INFO src/tb/env/axi_scoreboard.sv(185) @ 75: uvm_test_top.env.scb [AXI_SCOREBOARD] [READ ERR PASS] addr=0x00000002 resp=2'b10 data=0x00000000
UVM_INFO src/tb/sequences/axi_unaligned_seq.sv(28) @ 75: uvm_test_top.env.agt.wr_sqr@@wr_seq [AXI_UNALIGNED_WR] WRITE UNALIGNED addr=0x00000001 (offset=1) resp=2 (expected SLVERR)
UVM_INFO src/tb/sequences/axi_unaligned_seq.sv(61) @ 85: uvm_test_top.env.agt.rd_sqr@@rd_seq [AXI_UNALIGNED_RD] READ UNALIGNED addr=0x00000002 (offset=2) resp=2 (expected SLVERR)
UVM_INFO src/tb/agent/axi_input_monitor.sv(73) @ 95: uvm_test_top.env.agt.inp_mon [AXI_INP_MON] [WRITE INPUT COMPLETE] addr=0x00000002 data=0xbd51b39d strb=0xf
UVM_INFO src/tb/agent/axi_input_monitor.sv(102) @ 95: uvm_test_top.env.agt.inp_mon [AXI_INP_MON] [READ INPUT COMPLETE] addr=0x00000003
UVM_INFO src/tb/agent/axi_out_monitor.sv(81) @ 105: uvm_test_top.env.agt.out_mon [AXI_OUT_MON] [READ OUTPUT COMPLETE] data=0x00000000 resp=2
UVM_INFO src/tb/env/axi_scoreboard.sv(185) @ 105: uvm_test_top.env.scb [AXI_SCOREBOARD] [READ ERR PASS] addr=0x00000003 resp=2'b10 data=0x00000000
UVM_INFO src/tb/agent/axi_out_monitor.sv(54) @ 115: uvm_test_top.env.agt.out_mon [AXI_OUT_MON] [WRITE OUTPUT COMPLETE] resp=2
UVM_INFO src/tb/env/axi_scoreboard.sv(126) @ 115: uvm_test_top.env.scb [AXI_SCOREBOARD] [WRITE RESP PASS] addr=0x00000002 resp=2'b10
UVM_INFO src/tb/sequences/axi_unaligned_seq.sv(61) @ 115: uvm_test_top.env.agt.rd_sqr@@rd_seq [AXI_UNALIGNED_RD] READ UNALIGNED addr=0x00000003 (offset=3) resp=2 (expected SLVERR)
UVM_INFO src/tb/agent/axi_input_monitor.sv(102) @ 125: uvm_test_top.env.agt.inp_mon [AXI_INP_MON] [READ INPUT COMPLETE] addr=0x00000005
UVM_INFO src/tb/sequences/axi_unaligned_seq.sv(28) @ 125: uvm_test_top.env.agt.wr_sqr@@wr_seq [AXI_UNALIGNED_WR] WRITE UNALIGNED addr=0x00000002 (offset=2) resp=2 (expected SLVERR)
UVM_INFO src/tb/agent/axi_out_monitor.sv(81) @ 135: uvm_test_top.env.agt.out_mon [AXI_OUT_MON] [READ OUTPUT COMPLETE] data=0x00000000 resp=2
UVM_INFO src/tb/env/axi_scoreboard.sv(185) @ 135: uvm_test_top.env.scb [AXI_SCOREBOARD] [READ ERR PASS] addr=0x00000005 resp=2'b10 data=0x00000000
UVM_INFO src/tb/agent/axi_input_monitor.sv(73) @ 145: uvm_test_top.env.agt.inp_mon [AXI_INP_MON] [WRITE INPUT COMPLETE] addr=0x00000003 data=0x67bd0498 strb=0xf
UVM_INFO src/tb/sequences/axi_unaligned_seq.sv(61) @ 145: uvm_test_top.env.agt.rd_sqr@@rd_seq [AXI_UNALIGNED_RD] READ UNALIGNED addr=0x00000005 (offset=1) resp=2 (expected SLVERR)
UVM_INFO src/tb/agent/axi_input_monitor.sv(102) @ 155: uvm_test_top.env.agt.inp_mon [AXI_INP_MON] [READ INPUT COMPLETE] addr=0x00000006
UVM_INFO src/tb/agent/axi_out_monitor.sv(54) @ 165: uvm_test_top.env.agt.out_mon [AXI_OUT_MON] [WRITE OUTPUT COMPLETE] resp=2
UVM_INFO src/tb/agent/axi_out_monitor.sv(81) @ 165: uvm_test_top.env.agt.out_mon [AXI_OUT_MON] [READ OUTPUT COMPLETE] data=0x00000000 resp=2
UVM_INFO src/tb/env/axi_scoreboard.sv(126) @ 165: uvm_test_top.env.scb [AXI_SCOREBOARD] [WRITE RESP PASS] addr=0x00000003 resp=2'b10
UVM_INFO src/tb/env/axi_scoreboard.sv(185) @ 165: uvm_test_top.env.scb [AXI_SCOREBOARD] [READ ERR PASS] addr=0x00000006 resp=2'b10 data=0x00000000
UVM_INFO src/tb/sequences/axi_unaligned_seq.sv(28) @ 175: uvm_test_top.env.agt.wr_sqr@@wr_seq [AXI_UNALIGNED_WR] WRITE UNALIGNED addr=0x00000003 (offset=3) resp=2 (expected SLVERR)
UVM_INFO src/tb/sequences/axi_unaligned_seq.sv(61) @ 175: uvm_test_top.env.agt.rd_sqr@@rd_seq [AXI_UNALIGNED_RD] READ UNALIGNED addr=0x00000006 (offset=2) resp=2 (expected SLVERR)
UVM_INFO src/tb/agent/axi_input_monitor.sv(102) @ 185: uvm_test_top.env.agt.inp_mon [AXI_INP_MON] [READ INPUT COMPLETE] addr=0x00000007
UVM_INFO src/tb/agent/axi_input_monitor.sv(73) @ 195: uvm_test_top.env.agt.inp_mon [AXI_INP_MON] [WRITE INPUT COMPLETE] addr=0x00000005 data=0x0c438840 strb=0xf
UVM_INFO src/tb/agent/axi_out_monitor.sv(81) @ 195: uvm_test_top.env.agt.out_mon [AXI_OUT_MON] [READ OUTPUT COMPLETE] data=0x00000000 resp=2
UVM_INFO src/tb/env/axi_scoreboard.sv(185) @ 195: uvm_test_top.env.scb [AXI_SCOREBOARD] [READ ERR PASS] addr=0x00000007 resp=2'b10 data=0x00000000
UVM_INFO src/tb/sequences/axi_unaligned_seq.sv(61) @ 205: uvm_test_top.env.agt.rd_sqr@@rd_seq [AXI_UNALIGNED_RD] READ UNALIGNED addr=0x00000007 (offset=3) resp=2 (expected SLVERR)
UVM_INFO src/tb/agent/axi_input_monitor.sv(102) @ 215: uvm_test_top.env.agt.inp_mon [AXI_INP_MON] [READ INPUT COMPLETE] addr=0x00000009
UVM_INFO src/tb/agent/axi_out_monitor.sv(54) @ 215: uvm_test_top.env.agt.out_mon [AXI_OUT_MON] [WRITE OUTPUT COMPLETE] resp=2
UVM_INFO src/tb/env/axi_scoreboard.sv(126) @ 215: uvm_test_top.env.scb [AXI_SCOREBOARD] [WRITE RESP PASS] addr=0x00000005 resp=2'b10
UVM_INFO src/tb/agent/axi_out_monitor.sv(81) @ 225: uvm_test_top.env.agt.out_mon [AXI_OUT_MON] [READ OUTPUT COMPLETE] data=0x00000000 resp=2
UVM_INFO src/tb/env/axi_scoreboard.sv(185) @ 225: uvm_test_top.env.scb [AXI_SCOREBOARD] [READ ERR PASS] addr=0x00000009 resp=2'b10 data=0x00000000
UVM_INFO src/tb/sequences/axi_unaligned_seq.sv(28) @ 225: uvm_test_top.env.agt.wr_sqr@@wr_seq [AXI_UNALIGNED_WR] WRITE UNALIGNED addr=0x00000005 (offset=1) resp=2 (expected SLVERR)
UVM_INFO src/tb/sequences/axi_unaligned_seq.sv(61) @ 235: uvm_test_top.env.agt.rd_sqr@@rd_seq [AXI_UNALIGNED_RD] READ UNALIGNED addr=0x00000009 (offset=1) resp=2 (expected SLVERR)
UVM_INFO src/tb/agent/axi_input_monitor.sv(73) @ 245: uvm_test_top.env.agt.inp_mon [AXI_INP_MON] [WRITE INPUT COMPLETE] addr=0x00000006 data=0xf3523c2c strb=0xf
UVM_INFO src/tb/agent/axi_input_monitor.sv(102) @ 245: uvm_test_top.env.agt.inp_mon [AXI_INP_MON] [READ INPUT COMPLETE] addr=0x0000000a
UVM_INFO src/tb/agent/axi_out_monitor.sv(81) @ 255: uvm_test_top.env.agt.out_mon [AXI_OUT_MON] [READ OUTPUT COMPLETE] data=0x00000000 resp=2
UVM_INFO src/tb/env/axi_scoreboard.sv(185) @ 255: uvm_test_top.env.scb [AXI_SCOREBOARD] [READ ERR PASS] addr=0x0000000a resp=2'b10 data=0x00000000
UVM_INFO src/tb/agent/axi_out_monitor.sv(54) @ 265: uvm_test_top.env.agt.out_mon [AXI_OUT_MON] [WRITE OUTPUT COMPLETE] resp=2
UVM_INFO src/tb/env/axi_scoreboard.sv(126) @ 265: uvm_test_top.env.scb [AXI_SCOREBOARD] [WRITE RESP PASS] addr=0x00000006 resp=2'b10
UVM_INFO src/tb/sequences/axi_unaligned_seq.sv(61) @ 265: uvm_test_top.env.agt.rd_sqr@@rd_seq [AXI_UNALIGNED_RD] READ UNALIGNED addr=0x0000000a (offset=2) resp=2 (expected SLVERR)
UVM_INFO src/tb/agent/axi_input_monitor.sv(102) @ 275: uvm_test_top.env.agt.inp_mon [AXI_INP_MON] [READ INPUT COMPLETE] addr=0x0000000b
UVM_INFO src/tb/sequences/axi_unaligned_seq.sv(28) @ 275: uvm_test_top.env.agt.wr_sqr@@wr_seq [AXI_UNALIGNED_WR] WRITE UNALIGNED addr=0x00000006 (offset=2) resp=2 (expected SLVERR)
UVM_INFO src/tb/agent/axi_out_monitor.sv(81) @ 285: uvm_test_top.env.agt.out_mon [AXI_OUT_MON] [READ OUTPUT COMPLETE] data=0x00000000 resp=2
UVM_INFO src/tb/env/axi_scoreboard.sv(185) @ 285: uvm_test_top.env.scb [AXI_SCOREBOARD] [READ ERR PASS] addr=0x0000000b resp=2'b10 data=0x00000000
UVM_INFO src/tb/agent/axi_input_monitor.sv(73) @ 295: uvm_test_top.env.agt.inp_mon [AXI_INP_MON] [WRITE INPUT COMPLETE] addr=0x00000007 data=0x8675502a strb=0xf
UVM_INFO src/tb/sequences/axi_unaligned_seq.sv(61) @ 295: uvm_test_top.env.agt.rd_sqr@@rd_seq [AXI_UNALIGNED_RD] READ UNALIGNED addr=0x0000000b (offset=3) resp=2 (expected SLVERR)
UVM_INFO src/tb/agent/axi_input_monitor.sv(102) @ 305: uvm_test_top.env.agt.inp_mon [AXI_INP_MON] [READ INPUT COMPLETE] addr=0x0000000d
UVM_INFO src/tb/agent/axi_out_monitor.sv(54) @ 315: uvm_test_top.env.agt.out_mon [AXI_OUT_MON] [WRITE OUTPUT COMPLETE] resp=2
UVM_INFO src/tb/agent/axi_out_monitor.sv(81) @ 315: uvm_test_top.env.agt.out_mon [AXI_OUT_MON] [READ OUTPUT COMPLETE] data=0x00000000 resp=2
UVM_INFO src/tb/env/axi_scoreboard.sv(126) @ 315: uvm_test_top.env.scb [AXI_SCOREBOARD] [WRITE RESP PASS] addr=0x00000007 resp=2'b10
UVM_INFO src/tb/env/axi_scoreboard.sv(185) @ 315: uvm_test_top.env.scb [AXI_SCOREBOARD] [READ ERR PASS] addr=0x0000000d resp=2'b10 data=0x00000000
UVM_INFO src/tb/sequences/axi_unaligned_seq.sv(28) @ 325: uvm_test_top.env.agt.wr_sqr@@wr_seq [AXI_UNALIGNED_WR] WRITE UNALIGNED addr=0x00000007 (offset=3) resp=2 (expected SLVERR)
UVM_INFO src/tb/sequences/axi_unaligned_seq.sv(61) @ 325: uvm_test_top.env.agt.rd_sqr@@rd_seq [AXI_UNALIGNED_RD] READ UNALIGNED addr=0x0000000d (offset=1) resp=2 (expected SLVERR)
UVM_INFO src/tb/agent/axi_input_monitor.sv(102) @ 335: uvm_test_top.env.agt.inp_mon [AXI_INP_MON] [READ INPUT COMPLETE] addr=0x0000000e
UVM_INFO src/tb/agent/axi_input_monitor.sv(73) @ 345: uvm_test_top.env.agt.inp_mon [AXI_INP_MON] [WRITE INPUT COMPLETE] addr=0x00000009 data=0xa7e5371b strb=0xf
UVM_INFO src/tb/agent/axi_out_monitor.sv(81) @ 345: uvm_test_top.env.agt.out_mon [AXI_OUT_MON] [READ OUTPUT COMPLETE] data=0x00000000 resp=2
UVM_INFO src/tb/env/axi_scoreboard.sv(185) @ 345: uvm_test_top.env.scb [AXI_SCOREBOARD] [READ ERR PASS] addr=0x0000000e resp=2'b10 data=0x00000000
UVM_INFO src/tb/sequences/axi_unaligned_seq.sv(61) @ 355: uvm_test_top.env.agt.rd_sqr@@rd_seq [AXI_UNALIGNED_RD] READ UNALIGNED addr=0x0000000e (offset=2) resp=2 (expected SLVERR)
UVM_INFO src/tb/agent/axi_input_monitor.sv(102) @ 365: uvm_test_top.env.agt.inp_mon [AXI_INP_MON] [READ INPUT COMPLETE] addr=0x0000000f
UVM_INFO src/tb/agent/axi_out_monitor.sv(54) @ 365: uvm_test_top.env.agt.out_mon [AXI_OUT_MON] [WRITE OUTPUT COMPLETE] resp=2
UVM_INFO src/tb/env/axi_scoreboard.sv(126) @ 365: uvm_test_top.env.scb [AXI_SCOREBOARD] [WRITE RESP PASS] addr=0x00000009 resp=2'b10
UVM_INFO src/tb/agent/axi_out_monitor.sv(81) @ 375: uvm_test_top.env.agt.out_mon [AXI_OUT_MON] [READ OUTPUT COMPLETE] data=0x00000000 resp=2
UVM_INFO src/tb/env/axi_scoreboard.sv(185) @ 375: uvm_test_top.env.scb [AXI_SCOREBOARD] [READ ERR PASS] addr=0x0000000f resp=2'b10 data=0x00000000
UVM_INFO src/tb/sequences/axi_unaligned_seq.sv(28) @ 375: uvm_test_top.env.agt.wr_sqr@@wr_seq [AXI_UNALIGNED_WR] WRITE UNALIGNED addr=0x00000009 (offset=1) resp=2 (expected SLVERR)
UVM_INFO src/tb/sequences/axi_unaligned_seq.sv(61) @ 385: uvm_test_top.env.agt.rd_sqr@@rd_seq [AXI_UNALIGNED_RD] READ UNALIGNED addr=0x0000000f (offset=3) resp=2 (expected SLVERR)
UVM_INFO src/tb/agent/axi_input_monitor.sv(73) @ 395: uvm_test_top.env.agt.inp_mon [AXI_INP_MON] [WRITE INPUT COMPLETE] addr=0x0000000a data=0xe56dae92 strb=0xf
UVM_INFO src/tb/agent/axi_input_monitor.sv(102) @ 395: uvm_test_top.env.agt.inp_mon [AXI_INP_MON] [READ INPUT COMPLETE] addr=0x00000011
UVM_INFO src/tb/agent/axi_out_monitor.sv(81) @ 405: uvm_test_top.env.agt.out_mon [AXI_OUT_MON] [READ OUTPUT COMPLETE] data=0x00000000 resp=2
UVM_INFO src/tb/env/axi_scoreboard.sv(185) @ 405: uvm_test_top.env.scb [AXI_SCOREBOARD] [READ ERR PASS] addr=0x00000011 resp=2'b10 data=0x00000000
UVM_INFO src/tb/agent/axi_out_monitor.sv(54) @ 415: uvm_test_top.env.agt.out_mon [AXI_OUT_MON] [WRITE OUTPUT COMPLETE] resp=2
UVM_INFO src/tb/env/axi_scoreboard.sv(126) @ 415: uvm_test_top.env.scb [AXI_SCOREBOARD] [WRITE RESP PASS] addr=0x0000000a resp=2'b10
UVM_INFO src/tb/sequences/axi_unaligned_seq.sv(61) @ 415: uvm_test_top.env.agt.rd_sqr@@rd_seq [AXI_UNALIGNED_RD] READ UNALIGNED addr=0x00000011 (offset=1) resp=2 (expected SLVERR)
UVM_INFO src/tb/agent/axi_input_monitor.sv(102) @ 425: uvm_test_top.env.agt.inp_mon [AXI_INP_MON] [READ INPUT COMPLETE] addr=0x00000012
UVM_INFO src/tb/sequences/axi_unaligned_seq.sv(28) @ 425: uvm_test_top.env.agt.wr_sqr@@wr_seq [AXI_UNALIGNED_WR] WRITE UNALIGNED addr=0x0000000a (offset=2) resp=2 (expected SLVERR)
UVM_INFO src/tb/agent/axi_out_monitor.sv(81) @ 435: uvm_test_top.env.agt.out_mon [AXI_OUT_MON] [READ OUTPUT COMPLETE] data=0x00000000 resp=2
UVM_INFO src/tb/env/axi_scoreboard.sv(185) @ 435: uvm_test_top.env.scb [AXI_SCOREBOARD] [READ ERR PASS] addr=0x00000012 resp=2'b10 data=0x00000000
UVM_INFO src/tb/agent/axi_input_monitor.sv(73) @ 445: uvm_test_top.env.agt.inp_mon [AXI_INP_MON] [WRITE INPUT COMPLETE] addr=0x0000000b data=0xd6d7fef0 strb=0xf
UVM_INFO src/tb/sequences/axi_unaligned_seq.sv(61) @ 445: uvm_test_top.env.agt.rd_sqr@@rd_seq [AXI_UNALIGNED_RD] READ UNALIGNED addr=0x00000012 (offset=2) resp=2 (expected SLVERR)
UVM_INFO src/tb/agent/axi_input_monitor.sv(102) @ 455: uvm_test_top.env.agt.inp_mon [AXI_INP_MON] [READ INPUT COMPLETE] addr=0x00000013
UVM_INFO src/tb/agent/axi_out_monitor.sv(54) @ 465: uvm_test_top.env.agt.out_mon [AXI_OUT_MON] [WRITE OUTPUT COMPLETE] resp=2
UVM_INFO src/tb/agent/axi_out_monitor.sv(81) @ 465: uvm_test_top.env.agt.out_mon [AXI_OUT_MON] [READ OUTPUT COMPLETE] data=0x00000000 resp=2
UVM_INFO src/tb/env/axi_scoreboard.sv(126) @ 465: uvm_test_top.env.scb [AXI_SCOREBOARD] [WRITE RESP PASS] addr=0x0000000b resp=2'b10
UVM_INFO src/tb/env/axi_scoreboard.sv(185) @ 465: uvm_test_top.env.scb [AXI_SCOREBOARD] [READ ERR PASS] addr=0x00000013 resp=2'b10 data=0x00000000
UVM_INFO src/tb/sequences/axi_unaligned_seq.sv(28) @ 475: uvm_test_top.env.agt.wr_sqr@@wr_seq [AXI_UNALIGNED_WR] WRITE UNALIGNED addr=0x0000000b (offset=3) resp=2 (expected SLVERR)
UVM_INFO src/tb/sequences/axi_unaligned_seq.sv(61) @ 475: uvm_test_top.env.agt.rd_sqr@@rd_seq [AXI_UNALIGNED_RD] READ UNALIGNED addr=0x00000013 (offset=3) resp=2 (expected SLVERR)
UVM_INFO src/tb/agent/axi_input_monitor.sv(102) @ 485: uvm_test_top.env.agt.inp_mon [AXI_INP_MON] [READ INPUT COMPLETE] addr=0x00000015
UVM_INFO src/tb/agent/axi_input_monitor.sv(73) @ 495: uvm_test_top.env.agt.inp_mon [AXI_INP_MON] [WRITE INPUT COMPLETE] addr=0x0000000d data=0xff690b14 strb=0xf
UVM_INFO src/tb/agent/axi_out_monitor.sv(81) @ 495: uvm_test_top.env.agt.out_mon [AXI_OUT_MON] [READ OUTPUT COMPLETE] data=0x00000000 resp=2
UVM_INFO src/tb/env/axi_scoreboard.sv(185) @ 495: uvm_test_top.env.scb [AXI_SCOREBOARD] [READ ERR PASS] addr=0x00000015 resp=2'b10 data=0x00000000
UVM_INFO src/tb/sequences/axi_unaligned_seq.sv(61) @ 505: uvm_test_top.env.agt.rd_sqr@@rd_seq [AXI_UNALIGNED_RD] READ UNALIGNED addr=0x00000015 (offset=1) resp=2 (expected SLVERR)
UVM_INFO src/tb/agent/axi_input_monitor.sv(102) @ 515: uvm_test_top.env.agt.inp_mon [AXI_INP_MON] [READ INPUT COMPLETE] addr=0x00000016
UVM_INFO src/tb/agent/axi_out_monitor.sv(54) @ 515: uvm_test_top.env.agt.out_mon [AXI_OUT_MON] [WRITE OUTPUT COMPLETE] resp=2
UVM_INFO src/tb/env/axi_scoreboard.sv(126) @ 515: uvm_test_top.env.scb [AXI_SCOREBOARD] [WRITE RESP PASS] addr=0x0000000d resp=2'b10
UVM_INFO src/tb/agent/axi_out_monitor.sv(81) @ 525: uvm_test_top.env.agt.out_mon [AXI_OUT_MON] [READ OUTPUT COMPLETE] data=0x00000000 resp=2
UVM_INFO src/tb/env/axi_scoreboard.sv(185) @ 525: uvm_test_top.env.scb [AXI_SCOREBOARD] [READ ERR PASS] addr=0x00000016 resp=2'b10 data=0x00000000
UVM_INFO src/tb/sequences/axi_unaligned_seq.sv(28) @ 525: uvm_test_top.env.agt.wr_sqr@@wr_seq [AXI_UNALIGNED_WR] WRITE UNALIGNED addr=0x0000000d (offset=1) resp=2 (expected SLVERR)
UVM_INFO src/tb/sequences/axi_unaligned_seq.sv(61) @ 535: uvm_test_top.env.agt.rd_sqr@@rd_seq [AXI_UNALIGNED_RD] READ UNALIGNED addr=0x00000016 (offset=2) resp=2 (expected SLVERR)
UVM_INFO src/tb/agent/axi_input_monitor.sv(73) @ 545: uvm_test_top.env.agt.inp_mon [AXI_INP_MON] [WRITE INPUT COMPLETE] addr=0x0000000e data=0xbbde4016 strb=0xf
UVM_INFO src/tb/agent/axi_input_monitor.sv(102) @ 545: uvm_test_top.env.agt.inp_mon [AXI_INP_MON] [READ INPUT COMPLETE] addr=0x00000017
UVM_INFO src/tb/agent/axi_out_monitor.sv(81) @ 555: uvm_test_top.env.agt.out_mon [AXI_OUT_MON] [READ OUTPUT COMPLETE] data=0x00000000 resp=2
UVM_INFO src/tb/env/axi_scoreboard.sv(185) @ 555: uvm_test_top.env.scb [AXI_SCOREBOARD] [READ ERR PASS] addr=0x00000017 resp=2'b10 data=0x00000000
UVM_INFO src/tb/agent/axi_out_monitor.sv(54) @ 565: uvm_test_top.env.agt.out_mon [AXI_OUT_MON] [WRITE OUTPUT COMPLETE] resp=2
UVM_INFO src/tb/env/axi_scoreboard.sv(126) @ 565: uvm_test_top.env.scb [AXI_SCOREBOARD] [WRITE RESP PASS] addr=0x0000000e resp=2'b10
UVM_INFO src/tb/sequences/axi_unaligned_seq.sv(61) @ 565: uvm_test_top.env.agt.rd_sqr@@rd_seq [AXI_UNALIGNED_RD] READ UNALIGNED addr=0x00000017 (offset=3) resp=2 (expected SLVERR)
UVM_INFO src/tb/agent/axi_input_monitor.sv(102) @ 575: uvm_test_top.env.agt.inp_mon [AXI_INP_MON] [READ INPUT COMPLETE] addr=0x00000019
UVM_INFO src/tb/sequences/axi_unaligned_seq.sv(28) @ 575: uvm_test_top.env.agt.wr_sqr@@wr_seq [AXI_UNALIGNED_WR] WRITE UNALIGNED addr=0x0000000e (offset=2) resp=2 (expected SLVERR)
UVM_INFO src/tb/agent/axi_out_monitor.sv(81) @ 585: uvm_test_top.env.agt.out_mon [AXI_OUT_MON] [READ OUTPUT COMPLETE] data=0x00000000 resp=2
UVM_INFO src/tb/env/axi_scoreboard.sv(185) @ 585: uvm_test_top.env.scb [AXI_SCOREBOARD] [READ ERR PASS] addr=0x00000019 resp=2'b10 data=0x00000000
UVM_INFO src/tb/agent/axi_input_monitor.sv(73) @ 595: uvm_test_top.env.agt.inp_mon [AXI_INP_MON] [WRITE INPUT COMPLETE] addr=0x0000000f data=0x05778edd strb=0xf
UVM_INFO src/tb/sequences/axi_unaligned_seq.sv(61) @ 595: uvm_test_top.env.agt.rd_sqr@@rd_seq [AXI_UNALIGNED_RD] READ UNALIGNED addr=0x00000019 (offset=1) resp=2 (expected SLVERR)
UVM_INFO src/tb/agent/axi_input_monitor.sv(102) @ 605: uvm_test_top.env.agt.inp_mon [AXI_INP_MON] [READ INPUT COMPLETE] addr=0x0000001a
UVM_INFO src/tb/agent/axi_out_monitor.sv(54) @ 615: uvm_test_top.env.agt.out_mon [AXI_OUT_MON] [WRITE OUTPUT COMPLETE] resp=2
UVM_INFO src/tb/agent/axi_out_monitor.sv(81) @ 615: uvm_test_top.env.agt.out_mon [AXI_OUT_MON] [READ OUTPUT COMPLETE] data=0x00000000 resp=2
UVM_INFO src/tb/env/axi_scoreboard.sv(126) @ 615: uvm_test_top.env.scb [AXI_SCOREBOARD] [WRITE RESP PASS] addr=0x0000000f resp=2'b10
UVM_INFO src/tb/env/axi_scoreboard.sv(185) @ 615: uvm_test_top.env.scb [AXI_SCOREBOARD] [READ ERR PASS] addr=0x0000001a resp=2'b10 data=0x00000000
UVM_INFO src/tb/sequences/axi_unaligned_seq.sv(28) @ 625: uvm_test_top.env.agt.wr_sqr@@wr_seq [AXI_UNALIGNED_WR] WRITE UNALIGNED addr=0x0000000f (offset=3) resp=2 (expected SLVERR)
UVM_INFO src/tb/sequences/axi_unaligned_seq.sv(61) @ 625: uvm_test_top.env.agt.rd_sqr@@rd_seq [AXI_UNALIGNED_RD] READ UNALIGNED addr=0x0000001a (offset=2) resp=2 (expected SLVERR)
UVM_INFO src/tb/agent/axi_input_monitor.sv(102) @ 635: uvm_test_top.env.agt.inp_mon [AXI_INP_MON] [READ INPUT COMPLETE] addr=0x0000001b
UVM_INFO src/tb/agent/axi_input_monitor.sv(73) @ 645: uvm_test_top.env.agt.inp_mon [AXI_INP_MON] [WRITE INPUT COMPLETE] addr=0x00000011 data=0xd57d25c6 strb=0xf
UVM_INFO src/tb/agent/axi_out_monitor.sv(81) @ 645: uvm_test_top.env.agt.out_mon [AXI_OUT_MON] [READ OUTPUT COMPLETE] data=0x00000000 resp=2
UVM_INFO src/tb/env/axi_scoreboard.sv(185) @ 645: uvm_test_top.env.scb [AXI_SCOREBOARD] [READ ERR PASS] addr=0x0000001b resp=2'b10 data=0x00000000
UVM_INFO src/tb/sequences/axi_unaligned_seq.sv(61) @ 655: uvm_test_top.env.agt.rd_sqr@@rd_seq [AXI_UNALIGNED_RD] READ UNALIGNED addr=0x0000001b (offset=3) resp=2 (expected SLVERR)
UVM_INFO src/tb/agent/axi_input_monitor.sv(102) @ 665: uvm_test_top.env.agt.inp_mon [AXI_INP_MON] [READ INPUT COMPLETE] addr=0x0000001d
UVM_INFO src/tb/agent/axi_out_monitor.sv(54) @ 665: uvm_test_top.env.agt.out_mon [AXI_OUT_MON] [WRITE OUTPUT COMPLETE] resp=2
UVM_INFO src/tb/env/axi_scoreboard.sv(126) @ 665: uvm_test_top.env.scb [AXI_SCOREBOARD] [WRITE RESP PASS] addr=0x00000011 resp=2'b10
UVM_INFO src/tb/agent/axi_out_monitor.sv(81) @ 675: uvm_test_top.env.agt.out_mon [AXI_OUT_MON] [READ OUTPUT COMPLETE] data=0x00000000 resp=2
UVM_INFO src/tb/env/axi_scoreboard.sv(185) @ 675: uvm_test_top.env.scb [AXI_SCOREBOARD] [READ ERR PASS] addr=0x0000001d resp=2'b10 data=0x00000000
UVM_INFO src/tb/sequences/axi_unaligned_seq.sv(28) @ 675: uvm_test_top.env.agt.wr_sqr@@wr_seq [AXI_UNALIGNED_WR] WRITE UNALIGNED addr=0x00000011 (offset=1) resp=2 (expected SLVERR)
UVM_INFO src/tb/sequences/axi_unaligned_seq.sv(61) @ 685: uvm_test_top.env.agt.rd_sqr@@rd_seq [AXI_UNALIGNED_RD] READ UNALIGNED addr=0x0000001d (offset=1) resp=2 (expected SLVERR)
UVM_INFO src/tb/agent/axi_input_monitor.sv(73) @ 695: uvm_test_top.env.agt.inp_mon [AXI_INP_MON] [WRITE INPUT COMPLETE] addr=0x00000012 data=0x3c34ac73 strb=0xf
UVM_INFO src/tb/agent/axi_input_monitor.sv(102) @ 695: uvm_test_top.env.agt.inp_mon [AXI_INP_MON] [READ INPUT COMPLETE] addr=0x0000001e
UVM_INFO src/tb/agent/axi_out_monitor.sv(81) @ 705: uvm_test_top.env.agt.out_mon [AXI_OUT_MON] [READ OUTPUT COMPLETE] data=0x00000000 resp=2
UVM_INFO src/tb/env/axi_scoreboard.sv(185) @ 705: uvm_test_top.env.scb [AXI_SCOREBOARD] [READ ERR PASS] addr=0x0000001e resp=2'b10 data=0x00000000
UVM_INFO src/tb/agent/axi_out_monitor.sv(54) @ 715: uvm_test_top.env.agt.out_mon [AXI_OUT_MON] [WRITE OUTPUT COMPLETE] resp=2
UVM_INFO src/tb/env/axi_scoreboard.sv(126) @ 715: uvm_test_top.env.scb [AXI_SCOREBOARD] [WRITE RESP PASS] addr=0x00000012 resp=2'b10
UVM_INFO src/tb/sequences/axi_unaligned_seq.sv(61) @ 715: uvm_test_top.env.agt.rd_sqr@@rd_seq [AXI_UNALIGNED_RD] READ UNALIGNED addr=0x0000001e (offset=2) resp=2 (expected SLVERR)
UVM_INFO src/tb/agent/axi_input_monitor.sv(102) @ 725: uvm_test_top.env.agt.inp_mon [AXI_INP_MON] [READ INPUT COMPLETE] addr=0x0000001f
UVM_INFO src/tb/sequences/axi_unaligned_seq.sv(28) @ 725: uvm_test_top.env.agt.wr_sqr@@wr_seq [AXI_UNALIGNED_WR] WRITE UNALIGNED addr=0x00000012 (offset=2) resp=2 (expected SLVERR)
UVM_INFO src/tb/agent/axi_out_monitor.sv(81) @ 735: uvm_test_top.env.agt.out_mon [AXI_OUT_MON] [READ OUTPUT COMPLETE] data=0x00000000 resp=2
UVM_INFO src/tb/env/axi_scoreboard.sv(185) @ 735: uvm_test_top.env.scb [AXI_SCOREBOARD] [READ ERR PASS] addr=0x0000001f resp=2'b10 data=0x00000000
UVM_INFO src/tb/agent/axi_input_monitor.sv(73) @ 745: uvm_test_top.env.agt.inp_mon [AXI_INP_MON] [WRITE INPUT COMPLETE] addr=0x00000013 data=0xe19faae4 strb=0xf
UVM_INFO src/tb/sequences/axi_unaligned_seq.sv(61) @ 745: uvm_test_top.env.agt.rd_sqr@@rd_seq [AXI_UNALIGNED_RD] READ UNALIGNED addr=0x0000001f (offset=3) resp=2 (expected SLVERR)
UVM_INFO src/tb/sequences/axi_unaligned_seq.sv(66) @ 745: uvm_test_top.env.agt.rd_sqr@@rd_seq [AXI_UNALIGNED_RD] Unaligned Address Read Sequence Complete
UVM_INFO src/tb/agent/axi_out_monitor.sv(54) @ 765: uvm_test_top.env.agt.out_mon [AXI_OUT_MON] [WRITE OUTPUT COMPLETE] resp=2
UVM_INFO src/tb/env/axi_scoreboard.sv(126) @ 765: uvm_test_top.env.scb [AXI_SCOREBOARD] [WRITE RESP PASS] addr=0x00000013 resp=2'b10
UVM_INFO src/tb/sequences/axi_unaligned_seq.sv(28) @ 775: uvm_test_top.env.agt.wr_sqr@@wr_seq [AXI_UNALIGNED_WR] WRITE UNALIGNED addr=0x00000013 (offset=3) resp=2 (expected SLVERR)
UVM_INFO src/tb/agent/axi_input_monitor.sv(73) @ 795: uvm_test_top.env.agt.inp_mon [AXI_INP_MON] [WRITE INPUT COMPLETE] addr=0x00000015 data=0xa7446066 strb=0xf
UVM_INFO src/tb/agent/axi_out_monitor.sv(54) @ 815: uvm_test_top.env.agt.out_mon [AXI_OUT_MON] [WRITE OUTPUT COMPLETE] resp=2
UVM_INFO src/tb/env/axi_scoreboard.sv(126) @ 815: uvm_test_top.env.scb [AXI_SCOREBOARD] [WRITE RESP PASS] addr=0x00000015 resp=2'b10
UVM_INFO src/tb/sequences/axi_unaligned_seq.sv(28) @ 825: uvm_test_top.env.agt.wr_sqr@@wr_seq [AXI_UNALIGNED_WR] WRITE UNALIGNED addr=0x00000015 (offset=1) resp=2 (expected SLVERR)
UVM_INFO src/tb/agent/axi_input_monitor.sv(73) @ 845: uvm_test_top.env.agt.inp_mon [AXI_INP_MON] [WRITE INPUT COMPLETE] addr=0x00000016 data=0x9dc9f79d strb=0xf
UVM_INFO src/tb/agent/axi_out_monitor.sv(54) @ 865: uvm_test_top.env.agt.out_mon [AXI_OUT_MON] [WRITE OUTPUT COMPLETE] resp=2
UVM_INFO src/tb/env/axi_scoreboard.sv(126) @ 865: uvm_test_top.env.scb [AXI_SCOREBOARD] [WRITE RESP PASS] addr=0x00000016 resp=2'b10
UVM_INFO src/tb/sequences/axi_unaligned_seq.sv(28) @ 875: uvm_test_top.env.agt.wr_sqr@@wr_seq [AXI_UNALIGNED_WR] WRITE UNALIGNED addr=0x00000016 (offset=2) resp=2 (expected SLVERR)
UVM_INFO src/tb/agent/axi_input_monitor.sv(73) @ 895: uvm_test_top.env.agt.inp_mon [AXI_INP_MON] [WRITE INPUT COMPLETE] addr=0x00000017 data=0xfc41f546 strb=0xf
UVM_INFO src/tb/agent/axi_out_monitor.sv(54) @ 915: uvm_test_top.env.agt.out_mon [AXI_OUT_MON] [WRITE OUTPUT COMPLETE] resp=2
UVM_INFO src/tb/env/axi_scoreboard.sv(126) @ 915: uvm_test_top.env.scb [AXI_SCOREBOARD] [WRITE RESP PASS] addr=0x00000017 resp=2'b10
UVM_INFO src/tb/sequences/axi_unaligned_seq.sv(28) @ 925: uvm_test_top.env.agt.wr_sqr@@wr_seq [AXI_UNALIGNED_WR] WRITE UNALIGNED addr=0x00000017 (offset=3) resp=2 (expected SLVERR)
UVM_INFO src/tb/agent/axi_input_monitor.sv(73) @ 945: uvm_test_top.env.agt.inp_mon [AXI_INP_MON] [WRITE INPUT COMPLETE] addr=0x00000019 data=0x12e5fa91 strb=0xf
UVM_INFO src/tb/agent/axi_out_monitor.sv(54) @ 965: uvm_test_top.env.agt.out_mon [AXI_OUT_MON] [WRITE OUTPUT COMPLETE] resp=2
UVM_INFO src/tb/env/axi_scoreboard.sv(126) @ 965: uvm_test_top.env.scb [AXI_SCOREBOARD] [WRITE RESP PASS] addr=0x00000019 resp=2'b10
UVM_INFO src/tb/sequences/axi_unaligned_seq.sv(28) @ 975: uvm_test_top.env.agt.wr_sqr@@wr_seq [AXI_UNALIGNED_WR] WRITE UNALIGNED addr=0x00000019 (offset=1) resp=2 (expected SLVERR)
UVM_INFO src/tb/agent/axi_input_monitor.sv(73) @ 995: uvm_test_top.env.agt.inp_mon [AXI_INP_MON] [WRITE INPUT COMPLETE] addr=0x0000001a data=0x297bbcce strb=0xf
UVM_INFO src/tb/agent/axi_out_monitor.sv(54) @ 1015: uvm_test_top.env.agt.out_mon [AXI_OUT_MON] [WRITE OUTPUT COMPLETE] resp=2
UVM_INFO src/tb/env/axi_scoreboard.sv(126) @ 1015: uvm_test_top.env.scb [AXI_SCOREBOARD] [WRITE RESP PASS] addr=0x0000001a resp=2'b10
UVM_INFO src/tb/sequences/axi_unaligned_seq.sv(28) @ 1025: uvm_test_top.env.agt.wr_sqr@@wr_seq [AXI_UNALIGNED_WR] WRITE UNALIGNED addr=0x0000001a (offset=2) resp=2 (expected SLVERR)
UVM_INFO src/tb/agent/axi_input_monitor.sv(73) @ 1045: uvm_test_top.env.agt.inp_mon [AXI_INP_MON] [WRITE INPUT COMPLETE] addr=0x0000001b data=0x4b6a53bd strb=0xf
UVM_INFO src/tb/agent/axi_out_monitor.sv(54) @ 1065: uvm_test_top.env.agt.out_mon [AXI_OUT_MON] [WRITE OUTPUT COMPLETE] resp=2
UVM_INFO src/tb/env/axi_scoreboard.sv(126) @ 1065: uvm_test_top.env.scb [AXI_SCOREBOARD] [WRITE RESP PASS] addr=0x0000001b resp=2'b10
UVM_INFO src/tb/sequences/axi_unaligned_seq.sv(28) @ 1075: uvm_test_top.env.agt.wr_sqr@@wr_seq [AXI_UNALIGNED_WR] WRITE UNALIGNED addr=0x0000001b (offset=3) resp=2 (expected SLVERR)
UVM_INFO src/tb/agent/axi_input_monitor.sv(73) @ 1095: uvm_test_top.env.agt.inp_mon [AXI_INP_MON] [WRITE INPUT COMPLETE] addr=0x0000001d data=0xae9b0bb1 strb=0xf
UVM_INFO src/tb/agent/axi_out_monitor.sv(54) @ 1115: uvm_test_top.env.agt.out_mon [AXI_OUT_MON] [WRITE OUTPUT COMPLETE] resp=2
UVM_INFO src/tb/env/axi_scoreboard.sv(126) @ 1115: uvm_test_top.env.scb [AXI_SCOREBOARD] [WRITE RESP PASS] addr=0x0000001d resp=2'b10
UVM_INFO src/tb/sequences/axi_unaligned_seq.sv(28) @ 1125: uvm_test_top.env.agt.wr_sqr@@wr_seq [AXI_UNALIGNED_WR] WRITE UNALIGNED addr=0x0000001d (offset=1) resp=2 (expected SLVERR)
UVM_INFO src/tb/agent/axi_input_monitor.sv(73) @ 1145: uvm_test_top.env.agt.inp_mon [AXI_INP_MON] [WRITE INPUT COMPLETE] addr=0x0000001e data=0x79653687 strb=0xf
UVM_INFO src/tb/agent/axi_out_monitor.sv(54) @ 1165: uvm_test_top.env.agt.out_mon [AXI_OUT_MON] [WRITE OUTPUT COMPLETE] resp=2
UVM_INFO src/tb/env/axi_scoreboard.sv(126) @ 1165: uvm_test_top.env.scb [AXI_SCOREBOARD] [WRITE RESP PASS] addr=0x0000001e resp=2'b10
UVM_INFO src/tb/sequences/axi_unaligned_seq.sv(28) @ 1175: uvm_test_top.env.agt.wr_sqr@@wr_seq [AXI_UNALIGNED_WR] WRITE UNALIGNED addr=0x0000001e (offset=2) resp=2 (expected SLVERR)
UVM_INFO src/tb/agent/axi_input_monitor.sv(73) @ 1195: uvm_test_top.env.agt.inp_mon [AXI_INP_MON] [WRITE INPUT COMPLETE] addr=0x0000001f data=0x8cf008b6 strb=0xf
UVM_INFO src/tb/agent/axi_out_monitor.sv(54) @ 1215: uvm_test_top.env.agt.out_mon [AXI_OUT_MON] [WRITE OUTPUT COMPLETE] resp=2
UVM_INFO src/tb/env/axi_scoreboard.sv(126) @ 1215: uvm_test_top.env.scb [AXI_SCOREBOARD] [WRITE RESP PASS] addr=0x0000001f resp=2'b10
UVM_INFO src/tb/sequences/axi_unaligned_seq.sv(28) @ 1225: uvm_test_top.env.agt.wr_sqr@@wr_seq [AXI_UNALIGNED_WR] WRITE UNALIGNED addr=0x0000001f (offset=3) resp=2 (expected SLVERR)
UVM_INFO src/tb/sequences/axi_unaligned_seq.sv(33) @ 1225: uvm_test_top.env.agt.wr_sqr@@wr_seq [AXI_UNALIGNED_WR] Unaligned Address Write Sequence Complete
UVM_INFO /fetools/synopsys/installed_tools/vcs/vcs/Q-2020.03-SP2-8/etc/uvm/base/uvm_objection.svh(1274) @ 1225: reporter [TEST_DONE] 'run' phase is ready to proceed to the 'extract' phase
UVM_INFO src/tb/env/axi_subscriber.sv(140) @ 1225: uvm_test_top.env.cov [AXI_COVERAGE] 
============ COVERAGE SUMMARY ============
  Write Coverage : 34.90%
  Read  Coverage : 44.44%
=============================================
UVM_INFO src/tb/env/axi_scoreboard.sv(195) @ 1225: uvm_test_top.env.scb [AXI_SCOREBOARD] 
============ SCOREBOARD SUMMARY ============
  Total Writes  : 24
  Total Reads   : 24
  Total Pass    : 48
  Total Fail    : 0
=============================================
UVM_INFO src/tb/env/axi_scoreboard.sv(201) @ 1225: uvm_test_top.env.scb [AXI_SCOREBOARD] ALL CHECKS PASSED
UVM_INFO src/tb/tests/axi_test.sv(39) @ 1225: uvm_test_top [AXI_TEST] 
*** TEST PASSED ***

--- UVM Report Summary ---

** Report counts by severity
UVM_INFO :  204
UVM_WARNING :    0
UVM_ERROR :    0
UVM_FATAL :    0
** Report counts by id
[AXI_COVERAGE]     1
[AXI_INP_MON]    48
[AXI_OUT_MON]    48
[AXI_SCOREBOARD]    50
[AXI_TEST]     1
[AXI_UNALIGNED_RD]    26
[AXI_UNALIGNED_WR]    26
[RNTST]     1
[TESTBENCH]     1
[TEST_DONE]     1
[UVMTOP]     1
$finish called from file "/fetools/synopsys/installed_tools/vcs/vcs/Q-2020.03-SP2-8/etc/uvm/base/uvm_root.svh", line 437.
$finish at simulation time                 1225

---------------------------------------------------------------------------
VCS Coverage Metrics: during simulation line, cond, FSM, branch, tgl was monitored
---------------------------------------------------------------------------
           V C S   S i m u l a t i o n   R e p o r t 
Time: 1225 ns
CPU Time:      0.660 seconds;       Data structure size:   0.7Mb
Mon Sep 21 14:31:05 2026
