Command: /fetools/work_area/frontend/Batch_11/Kittu_Patel/UVM/Project/AXI/./simv +UVM_TESTNAME=axi_wstrb_test +ntb_random_seed=2 +UVM_VERBOSITY=UVM_MEDIUM -cm line+cond+fsm+tgl+branch -cm_name axi_wstrb_test_seed_2 -cm_dir simv.vdb -l regression_logs/axi_wstrb_test_seed_2.log
Chronologic VCS simulator copyright 1991-2020
Contains Synopsys proprietary information.
Compiler version Q-2020.03-SP2-8_Full64; Runtime version Q-2020.03-SP2-8_Full64;  Sep 18 01:25 2026
----------------------------------------------------------------
UVM-1.1d.Synopsys
(C) 2007-2013 Mentor Graphics Corporation
(C) 2007-2013 Cadence Design Systems, Inc.
(C) 2006-2013 Synopsys, Inc.
(C) 2011-2013 Cypress Semiconductor Corp.
----------------------------------------------------------------

  ***********       IMPORTANT RELEASE NOTES         ************

  You are using a version of the UVM library that has been compiled
  with `UVM_NO_DEPRECATED undefined.
  See http://www.eda.org/svdb/view.php?id=3313 for more details.

  You are using a version of the UVM library that has been compiled
  with `UVM_OBJECT_MUST_HAVE_CONSTRUCTOR undefined.
  See http://www.eda.org/svdb/view.php?id=3770 for more details.

      (Specify +UVM_NO_RELNOTES to turn off this notice)

UVM_INFO @ 0: reporter [RNTST] Running test axi_wstrb_test...
UVM_INFO @ 0: reporter [UVMTOP] UVM testbench topology:
------------------------------------------------------------------
Name                       Type                        Size  Value
------------------------------------------------------------------
uvm_test_top               axi_wstrb_test              -     @461 
  env                      axi_env                     -     @469 
    agt                    axi_act_agent               -     @477 
      drv                  axi_override_driver         -     @751 
        rd_item_port       uvm_seq_item_pull_port      -     @777 
        rsp_port           uvm_analysis_port           -     @768 
        seq_item_port      uvm_seq_item_pull_port      -     @759 
      mon                  axi_monitor                 -     @786 
        read_ap            uvm_analysis_port           -     @804 
        write_ap           uvm_analysis_port           -     @795 
      rd_sqr               axi_sequencer               -     @628 
        rsp_export         uvm_analysis_export         -     @636 
        seq_item_export    uvm_seq_item_pull_imp       -     @742 
        arbitration_queue  array                       0     -    
        lock_queue         array                       0     -    
        num_last_reqs      integral                    32    'd1  
        num_last_rsps      integral                    32    'd1  
      wr_sqr               axi_sequencer               -     @505 
        rsp_export         uvm_analysis_export         -     @513 
        seq_item_export    uvm_seq_item_pull_imp       -     @619 
        arbitration_queue  array                       0     -    
        lock_queue         array                       0     -    
        num_last_reqs      integral                    32    'd1  
        num_last_rsps      integral                    32    'd1  
    cov                    axi_sub                     -     @493 
      read_export          uvm_analysis_imp_cov_read   -     @833 
      write_export         uvm_analysis_imp_cov_write  -     @824 
    scb                    axi_scb                     -     @485 
      read_export          uvm_analysis_imp_read_txn   -     @851 
      write_export         uvm_analysis_imp_write_txn  -     @842 
------------------------------------------------------------------

UVM_INFO axi_wstrb_seq.sv(15) @ 0: uvm_test_top.env.agt.wr_sqr@@wr_seq [AXI_WSTRB_WR] Starting WSTRB Write Sequence across all 16 strobe patterns
UVM_INFO axi_top.sv(25) @ 15: reporter [TESTBENCH] Reset released
UVM_INFO axi_input_monitor.sv(78) @ 65: uvm_test_top.env.agt.mon [AXI_MONITOR] [WRITE COMPLETE] addr=0x00000000 data=0x00000000 strb=0xf resp=0
UVM_INFO axi_scoreboard.sv(85) @ 65: uvm_test_top.env.scb [AXI_SCOREBOARD] [WRITE RESP PASS] addr=0x00000000 resp=2'b00
UVM_INFO axi_wstrb_seq.sv(45) @ 125: uvm_test_top.env.agt.wr_sqr@@wr_seq [AXI_WSTRB_WR] WRITE strb=4'b0000 data=0xDEADBEEF resp=0
UVM_INFO axi_top.sv(25) @ 135: reporter [TESTBENCH] Reset released
UVM_INFO axi_input_monitor.sv(78) @ 175: uvm_test_top.env.agt.mon [AXI_MONITOR] [WRITE COMPLETE] addr=0x00000000 data=0x00000000 strb=0xf resp=0
UVM_INFO axi_scoreboard.sv(85) @ 175: uvm_test_top.env.scb [AXI_SCOREBOARD] [WRITE RESP PASS] addr=0x00000000 resp=2'b00
UVM_INFO axi_input_monitor.sv(78) @ 225: uvm_test_top.env.agt.mon [AXI_MONITOR] [WRITE COMPLETE] addr=0x00000000 data=0xdeadbeef strb=0x1 resp=0
UVM_INFO axi_scoreboard.sv(85) @ 225: uvm_test_top.env.scb [AXI_SCOREBOARD] [WRITE RESP PASS] addr=0x00000000 resp=2'b00
UVM_INFO axi_wstrb_seq.sv(45) @ 235: uvm_test_top.env.agt.wr_sqr@@wr_seq [AXI_WSTRB_WR] WRITE strb=4'b0001 data=0xDEADBEEF resp=0
UVM_INFO axi_input_monitor.sv(78) @ 275: uvm_test_top.env.agt.mon [AXI_MONITOR] [WRITE COMPLETE] addr=0x00000000 data=0x00000000 strb=0xf resp=0
UVM_INFO axi_scoreboard.sv(85) @ 275: uvm_test_top.env.scb [AXI_SCOREBOARD] [WRITE RESP PASS] addr=0x00000000 resp=2'b00
UVM_INFO axi_input_monitor.sv(78) @ 325: uvm_test_top.env.agt.mon [AXI_MONITOR] [WRITE COMPLETE] addr=0x00000000 data=0xdeadbeef strb=0x2 resp=0
UVM_INFO axi_scoreboard.sv(85) @ 325: uvm_test_top.env.scb [AXI_SCOREBOARD] [WRITE RESP PASS] addr=0x00000000 resp=2'b00
UVM_INFO axi_wstrb_seq.sv(45) @ 335: uvm_test_top.env.agt.wr_sqr@@wr_seq [AXI_WSTRB_WR] WRITE strb=4'b0010 data=0xDEADBEEF resp=0
UVM_INFO axi_input_monitor.sv(78) @ 375: uvm_test_top.env.agt.mon [AXI_MONITOR] [WRITE COMPLETE] addr=0x00000000 data=0x00000000 strb=0xf resp=0
UVM_INFO axi_scoreboard.sv(85) @ 375: uvm_test_top.env.scb [AXI_SCOREBOARD] [WRITE RESP PASS] addr=0x00000000 resp=2'b00
UVM_INFO axi_input_monitor.sv(78) @ 425: uvm_test_top.env.agt.mon [AXI_MONITOR] [WRITE COMPLETE] addr=0x00000000 data=0xdeadbeef strb=0x3 resp=0
UVM_INFO axi_scoreboard.sv(85) @ 425: uvm_test_top.env.scb [AXI_SCOREBOARD] [WRITE RESP PASS] addr=0x00000000 resp=2'b00
UVM_INFO axi_wstrb_seq.sv(45) @ 435: uvm_test_top.env.agt.wr_sqr@@wr_seq [AXI_WSTRB_WR] WRITE strb=4'b0011 data=0xDEADBEEF resp=0
UVM_INFO axi_input_monitor.sv(78) @ 475: uvm_test_top.env.agt.mon [AXI_MONITOR] [WRITE COMPLETE] addr=0x00000000 data=0x00000000 strb=0xf resp=0
UVM_INFO axi_scoreboard.sv(85) @ 475: uvm_test_top.env.scb [AXI_SCOREBOARD] [WRITE RESP PASS] addr=0x00000000 resp=2'b00
UVM_INFO axi_input_monitor.sv(78) @ 525: uvm_test_top.env.agt.mon [AXI_MONITOR] [WRITE COMPLETE] addr=0x00000000 data=0xdeadbeef strb=0x4 resp=0
UVM_INFO axi_scoreboard.sv(85) @ 525: uvm_test_top.env.scb [AXI_SCOREBOARD] [WRITE RESP PASS] addr=0x00000000 resp=2'b00
UVM_INFO axi_wstrb_seq.sv(45) @ 535: uvm_test_top.env.agt.wr_sqr@@wr_seq [AXI_WSTRB_WR] WRITE strb=4'b0100 data=0xDEADBEEF resp=0
UVM_INFO axi_input_monitor.sv(78) @ 575: uvm_test_top.env.agt.mon [AXI_MONITOR] [WRITE COMPLETE] addr=0x00000000 data=0x00000000 strb=0xf resp=0
UVM_INFO axi_scoreboard.sv(85) @ 575: uvm_test_top.env.scb [AXI_SCOREBOARD] [WRITE RESP PASS] addr=0x00000000 resp=2'b00
UVM_INFO axi_input_monitor.sv(78) @ 625: uvm_test_top.env.agt.mon [AXI_MONITOR] [WRITE COMPLETE] addr=0x00000000 data=0xdeadbeef strb=0x5 resp=0
UVM_INFO axi_scoreboard.sv(85) @ 625: uvm_test_top.env.scb [AXI_SCOREBOARD] [WRITE RESP PASS] addr=0x00000000 resp=2'b00
UVM_INFO axi_wstrb_seq.sv(45) @ 635: uvm_test_top.env.agt.wr_sqr@@wr_seq [AXI_WSTRB_WR] WRITE strb=4'b0101 data=0xDEADBEEF resp=0
UVM_INFO axi_input_monitor.sv(78) @ 675: uvm_test_top.env.agt.mon [AXI_MONITOR] [WRITE COMPLETE] addr=0x00000000 data=0x00000000 strb=0xf resp=0
UVM_INFO axi_scoreboard.sv(85) @ 675: uvm_test_top.env.scb [AXI_SCOREBOARD] [WRITE RESP PASS] addr=0x00000000 resp=2'b00
UVM_INFO axi_input_monitor.sv(78) @ 725: uvm_test_top.env.agt.mon [AXI_MONITOR] [WRITE COMPLETE] addr=0x00000000 data=0xdeadbeef strb=0x6 resp=0
UVM_INFO axi_scoreboard.sv(85) @ 725: uvm_test_top.env.scb [AXI_SCOREBOARD] [WRITE RESP PASS] addr=0x00000000 resp=2'b00
UVM_INFO axi_wstrb_seq.sv(45) @ 735: uvm_test_top.env.agt.wr_sqr@@wr_seq [AXI_WSTRB_WR] WRITE strb=4'b0110 data=0xDEADBEEF resp=0
UVM_INFO axi_input_monitor.sv(78) @ 775: uvm_test_top.env.agt.mon [AXI_MONITOR] [WRITE COMPLETE] addr=0x00000000 data=0x00000000 strb=0xf resp=0
UVM_INFO axi_scoreboard.sv(85) @ 775: uvm_test_top.env.scb [AXI_SCOREBOARD] [WRITE RESP PASS] addr=0x00000000 resp=2'b00
UVM_INFO axi_input_monitor.sv(78) @ 825: uvm_test_top.env.agt.mon [AXI_MONITOR] [WRITE COMPLETE] addr=0x00000000 data=0xdeadbeef strb=0x7 resp=0
UVM_INFO axi_scoreboard.sv(85) @ 825: uvm_test_top.env.scb [AXI_SCOREBOARD] [WRITE RESP PASS] addr=0x00000000 resp=2'b00
UVM_INFO axi_wstrb_seq.sv(45) @ 835: uvm_test_top.env.agt.wr_sqr@@wr_seq [AXI_WSTRB_WR] WRITE strb=4'b0111 data=0xDEADBEEF resp=0
UVM_INFO axi_input_monitor.sv(78) @ 875: uvm_test_top.env.agt.mon [AXI_MONITOR] [WRITE COMPLETE] addr=0x00000000 data=0x00000000 strb=0xf resp=0
UVM_INFO axi_scoreboard.sv(85) @ 875: uvm_test_top.env.scb [AXI_SCOREBOARD] [WRITE RESP PASS] addr=0x00000000 resp=2'b00
UVM_INFO axi_input_monitor.sv(78) @ 925: uvm_test_top.env.agt.mon [AXI_MONITOR] [WRITE COMPLETE] addr=0x00000000 data=0xdeadbeef strb=0x8 resp=0
UVM_INFO axi_scoreboard.sv(85) @ 925: uvm_test_top.env.scb [AXI_SCOREBOARD] [WRITE RESP PASS] addr=0x00000000 resp=2'b00
UVM_INFO axi_wstrb_seq.sv(45) @ 935: uvm_test_top.env.agt.wr_sqr@@wr_seq [AXI_WSTRB_WR] WRITE strb=4'b1000 data=0xDEADBEEF resp=0
UVM_INFO axi_input_monitor.sv(78) @ 975: uvm_test_top.env.agt.mon [AXI_MONITOR] [WRITE COMPLETE] addr=0x00000000 data=0x00000000 strb=0xf resp=0
UVM_INFO axi_scoreboard.sv(85) @ 975: uvm_test_top.env.scb [AXI_SCOREBOARD] [WRITE RESP PASS] addr=0x00000000 resp=2'b00
UVM_INFO axi_input_monitor.sv(78) @ 1025: uvm_test_top.env.agt.mon [AXI_MONITOR] [WRITE COMPLETE] addr=0x00000000 data=0xdeadbeef strb=0x9 resp=0
UVM_INFO axi_scoreboard.sv(85) @ 1025: uvm_test_top.env.scb [AXI_SCOREBOARD] [WRITE RESP PASS] addr=0x00000000 resp=2'b00
UVM_INFO axi_wstrb_seq.sv(45) @ 1035: uvm_test_top.env.agt.wr_sqr@@wr_seq [AXI_WSTRB_WR] WRITE strb=4'b1001 data=0xDEADBEEF resp=0
UVM_INFO axi_input_monitor.sv(78) @ 1075: uvm_test_top.env.agt.mon [AXI_MONITOR] [WRITE COMPLETE] addr=0x00000000 data=0x00000000 strb=0xf resp=0
UVM_INFO axi_scoreboard.sv(85) @ 1075: uvm_test_top.env.scb [AXI_SCOREBOARD] [WRITE RESP PASS] addr=0x00000000 resp=2'b00
UVM_INFO axi_input_monitor.sv(78) @ 1125: uvm_test_top.env.agt.mon [AXI_MONITOR] [WRITE COMPLETE] addr=0x00000000 data=0xdeadbeef strb=0xa resp=0
UVM_INFO axi_scoreboard.sv(85) @ 1125: uvm_test_top.env.scb [AXI_SCOREBOARD] [WRITE RESP PASS] addr=0x00000000 resp=2'b00
UVM_INFO axi_wstrb_seq.sv(45) @ 1135: uvm_test_top.env.agt.wr_sqr@@wr_seq [AXI_WSTRB_WR] WRITE strb=4'b1010 data=0xDEADBEEF resp=0
UVM_INFO axi_input_monitor.sv(78) @ 1175: uvm_test_top.env.agt.mon [AXI_MONITOR] [WRITE COMPLETE] addr=0x00000000 data=0x00000000 strb=0xf resp=0
UVM_INFO axi_scoreboard.sv(85) @ 1175: uvm_test_top.env.scb [AXI_SCOREBOARD] [WRITE RESP PASS] addr=0x00000000 resp=2'b00
UVM_INFO axi_input_monitor.sv(78) @ 1225: uvm_test_top.env.agt.mon [AXI_MONITOR] [WRITE COMPLETE] addr=0x00000000 data=0xdeadbeef strb=0xb resp=0
UVM_INFO axi_scoreboard.sv(85) @ 1225: uvm_test_top.env.scb [AXI_SCOREBOARD] [WRITE RESP PASS] addr=0x00000000 resp=2'b00
UVM_INFO axi_wstrb_seq.sv(45) @ 1235: uvm_test_top.env.agt.wr_sqr@@wr_seq [AXI_WSTRB_WR] WRITE strb=4'b1011 data=0xDEADBEEF resp=0
UVM_INFO axi_input_monitor.sv(78) @ 1275: uvm_test_top.env.agt.mon [AXI_MONITOR] [WRITE COMPLETE] addr=0x00000000 data=0x00000000 strb=0xf resp=0
UVM_INFO axi_scoreboard.sv(85) @ 1275: uvm_test_top.env.scb [AXI_SCOREBOARD] [WRITE RESP PASS] addr=0x00000000 resp=2'b00
UVM_INFO axi_input_monitor.sv(78) @ 1325: uvm_test_top.env.agt.mon [AXI_MONITOR] [WRITE COMPLETE] addr=0x00000000 data=0xdeadbeef strb=0xc resp=0
UVM_INFO axi_scoreboard.sv(85) @ 1325: uvm_test_top.env.scb [AXI_SCOREBOARD] [WRITE RESP PASS] addr=0x00000000 resp=2'b00
UVM_INFO axi_wstrb_seq.sv(45) @ 1335: uvm_test_top.env.agt.wr_sqr@@wr_seq [AXI_WSTRB_WR] WRITE strb=4'b1100 data=0xDEADBEEF resp=0
UVM_INFO axi_input_monitor.sv(78) @ 1375: uvm_test_top.env.agt.mon [AXI_MONITOR] [WRITE COMPLETE] addr=0x00000000 data=0x00000000 strb=0xf resp=0
UVM_INFO axi_scoreboard.sv(85) @ 1375: uvm_test_top.env.scb [AXI_SCOREBOARD] [WRITE RESP PASS] addr=0x00000000 resp=2'b00
UVM_INFO axi_input_monitor.sv(78) @ 1425: uvm_test_top.env.agt.mon [AXI_MONITOR] [WRITE COMPLETE] addr=0x00000000 data=0xdeadbeef strb=0xd resp=0
UVM_INFO axi_scoreboard.sv(85) @ 1425: uvm_test_top.env.scb [AXI_SCOREBOARD] [WRITE RESP PASS] addr=0x00000000 resp=2'b00
UVM_INFO axi_wstrb_seq.sv(45) @ 1435: uvm_test_top.env.agt.wr_sqr@@wr_seq [AXI_WSTRB_WR] WRITE strb=4'b1101 data=0xDEADBEEF resp=0
UVM_INFO axi_input_monitor.sv(78) @ 1475: uvm_test_top.env.agt.mon [AXI_MONITOR] [WRITE COMPLETE] addr=0x00000000 data=0x00000000 strb=0xf resp=0
UVM_INFO axi_scoreboard.sv(85) @ 1475: uvm_test_top.env.scb [AXI_SCOREBOARD] [WRITE RESP PASS] addr=0x00000000 resp=2'b00
UVM_INFO axi_input_monitor.sv(78) @ 1525: uvm_test_top.env.agt.mon [AXI_MONITOR] [WRITE COMPLETE] addr=0x00000000 data=0xdeadbeef strb=0xe resp=0
UVM_INFO axi_scoreboard.sv(85) @ 1525: uvm_test_top.env.scb [AXI_SCOREBOARD] [WRITE RESP PASS] addr=0x00000000 resp=2'b00
UVM_INFO axi_wstrb_seq.sv(45) @ 1535: uvm_test_top.env.agt.wr_sqr@@wr_seq [AXI_WSTRB_WR] WRITE strb=4'b1110 data=0xDEADBEEF resp=0
UVM_INFO axi_input_monitor.sv(78) @ 1575: uvm_test_top.env.agt.mon [AXI_MONITOR] [WRITE COMPLETE] addr=0x00000000 data=0x00000000 strb=0xf resp=0
UVM_INFO axi_scoreboard.sv(85) @ 1575: uvm_test_top.env.scb [AXI_SCOREBOARD] [WRITE RESP PASS] addr=0x00000000 resp=2'b00
UVM_INFO axi_input_monitor.sv(78) @ 1625: uvm_test_top.env.agt.mon [AXI_MONITOR] [WRITE COMPLETE] addr=0x00000000 data=0xdeadbeef strb=0xf resp=0
UVM_INFO axi_scoreboard.sv(85) @ 1625: uvm_test_top.env.scb [AXI_SCOREBOARD] [WRITE RESP PASS] addr=0x00000000 resp=2'b00
UVM_INFO axi_wstrb_seq.sv(45) @ 1635: uvm_test_top.env.agt.wr_sqr@@wr_seq [AXI_WSTRB_WR] WRITE strb=4'b1111 data=0xDEADBEEF resp=0
UVM_INFO axi_wstrb_seq.sv(48) @ 1635: uvm_test_top.env.agt.wr_sqr@@wr_seq [AXI_WSTRB_WR] WSTRB Write Sequence Complete
UVM_INFO axi_wstrb_seq.sv(61) @ 1635: uvm_test_top.env.agt.rd_sqr@@rd_seq [AXI_WSTRB_RD] Starting WSTRB Read Verification Sequence
UVM_INFO axi_input_monitor.sv(117) @ 1655: uvm_test_top.env.agt.mon [AXI_MONITOR] [READ COMPLETE] addr=0x00000000 data=0xdeadbeef resp=0
UVM_INFO axi_scoreboard.sv(125) @ 1655: uvm_test_top.env.scb [AXI_SCOREBOARD] [READ DATA PASS] addr=0x00000000 data=0xdeadbeef
UVM_INFO axi_wstrb_seq.sv(73) @ 1665: uvm_test_top.env.agt.rd_sqr@@rd_seq [AXI_WSTRB_RD] READ addr=0x0 data=0xdeadbeef resp=0
UVM_INFO axi_input_monitor.sv(117) @ 1685: uvm_test_top.env.agt.mon [AXI_MONITOR] [READ COMPLETE] addr=0x00000000 data=0xdeadbeef resp=0
UVM_INFO axi_scoreboard.sv(125) @ 1685: uvm_test_top.env.scb [AXI_SCOREBOARD] [READ DATA PASS] addr=0x00000000 data=0xdeadbeef
UVM_INFO axi_wstrb_seq.sv(73) @ 1695: uvm_test_top.env.agt.rd_sqr@@rd_seq [AXI_WSTRB_RD] READ addr=0x0 data=0xdeadbeef resp=0
UVM_INFO axi_input_monitor.sv(117) @ 1715: uvm_test_top.env.agt.mon [AXI_MONITOR] [READ COMPLETE] addr=0x00000000 data=0xdeadbeef resp=0
UVM_INFO axi_scoreboard.sv(125) @ 1715: uvm_test_top.env.scb [AXI_SCOREBOARD] [READ DATA PASS] addr=0x00000000 data=0xdeadbeef
UVM_INFO axi_wstrb_seq.sv(73) @ 1725: uvm_test_top.env.agt.rd_sqr@@rd_seq [AXI_WSTRB_RD] READ addr=0x0 data=0xdeadbeef resp=0
UVM_INFO axi_input_monitor.sv(117) @ 1745: uvm_test_top.env.agt.mon [AXI_MONITOR] [READ COMPLETE] addr=0x00000000 data=0xdeadbeef resp=0
UVM_INFO axi_scoreboard.sv(125) @ 1745: uvm_test_top.env.scb [AXI_SCOREBOARD] [READ DATA PASS] addr=0x00000000 data=0xdeadbeef
UVM_INFO axi_wstrb_seq.sv(73) @ 1755: uvm_test_top.env.agt.rd_sqr@@rd_seq [AXI_WSTRB_RD] READ addr=0x0 data=0xdeadbeef resp=0
UVM_INFO axi_input_monitor.sv(117) @ 1775: uvm_test_top.env.agt.mon [AXI_MONITOR] [READ COMPLETE] addr=0x00000000 data=0xdeadbeef resp=0
UVM_INFO axi_scoreboard.sv(125) @ 1775: uvm_test_top.env.scb [AXI_SCOREBOARD] [READ DATA PASS] addr=0x00000000 data=0xdeadbeef
UVM_INFO axi_wstrb_seq.sv(73) @ 1785: uvm_test_top.env.agt.rd_sqr@@rd_seq [AXI_WSTRB_RD] READ addr=0x0 data=0xdeadbeef resp=0
UVM_INFO axi_input_monitor.sv(117) @ 1805: uvm_test_top.env.agt.mon [AXI_MONITOR] [READ COMPLETE] addr=0x00000000 data=0xdeadbeef resp=0
UVM_INFO axi_scoreboard.sv(125) @ 1805: uvm_test_top.env.scb [AXI_SCOREBOARD] [READ DATA PASS] addr=0x00000000 data=0xdeadbeef
UVM_INFO axi_wstrb_seq.sv(73) @ 1815: uvm_test_top.env.agt.rd_sqr@@rd_seq [AXI_WSTRB_RD] READ addr=0x0 data=0xdeadbeef resp=0
UVM_INFO axi_input_monitor.sv(117) @ 1835: uvm_test_top.env.agt.mon [AXI_MONITOR] [READ COMPLETE] addr=0x00000000 data=0xdeadbeef resp=0
UVM_INFO axi_scoreboard.sv(125) @ 1835: uvm_test_top.env.scb [AXI_SCOREBOARD] [READ DATA PASS] addr=0x00000000 data=0xdeadbeef
UVM_INFO axi_wstrb_seq.sv(73) @ 1845: uvm_test_top.env.agt.rd_sqr@@rd_seq [AXI_WSTRB_RD] READ addr=0x0 data=0xdeadbeef resp=0
UVM_INFO axi_input_monitor.sv(117) @ 1865: uvm_test_top.env.agt.mon [AXI_MONITOR] [READ COMPLETE] addr=0x00000000 data=0xdeadbeef resp=0
UVM_INFO axi_scoreboard.sv(125) @ 1865: uvm_test_top.env.scb [AXI_SCOREBOARD] [READ DATA PASS] addr=0x00000000 data=0xdeadbeef
UVM_INFO axi_wstrb_seq.sv(73) @ 1875: uvm_test_top.env.agt.rd_sqr@@rd_seq [AXI_WSTRB_RD] READ addr=0x0 data=0xdeadbeef resp=0
UVM_INFO axi_input_monitor.sv(117) @ 1895: uvm_test_top.env.agt.mon [AXI_MONITOR] [READ COMPLETE] addr=0x00000000 data=0xdeadbeef resp=0
UVM_INFO axi_scoreboard.sv(125) @ 1895: uvm_test_top.env.scb [AXI_SCOREBOARD] [READ DATA PASS] addr=0x00000000 data=0xdeadbeef
UVM_INFO axi_wstrb_seq.sv(73) @ 1905: uvm_test_top.env.agt.rd_sqr@@rd_seq [AXI_WSTRB_RD] READ addr=0x0 data=0xdeadbeef resp=0
UVM_INFO axi_input_monitor.sv(117) @ 1925: uvm_test_top.env.agt.mon [AXI_MONITOR] [READ COMPLETE] addr=0x00000000 data=0xdeadbeef resp=0
UVM_INFO axi_scoreboard.sv(125) @ 1925: uvm_test_top.env.scb [AXI_SCOREBOARD] [READ DATA PASS] addr=0x00000000 data=0xdeadbeef
UVM_INFO axi_wstrb_seq.sv(73) @ 1935: uvm_test_top.env.agt.rd_sqr@@rd_seq [AXI_WSTRB_RD] READ addr=0x0 data=0xdeadbeef resp=0
UVM_INFO axi_input_monitor.sv(117) @ 1955: uvm_test_top.env.agt.mon [AXI_MONITOR] [READ COMPLETE] addr=0x00000000 data=0xdeadbeef resp=0
UVM_INFO axi_scoreboard.sv(125) @ 1955: uvm_test_top.env.scb [AXI_SCOREBOARD] [READ DATA PASS] addr=0x00000000 data=0xdeadbeef
UVM_INFO axi_wstrb_seq.sv(73) @ 1965: uvm_test_top.env.agt.rd_sqr@@rd_seq [AXI_WSTRB_RD] READ addr=0x0 data=0xdeadbeef resp=0
UVM_INFO axi_input_monitor.sv(117) @ 1985: uvm_test_top.env.agt.mon [AXI_MONITOR] [READ COMPLETE] addr=0x00000000 data=0xdeadbeef resp=0
UVM_INFO axi_scoreboard.sv(125) @ 1985: uvm_test_top.env.scb [AXI_SCOREBOARD] [READ DATA PASS] addr=0x00000000 data=0xdeadbeef
UVM_INFO axi_wstrb_seq.sv(73) @ 1995: uvm_test_top.env.agt.rd_sqr@@rd_seq [AXI_WSTRB_RD] READ addr=0x0 data=0xdeadbeef resp=0
UVM_INFO axi_input_monitor.sv(117) @ 2015: uvm_test_top.env.agt.mon [AXI_MONITOR] [READ COMPLETE] addr=0x00000000 data=0xdeadbeef resp=0
UVM_INFO axi_scoreboard.sv(125) @ 2015: uvm_test_top.env.scb [AXI_SCOREBOARD] [READ DATA PASS] addr=0x00000000 data=0xdeadbeef
UVM_INFO axi_wstrb_seq.sv(73) @ 2025: uvm_test_top.env.agt.rd_sqr@@rd_seq [AXI_WSTRB_RD] READ addr=0x0 data=0xdeadbeef resp=0
UVM_INFO axi_input_monitor.sv(117) @ 2045: uvm_test_top.env.agt.mon [AXI_MONITOR] [READ COMPLETE] addr=0x00000000 data=0xdeadbeef resp=0
UVM_INFO axi_scoreboard.sv(125) @ 2045: uvm_test_top.env.scb [AXI_SCOREBOARD] [READ DATA PASS] addr=0x00000000 data=0xdeadbeef
UVM_INFO axi_wstrb_seq.sv(73) @ 2055: uvm_test_top.env.agt.rd_sqr@@rd_seq [AXI_WSTRB_RD] READ addr=0x0 data=0xdeadbeef resp=0
UVM_INFO axi_input_monitor.sv(117) @ 2075: uvm_test_top.env.agt.mon [AXI_MONITOR] [READ COMPLETE] addr=0x00000000 data=0xdeadbeef resp=0
UVM_INFO axi_scoreboard.sv(125) @ 2075: uvm_test_top.env.scb [AXI_SCOREBOARD] [READ DATA PASS] addr=0x00000000 data=0xdeadbeef
UVM_INFO axi_wstrb_seq.sv(73) @ 2085: uvm_test_top.env.agt.rd_sqr@@rd_seq [AXI_WSTRB_RD] READ addr=0x0 data=0xdeadbeef resp=0
UVM_INFO axi_input_monitor.sv(117) @ 2105: uvm_test_top.env.agt.mon [AXI_MONITOR] [READ COMPLETE] addr=0x00000000 data=0xdeadbeef resp=0
UVM_INFO axi_scoreboard.sv(125) @ 2105: uvm_test_top.env.scb [AXI_SCOREBOARD] [READ DATA PASS] addr=0x00000000 data=0xdeadbeef
UVM_INFO axi_wstrb_seq.sv(73) @ 2115: uvm_test_top.env.agt.rd_sqr@@rd_seq [AXI_WSTRB_RD] READ addr=0x0 data=0xdeadbeef resp=0
UVM_INFO axi_wstrb_seq.sv(76) @ 2115: uvm_test_top.env.agt.rd_sqr@@rd_seq [AXI_WSTRB_RD] WSTRB Read Verification Sequence Complete
UVM_INFO /fetools/synopsys/installed_tools/vcs/vcs/Q-2020.03-SP2-8/etc/uvm/base/uvm_objection.svh(1274) @ 2115: reporter [TEST_DONE] 'run' phase is ready to proceed to the 'extract' phase
UVM_INFO axi_subscriber.sv(117) @ 2115: uvm_test_top.env.cov [AXI_COVERAGE] 
============ COVERAGE SUMMARY ============
  Write Coverage : 34.47%
  Read  Coverage : 18.33%
=============================================
UVM_INFO axi_scoreboard.sv(145) @ 2115: uvm_test_top.env.scb [AXI_SCOREBOARD] 
============ SCOREBOARD SUMMARY ============
  Total Writes  : 31
  Total Reads   : 16
  Total Pass    : 47
  Total Fail    : 0
=============================================
UVM_INFO axi_scoreboard.sv(151) @ 2115: uvm_test_top.env.scb [AXI_SCOREBOARD] ALL CHECKS PASSED
UVM_INFO axi_test.sv(37) @ 2115: uvm_test_top [AXI_TEST] 
*** TEST PASSED ***

--- UVM Report Summary ---

** Report counts by severity
UVM_INFO :  139
UVM_WARNING :    0
UVM_ERROR :    0
UVM_FATAL :    0
** Report counts by id
[AXI_COVERAGE]     1
[AXI_MONITOR]    47
[AXI_SCOREBOARD]    49
[AXI_TEST]     1
[AXI_WSTRB_RD]    18
[AXI_WSTRB_WR]    18
[RNTST]     1
[TESTBENCH]     2
[TEST_DONE]     1
[UVMTOP]     1
$finish called from file "/fetools/synopsys/installed_tools/vcs/vcs/Q-2020.03-SP2-8/etc/uvm/base/uvm_root.svh", line 437.
$finish at simulation time                 2115

---------------------------------------------------------------------------
VCS Coverage Metrics: during simulation line, cond, FSM, branch, tgl was monitored
---------------------------------------------------------------------------
           V C S   S i m u l a t i o n   R e p o r t 
Time: 2115
CPU Time:      0.690 seconds;       Data structure size:   0.6Mb
Fri Sep 18 01:25:10 2026
